(1523990280.393043) slcan0 7E4#0221010000000000
(1523990280.416893) slcan0 7EC#103D6101FFFFFFFF
(1523990280.417142) slcan0 7E4#3010000000000000
(1523990280.427907) slcan0 7EC#213E264826480300
(1523990280.439146) slcan0 7EC#22060D6E0D0D0D0D
(1523990280.442660) slcan0 7E4#0221020000000000
(1523990280.448024) slcan0 7EC#230D0D0D000DB303
(1523990280.457088) slcan0 7EC#24B2270000910000
(1523990280.468048) slcan0 7EC#259D5600009DF800
(1523990280.478031) slcan0 7EC#260039E100003782
(1523990280.488042) slcan0 7EC#27001321030D0157
(1523990280.492874) slcan0 7E4#0221030000000000
(1523990280.498366) slcan0 7EC#280000000003E800
(1523990280.515951) slcan0 7EC#10266103FFFFFFFF
(1523990280.516520) slcan0 7E4#3010000000000000
(1523990280.527753) slcan0 7EC#21B3B3B3B3B3B3B2
(1523990280.538926) slcan0 7EC#22B3B3B3B3B3B3B3
(1523990280.542740) slcan0 7E4#0221040000000000
(1523990280.547916) slcan0 7EC#23B3B3B3B3B3B3B3
(1523990280.558108) slcan0 7EC#24B3B3B3B3B3B3B3
(1523990280.568100) slcan0 7EC#25B3B3B3B3000000
(1523990280.583474) slcan0 7EC#10266104FFFFFFFF
(1523990280.584035) slcan0 7E4#3010000000000000
(1523990280.592982) slcan0 7E4#0221050000000000
(1523990280.598358) slcan0 7EC#21B3B3B3B3B3B3B3
(1523990280.616623) slcan0 7EC#22B3B3B3B3B3B3B3
(1523990280.623491) slcan0 7EC#23B3B3B3B3B3B3B3
(1523990280.633404) slcan0 7EC#24B3B3B3B3B3B3B3
(1523990280.642781) slcan0 7E2#0221010000000000
(1523990280.646079) slcan0 7EC#25B3B3B3B3000000
(1523990280.653252) slcan0 7EA#10166101FFE00000
(1523990280.653820) slcan0 7E2#3010000000000000
(1523990280.658176) slcan0 7EC#102D6105FFFFFFFF
(1523990280.658744) slcan0 7E4#3010000000000000
(1523990280.663749) slcan0 7EA#2109215AAA05E102
(1523990280.673732) slcan0 7EA#22000000003B7834
(1523990280.673752) slcan0 7EC#2100000000000D0D
(1523990280.683963) slcan0 7EA#2304200000000000
(1523990280.683999) slcan0 7EC#220D0D0D0D0D2648
(1523990280.692978) slcan0 7E2#0221020000000000
(1523990280.693035) slcan0 7EC#2326480001500D0D
(1523990280.703685) slcan0 7EA#10176102FF800000
(1523990280.703700) slcan0 7EC#2403E85003E8273F
(1523990280.716759) slcan0 7EC#2500290000000000
(1523990280.723323) slcan0 7EC#2600000000000000
(1523990280.723805) slcan0 7E2#3010000000000000
(1523990280.733487) slcan0 7EA#2101010000009411
(1523990280.742730) slcan0 7E5#0221010000000000
(1523990280.745731) slcan0 7EA#22AC7BE6393A065C
(1523990280.754429) slcan0 7EA#2386043A00000000
(1523990280.754449) slcan0 7ED#102C6101FFFFF800
(1523990280.792782) slcan0 7E3#0221010000000000
(1523990280.797286) slcan0 7EB#101E6101000003FF
(1523990280.797570) slcan0 7E5#3010000000000000
(1523990280.797855) slcan0 7E3#3010000000000000
(1523990280.804416) slcan0 7ED#210102990292040B
(1523990280.819435) slcan0 7EB#210C38005286F239
(1523990280.819476) slcan0 7ED#22001476003401BD
(1523990280.824223) slcan0 7ED#2305B04100000000
(1523990280.827332) slcan0 7EB#235304DE39180000
(1523990280.834204) slcan0 7ED#2400250000600000
(1523990280.839089) slcan0 7EB#2400E8FF00000000
(1523990280.842895) slcan0 7D5#0221010000000000
(1523990280.845979) slcan0 7ED#25000001F4867603
(1523990280.854250) slcan0 7ED#2631000000000000
(1523990280.869809) slcan0 7DD#101A6101FB180000
(1523990280.870205) slcan0 7D5#3010000000000000
(1523990280.892748) slcan0 7E4#0221010000000000
(1523990280.903464) slcan0 7EC#103D6101FFFFFFFF
(1523990280.903957) slcan0 7E4#3010000000000000
(1523990280.909748) slcan0 7DD#21BC0DFFF4FCFD02
(1523990280.923559) slcan0 7EC#213E264826480300
(1523990280.929916) slcan0 7DD#22010202FFFFFFFF
(1523990280.933403) slcan0 7EC#22060D6E0D0D0D0D
(1523990280.942949) slcan0 7E4#0221050000000000
(1523990280.946011) slcan0 7EC#230D0D0D000DB302
(1523990280.949686) slcan0 7DD#23000003C6000100
(1523990280.953270) slcan0 7EC#24B2270000910000
(1523990280.963309) slcan0 7EC#259D5600009DF800
(1523990280.973066) slcan0 7EC#260039E100003782
(1523990280.983261) slcan0 7EC#27001321030D0157
(1523990280.992945) slcan0 7E2#0221010000000000
(1523990280.993081) slcan0 7EC#280000000003E800
(1523990281.003398) slcan0 7EA#10166101FFE00000
(1523990281.003944) slcan0 7E2#3010000000000000
(1523990281.015224) slcan0 7EC#102D6105FFFFFFFF
(1523990281.015838) slcan0 7E4#3010000000000000
(1523990281.023300) slcan0 7EA#2109215AAA05E402
(1523990281.028244) slcan0 7EC#2100000000000D0D
(1523990281.033254) slcan0 7EA#2200000000477834
(1523990281.038913) slcan0 7EC#220D0D0D0D0D2648
(1523990281.042516) slcan0 7E2#0221020000000000
(1523990281.048232) slcan0 7EA#2304200000000000
(1523990281.048239) slcan0 7EC#2326480001500D0D
(1523990281.053081) slcan0 7EA#10176102FF800000
(1523990281.058244) slcan0 7EC#2403E85003E8273F
(1523990281.058518) slcan0 7E2#3010000000000000
(1523990281.068366) slcan0 7EC#2500290000000000
(1523990281.073203) slcan0 7EA#2101010000009513
(1523990281.078473) slcan0 7EC#2600000000000000
(1523990281.083354) slcan0 7EA#22AC7B0F3A6F076D
(1523990281.092710) slcan0 7E5#0221010000000000
(1523990281.095850) slcan0 7EA#2386223A00000000
(1523990281.104407) slcan0 7ED#102C6101FFFFF800
(1523990281.104799) slcan0 7E5#3010000000000000
(1523990281.124703) slcan0 7ED#2101029B0294040D
(1523990281.134341) slcan0 7ED#22001476003401BD
(1523990281.142749) slcan0 7E3#0221010000000000
(1523990281.147873) slcan0 7ED#2305B14100000000
(1523990281.147893) slcan0 7EB#101E6101000003FF
(1523990281.154396) slcan0 7ED#2400260000600000
(1523990281.154906) slcan0 7E3#3010000000000000
(1523990281.164461) slcan0 7ED#25000001F4867403
(1523990281.167697) slcan0 7EB#210C38005386363A
(1523990281.174468) slcan0 7ED#262C000000000000
(1523990281.177642) slcan0 7EB#220000000A004202
(1523990281.187606) slcan0 7EB#235404E839000000
(1523990281.192622) slcan0 7D5#0221010000000000
(1523990281.197891) slcan0 7EB#2400000000000000
(1523990281.220247) slcan0 7DD#101A6101FB180000
(1523990281.220718) slcan0 7D5#3010000000000000
(1523990281.242742) slcan0 7E4#0221010000000000
(1523990281.253157) slcan0 7EC#103D6101FFFFFFFF
(1523990281.253673) slcan0 7E4#3010000000000000
(1523990281.260074) slcan0 7DD#21BC0DFFF4FCFD02
(1523990281.268726) slcan0 7EC#213E264826480300
(1523990281.280085) slcan0 7EC#22070D6E0D0D0D0D
(1523990281.280105) slcan0 7DD#22010202FFFFFFFF
(1523990281.288610) slcan0 7EC#230D0D0D000DB304
(1523990281.292833) slcan0 7E4#0221050000000000
(1523990281.299891) slcan0 7EC#24B2270000920000
(1523990281.299907) slcan0 7DD#23000003C6000100
(1523990281.319034) slcan0 7EC#259D5600009DF800
(1523990281.328669) slcan0 7EC#260039E100003782
(1523990281.338992) slcan0 7EC#27001321040D0157
(1523990281.342547) slcan0 7E2#0221010000000000
(1523990281.348776) slcan0 7EC#280000000003E800
(1523990281.353366) slcan0 7EA#10166101FFE00000
(1523990281.353818) slcan0 7E2#3010000000000000
(1523990281.363966) slcan0 7EA#2109215AA505E602
(1523990281.364003) slcan0 7EC#102D6105FFFFFFFF
(1523990281.373368) slcan0 7EA#2200000000447834
(1523990281.373849) slcan0 7E4#3010000000000000
(1523990281.381868) slcan0 7EA#2304200000000000
(1523990281.388803) slcan0 7EC#2100000000000D0D
(1523990281.392875) slcan0 7E2#0221020000000000
(1523990281.398749) slcan0 7EC#220D0D0D0D0D2648
(1523990281.403480) slcan0 7EA#10176102FF800000
(1523990281.404036) slcan0 7E2#3010000000000000
(1523990281.415654) slcan0 7EC#2326480001500D0D
(1523990281.423622) slcan0 7EA#2101010000009412
(1523990281.423643) slcan0 7EC#2403E85003E8273F
(1523990281.433808) slcan0 7EA#22AC7BFA39A6076A
(1523990281.433829) slcan0 7EC#2500290000000000
(1523990281.442910) slcan0 7E5#0221010000000000
(1523990281.445972) slcan0 7EA#2386033A00000000
(1523990281.445988) slcan0 7EC#2600000000000000
(1523990281.454323) slcan0 7ED#102C6101FFFFF800
(1523990281.492666) slcan0 7E3#0221010000000000
(1523990281.498146) slcan0 7EB#101E6101000003FF
(1523990281.498620) slcan0 7E5#3010000000000000
(1523990281.499052) slcan0 7E3#3010000000000000
(1523990281.504406) slcan0 7ED#2101029C0293040C
(1523990281.520969) slcan0 7EB#210C38005486FF39
(1523990281.520992) slcan0 7ED#22001476003401BD
(1523990281.524543) slcan0 7ED#2305AF4100000000
(1523990281.528144) slcan0 7EB#235304C039180000
(1523990281.534612) slcan0 7ED#2400260000600000
(1523990281.539268) slcan0 7EB#2400E8FF00000000
(1523990281.542914) slcan0 7D5#0221010000000000
(1523990281.546208) slcan0 7ED#25000001F4867603
(1523990281.554212) slcan0 7ED#262D000000000000
(1523990281.570724) slcan0 7DD#101A6101FB180000
(1523990281.571248) slcan0 7D5#3010000000000000
(1523990281.592776) slcan0 7E4#0221010000000000
(1523990281.603574) slcan0 7EC#103D6101FFFFFFFF
(1523990281.604154) slcan0 7E4#3010000000000000
(1523990281.610291) slcan0 7DD#21BC0DFFF4FCFD02
(1523990281.623641) slcan0 7EC#213E264826480300
(1523990281.630286) slcan0 7DD#22010202FFFFFFFF
(1523990281.633547) slcan0 7EC#22080D6E0D0D0D0D
(1523990281.642950) slcan0 7E4#0221050000000000
(1523990281.646191) slcan0 7EC#230D0D0D000DB326
(1523990281.650152) slcan0 7DD#23000003C6000100
(1523990281.653373) slcan0 7EC#24B2270000920000
(1523990281.663662) slcan0 7EC#259D5600009DF800
(1523990281.673511) slcan0 7EC#260039E100003782
(1523990281.683407) slcan0 7EC#27001321040D0157
(1523990281.692961) slcan0 7E2#0221010000000000
(1523990281.696303) slcan0 7EC#280000000003E800
(1523990281.703653) slcan0 7EA#10166101FFE00000
(1523990281.704178) slcan0 7E2#3010000000000000
(1523990281.715710) slcan0 7EC#102D6105FFFFFFFF
(1523990281.716223) slcan0 7E4#3010000000000000
(1523990281.724037) slcan0 7EA#2109215AA705E602
(1523990281.733626) slcan0 7EA#22000000003D7834
(1523990281.733651) slcan0 7EC#2100000000000D0D
(1523990281.742949) slcan0 7E2#0221020000000000
(1523990281.746022) slcan0 7EA#2304200000000000
(1523990281.746042) slcan0 7EC#220D0D0D0D0D2648
(1523990281.753821) slcan0 7EA#10176102FF800000
(1523990281.753841) slcan0 7EC#2326480001500D0D
(1523990281.763595) slcan0 7EC#2403E85003E8273F
(1523990281.764104) slcan0 7E2#3010000000000000
(1523990281.773399) slcan0 7EA#2101010000009410
(1523990281.773414) slcan0 7EC#2500290000000000
(1523990281.783643) slcan0 7EA#22AC7BD239320668
(1523990281.783693) slcan0 7EC#2600000000000000
(1523990281.791659) slcan0 7EA#2386ED3900000000
(1523990281.793629) slcan0 7E5#0221010000000000
(1523990281.804629) slcan0 7ED#102C6101FFFFF800
(1523990281.842810) slcan0 7E3#0221010000000000
(1523990281.848218) slcan0 7EB#101E6101000003FF
(1523990281.848510) slcan0 7E5#3010000000000000
(1523990281.848847) slcan0 7E3#3010000000000000
(1523990281.854300) slcan0 7ED#210102990293040B
(1523990281.858164) slcan0 7EB#210C38005086DD39
(1523990281.864404) slcan0 7ED#22001476003401BD
(1523990281.868238) slcan0 7EB#220000000A004002
(1523990281.874416) slcan0 7ED#2305AF4100000000
(1523990281.878470) slcan0 7EB#235404A339E8FFE8
(1523990281.884387) slcan0 7ED#2400250000600000
(1523990281.888523) slcan0 7EB#24FF300000000000
(1523990281.892690) slcan0 7D5#0221010000000000
(1523990281.895705) slcan0 7ED#25000001F4867B03
(1523990281.904683) slcan0 7ED#2644000000000000
(1523990281.920886) slcan0 7DD#101A6101FB180000
(1523990281.921446) slcan0 7D5#3010000000000000
(1523990281.942750) slcan0 7E4#0221010000000000
(1523990281.953815) slcan0 7EC#103D6101FFFFFFFF
(1523990281.954341) slcan0 7E4#3010000000000000
(1523990281.960485) slcan0 7DD#21BC0DFFF4FCFD02
(1523990281.969136) slcan0 7EC#213E264826480300
(1523990281.980586) slcan0 7EC#22070D6E0D0D0D0D
(1523990281.980606) slcan0 7DD#22010201FFFFFFFF
(1523990281.989153) slcan0 7EC#230D0D0D000DB30D
(1523990281.992752) slcan0 7E4#0221050000000000
(1523990282.000377) slcan0 7EC#24B2270000910000
(1523990282.000399) slcan0 7DD#23000003C6000100
(1523990282.020382) slcan0 7EC#259D5600009DF800
(1523990282.029099) slcan0 7EC#260039E100003782
(1523990282.039128) slcan0 7EC#27001321050D0157
(1523990282.042761) slcan0 7E2#0221010000000000
(1523990282.053192) slcan0 7EC#280000000003E800
(1523990282.053210) slcan0 7EA#10166101FFE00000
(1523990282.063804) slcan0 7EC#102D6105FFFFFFFF
(1523990282.064324) slcan0 7E2#3010000000000000
(1523990282.064784) slcan0 7E4#3010000000000000
(1523990282.071751) slcan0 7EA#2109215AA505E402
(1523990282.081745) slcan0 7EC#2100000000000D0D
(1523990282.081767) slcan0 7EA#22000000003F7834
(1523990282.091877) slcan0 7EC#220D0D0D0D0D2648
(1523990282.091899) slcan0 7EA#2304200000000000
(1523990282.092624) slcan0 7E2#0221020000000000
(1523990282.101976) slcan0 7EC#2326480001550D0D
(1523990282.101998) slcan0 7EA#10176102FF800000
(1523990282.121728) slcan0 7EC#2403E85003E8273F
(1523990282.129338) slcan0 7EC#2500290000000000
(1523990282.129853) slcan0 7E2#3010000000000000
(1523990282.141722) slcan0 7EC#2600000000000000
(1523990282.141741) slcan0 7EA#2101010000009412
(1523990282.142577) slcan0 7E5#0221010000000000
(1523990282.151676) slcan0 7EA#22AC7BDF39A8065D
(1523990282.154682) slcan0 7ED#102C6101FFFFF800
(1523990282.161731) slcan0 7EA#2386FC3900000000
(1523990282.162193) slcan0 7E5#3010000000000000
(1523990282.174327) slcan0 7ED#21010297028F040A
(1523990282.184397) slcan0 7ED#22001476003401BD
(1523990282.192965) slcan0 7E3#0221010000000000
(1523990282.198617) slcan0 7ED#2305AF4100000000
(1523990282.198632) slcan0 7EB#101E6101000003FF
(1523990282.204659) slcan0 7ED#2400250000600000
(1523990282.205152) slcan0 7E3#3010000000000000
(1523990282.218859) slcan0 7ED#25000001F4867B03
(1523990282.218882) slcan0 7EB#210C38005286063A
(1523990282.224612) slcan0 7ED#2637000000000000
(1523990282.228837) slcan0 7EB#220000000A004202
(1523990282.238603) slcan0 7EB#235504CF39180000
(1523990282.242553) slcan0 7D5#0221010000000000
(1523990282.248611) slcan0 7EB#2400E8FF00000000
(1523990282.271054) slcan0 7DD#101A6101FB180000
(1523990282.271615) slcan0 7D5#3010000000000000
(1523990282.292662) slcan0 7E4#0221010000000000
(1523990282.304116) slcan0 7EC#103D6101FFFFFFFF
(1523990282.304654) slcan0 7E4#3010000000000000
(1523990282.310950) slcan0 7DD#21BC0DFFF4FCFD02
(1523990282.324186) slcan0 7EC#213E264826480300
(1523990282.330767) slcan0 7DD#22010202FFFFFFFF
(1523990282.334168) slcan0 7EC#22060D6E0D0D0D0D
(1523990282.342931) slcan0 7E4#0221050000000000
(1523990282.346237) slcan0 7EC#230D0D0D000DB302
(1523990282.350773) slcan0 7DD#23000003C6000100
(1523990282.354136) slcan0 7EC#24B2270000920000
(1523990282.364238) slcan0 7EC#259D5600009DF800
(1523990282.374224) slcan0 7EC#260039E100003782
(1523990282.383964) slcan0 7EC#27001321050D0157
(1523990282.392746) slcan0 7E2#0221010000000000
(1523990282.395812) slcan0 7EC#280000000003E800
(1523990282.401803) slcan0 7EA#10166101FFE00000
(1523990282.402281) slcan0 7E2#3010000000000000
(1523990282.421981) slcan0 7EA#2109215AA505E902
(1523990282.422002) slcan0 7EC#102D6105FFFFFFFF
(1523990282.422006) slcan0 7EA#22000000003D7834
(1523990282.431980) slcan0 7EA#2304200000000000
(1523990282.432501) slcan0 7E4#3010000000000000
(1523990282.442837) slcan0 7E2#0221020000000000
(1523990282.445962) slcan0 7EC#2100000000000D0D
(1523990282.454142) slcan0 7EA#10176102FF800000
(1523990282.454163) slcan0 7EC#220D0D0D0D0D2648
(1523990282.454662) slcan0 7E2#3010000000000000
(1523990282.464067) slcan0 7EA#2101010000009412
(1523990282.464088) slcan0 7EC#2326480001500D0D
(1523990282.474088) slcan0 7EA#22AC7B0D3A9E076A
(1523990282.474107) slcan0 7EC#2403E85003E8273F
(1523990282.484417) slcan0 7EA#2386183A00000000
(1523990282.484436) slcan0 7EC#2500290000000000
(1523990282.492902) slcan0 7E5#0221010000000000
(1523990282.495938) slcan0 7EC#2600000000000000
(1523990282.504347) slcan0 7ED#102C6101FFFFF800
(1523990282.542723) slcan0 7E3#0221010000000000
(1523990282.553463) slcan0 7EB#101E6101000003FF
(1523990282.553939) slcan0 7E5#3010000000000000
(1523990282.554398) slcan0 7E3#3010000000000000
(1523990282.564633) slcan0 7ED#210102990291040C
(1523990282.568858) slcan0 7EB#210C38004B86363A
(1523990282.574623) slcan0 7ED#22001476003401BD
(1523990282.578857) slcan0 7EB#220000000A004102
(1523990282.584621) slcan0 7ED#2305B14100000000
(1523990282.589124) slcan0 7EB#235404E839180018
(1523990282.592971) slcan0 7D5#0221010000000000
(1523990282.596294) slcan0 7ED#2400250000600000
(1523990282.599037) slcan0 7EB#2400D0FF00000000
(1523990282.604398) slcan0 7ED#25000001F4867303
(1523990282.621749) slcan0 7ED#262F000000000000
(1523990282.621769) slcan0 7DD#101A6101FB180000
(1523990282.642799) slcan0 7E4#0221010000000000
(1523990282.643191) slcan0 7D5#3010000000000000
(1523990282.654458) slcan0 7EC#103D6101FFFFFFFF
(1523990282.655006) slcan0 7E4#3010000000000000
(1523990282.670694) slcan0 7EC#213E264826480300
(1523990282.681409) slcan0 7EC#22070D6E0D0D0D0D
(1523990282.681440) slcan0 7DD#21BC0DFFF4FCFD02
(1523990282.691118) slcan0 7EC#230D0D0D000DB308
(1523990282.692622) slcan0 7E4#0221050000000000
(1523990282.701524) slcan0 7EC#24B2270000920000
(1523990282.701546) slcan0 7DD#22010202FFFFFFFF
(1523990282.721277) slcan0 7DD#23000003C6000100
(1523990282.724779) slcan0 7EC#259D5600009DF800
(1523990282.734592) slcan0 7EC#260039E100003782
(1523990282.742742) slcan0 7E2#0221010000000000
(1523990282.745980) slcan0 7EC#27001321050D0157
(1523990282.754756) slcan0 7EA#10166101FFE00000
(1523990282.754778) slcan0 7EC#280000000003E800
(1523990282.755277) slcan0 7E2#3010000000000000
(1523990282.762062) slcan0 7EA#2109215AA705E402
(1523990282.773616) slcan0 7EC#102D6105FFFFFFFF
(1523990282.773637) slcan0 7EA#22000000003E7834
(1523990282.774085) slcan0 7E4#3010000000000000
(1523990282.784653) slcan0 7EA#2304200000000000
(1523990282.784675) slcan0 7EC#2100000000000D0D
(1523990282.792676) slcan0 7E2#0221020000000000
(1523990282.795975) slcan0 7EC#220D0D0D0D0D2648
(1523990282.804464) slcan0 7EA#10176102FF800000
(1523990282.804500) slcan0 7EC#23264800014B0D0D
(1523990282.805121) slcan0 7E2#3010000000000000
(1523990282.817835) slcan0 7EC#2403E85003E8273F
(1523990282.824830) slcan0 7EA#2101010000009411
(1523990282.824855) slcan0 7EC#2500290000000000
(1523990282.834759) slcan0 7EA#22AC7BF539D40664
(1523990282.834781) slcan0 7EC#2600000000000000
(1523990282.842080) slcan0 7EA#2386093A00000000
(1523990282.842561) slcan0 7E5#0221010000000000
(1523990282.854505) slcan0 7ED#102C6101FFFFF800
(1523990282.892892) slcan0 7E3#0221010000000000
(1523990282.893254) slcan0 7E5#3010000000000000
(1523990282.899274) slcan0 7EB#101E6101000003FF
(1523990282.899773) slcan0 7E3#3010000000000000
(1523990282.904666) slcan0 7ED#2101029A0292040C
(1523990282.925129) slcan0 7EB#210C38005486F939
(1523990282.925151) slcan0 7ED#22001476003401BD
(1523990282.929234) slcan0 7EB#235304C039D0FF00
(1523990282.934653) slcan0 7ED#2400260000600000
(1523990282.939394) slcan0 7EB#2400300000000000
(1523990282.942734) slcan0 7D5#0221010000000000
(1523990282.945965) slcan0 7ED#25000001F4867803
(1523990282.954629) slcan0 7ED#2630000000000000
(1523990282.971427) slcan0 7DD#101A6101FB180000
(1523990282.971967) slcan0 7D5#3010000000000000
(1523990282.992662) slcan0 7E4#0221010000000000
(1523990283.004684) slcan0 7EC#103D6101FFFFFFFF
(1523990283.005242) slcan0 7E4#3010000000000000
(1523990283.011181) slcan0 7DD#21BC0DFFF4FCFD02
(1523990283.024664) slcan0 7EC#213E264826480300
(1523990283.031249) slcan0 7DD#22010202FFFFFFFF
(1523990283.034852) slcan0 7EC#22080D6E0D0D0D0D
(1523990283.042956) slcan0 7E4#0221050000000000
(1523990283.046033) slcan0 7EC#230D0D0D000DB302
(1523990283.051259) slcan0 7DD#23000003C6000100
(1523990283.054981) slcan0 7EC#24B2270000920000
(1523990283.064898) slcan0 7EC#259D5600009DF800
(1523990283.075035) slcan0 7EC#260039E100003782
(1523990283.084920) slcan0 7EC#27001321060D0157
(1523990283.092775) slcan0 7E2#0221010000000000
(1523990283.096080) slcan0 7EC#280000000003E800
(1523990283.102141) slcan0 7EA#10166101FFE00000
(1523990283.102582) slcan0 7E2#3010000000000000
(1523990283.125346) slcan0 7EA#2109215AAA05E402
(1523990283.125369) slcan0 7EC#102D6105FFFFFFFF
(1523990283.133858) slcan0 7EA#2304200000000000
(1523990283.134341) slcan0 7E4#3010000000000000
(1523990283.142971) slcan0 7E2#0221020000000000
(1523990283.146344) slcan0 7EC#2100000000000D0D
(1523990283.152147) slcan0 7EA#10176102FF800000
(1523990283.152599) slcan0 7E2#3010000000000000
(1523990283.155617) slcan0 7EC#220D0D0D0D0D2648
(1523990283.161893) slcan0 7EA#2101010000009412
(1523990283.164991) slcan0 7EC#2326480001500D0D
(1523990283.174945) slcan0 7EA#22AC7BDA3966066E
(1523990283.174967) slcan0 7EC#2403E85003E8273F
(1523990283.182063) slcan0 7EA#2386FF3900000000
(1523990283.184808) slcan0 7EC#2500290000000000
(1523990283.192686) slcan0 7E5#0221010000000000
(1523990283.195736) slcan0 7EC#2600000000000000
(1523990283.204520) slcan0 7ED#102C6101FFFFF800
(1523990283.205146) slcan0 7E5#3010000000000000
(1523990283.224553) slcan0 7ED#2101029A0293040E
(1523990283.234695) slcan0 7ED#22001476003401BD
(1523990283.242958) slcan0 7E3#0221010000000000
(1523990283.246238) slcan0 7ED#2305AF4100000000
(1523990283.254463) slcan0 7EB#101E6101000003FF
(1523990283.254488) slcan0 7ED#2400260000600000
(1523990283.254955) slcan0 7E3#3010000000000000
(1523990283.261244) slcan0 7EB#210C38005486DD39
(1523990283.264603) slcan0 7ED#25000001F4867B03
(1523990283.271534) slcan0 7EB#220000000A004202
(1523990283.274683) slcan0 7ED#2639000000000000
(1523990283.281155) slcan0 7EB#2354047B39000018
(1523990283.291797) slcan0 7EB#2400E8FF00000000
(1523990283.292616) slcan0 7D5#0221010000000000
(1523990283.321883) slcan0 7DD#101A6101FB180000
(1523990283.322418) slcan0 7D5#3010000000000000
(1523990283.342746) slcan0 7E4#0221010000000000
(1523990283.355243) slcan0 7EC#103D6101FFFFFFFF
(1523990283.355774) slcan0 7E4#3010000000000000
(1523990283.361326) slcan0 7DD#21BC0DFFF4FCFD02
(1523990283.371730) slcan0 7EC#213E264826480300
(1523990283.381635) slcan0 7DD#22010201FFFFFFFF
(1523990283.381657) slcan0 7EC#22070D6E0D0D0D0D
(1523990283.391828) slcan0 7EC#230D0D0D000DB307
(1523990283.392524) slcan0 7E4#0221050000000000
(1523990283.403660) slcan0 7EC#24B2270000910000
(1523990283.403680) slcan0 7DD#23000003C6000100
(1523990283.424046) slcan0 7EC#259D5600009DF800
(1523990283.431806) slcan0 7EC#260039E100003782
(1523990283.441142) slcan0 7EC#27001321060D0157
(1523990283.442542) slcan0 7E2#0221010000000000
(1523990283.453633) slcan0 7EA#10166101FFE00000
(1523990283.453657) slcan0 7EC#280000000003E800
(1523990283.454191) slcan0 7E2#3010000000000000
(1523990283.461777) slcan0 7EA#2109215AA705E602
(1523990283.465489) slcan0 7EC#102D6105FFFFFFFF
(1523990283.465958) slcan0 7E4#3010000000000000
(1523990283.472133) slcan0 7EA#2200000000407834
(1523990283.482138) slcan0 7EC#2100000000000D0D
(1523990283.482158) slcan0 7EA#2304200000000000
(1523990283.492013) slcan0 7EC#220D0D0D0D0D2648
(1523990283.492551) slcan0 7E2#0221020000000000
(1523990283.502143) slcan0 7EC#23264800014B0D0D
(1523990283.502165) slcan0 7EA#10176102FF800000
(1523990283.526025) slcan0 7EC#2403E85003E8273F
(1523990283.526583) slcan0 7E2#3010000000000000
(1523990283.535410) slcan0 7EC#2500290000000000
(1523990283.542065) slcan0 7EA#2101010000009413
(1523990283.542645) slcan0 7E5#0221010000000000
(1523990283.545982) slcan0 7EC#2600000000000000
(1523990283.554555) slcan0 7EA#22AC7BF639210764
(1523990283.554577) slcan0 7ED#102C6101FFFFF800
(1523990283.562112) slcan0 7EA#2386063A00000000
(1523990283.562621) slcan0 7E5#3010000000000000
(1523990283.574395) slcan0 7ED#2101029D0295040E
(1523990283.584332) slcan0 7ED#22001576003401BD
(1523990283.592678) slcan0 7E3#0221010000000000
(1523990283.595791) slcan0 7ED#2305AF4100000000
(1523990283.601220) slcan0 7EB#101E6101000003FF
(1523990283.601576) slcan0 7E3#3010000000000000
(1523990283.604886) slcan0 7ED#2400260000600000
(1523990283.624432) slcan0 7EB#210C38004F86F939
(1523990283.624446) slcan0 7ED#25000001F4867803
(1523990283.631783) slcan0 7EB#235404D439000000
(1523990283.641208) slcan0 7EB#2400000000000000
(1523990283.642540) slcan0 7D5#0221010000000000
(1523990283.672026) slcan0 7DD#101A6101FB180000
(1523990283.672528) slcan0 7D5#3010000000000000
(1523990283.692944) slcan0 7E4#0221010000000000
(1523990283.705542) slcan0 7EC#103D6101FFFFFFFF
(1523990283.706086) slcan0 7E4#3010000000000000
(1523990283.711629) slcan0 7DD#21BC0DFFF4FCFD02
(1523990283.725696) slcan0 7EC#213E264826480300
(1523990283.731771) slcan0 7DD#22010201FFFFFFFF
(1523990283.735489) slcan0 7EC#22060D6E0D0D0D0D
(1523990283.742718) slcan0 7E4#0221050000000000
(1523990283.746083) slcan0 7EC#230D0D0D000DB326
(1523990283.751876) slcan0 7DD#23000003C6000100
(1523990283.755561) slcan0 7EC#24B2270000910000
(1523990283.765338) slcan0 7EC#259D5600009DF800
(1523990283.775623) slcan0 7EC#260039E100003782
(1523990283.785642) slcan0 7EC#27001321060D0157
(1523990283.792932) slcan0 7E2#0221010000000000
(1523990283.796186) slcan0 7EC#280000000003E800
(1523990283.802092) slcan0 7EA#10166101FFE00000
(1523990283.802639) slcan0 7E2#3010000000000000
(1523990283.825902) slcan0 7EA#2109215AA705E102
(1523990283.825922) slcan0 7EC#102D6105FFFFFFFF
(1523990283.832100) slcan0 7EA#2304200000000000
(1523990283.832651) slcan0 7E4#3010000000000000
(1523990283.842699) slcan0 7E2#0221020000000000
(1523990283.846233) slcan0 7EC#2100000000000D0D
(1523990283.852166) slcan0 7EA#10176102FF800000
(1523990283.852671) slcan0 7E2#3010000000000000
(1523990283.856166) slcan0 7EC#220D0D0D0D0D2648
(1523990283.862090) slcan0 7EA#2101010000009411
(1523990283.865718) slcan0 7EC#23264800014B0D0D
(1523990283.871794) slcan0 7EA#22AC7BEB39FD0667
(1523990283.875468) slcan0 7EC#2403E85003E8273F
(1523990283.881931) slcan0 7EA#2386F43900000000
(1523990283.885438) slcan0 7EC#2500290000000000
(1523990283.892610) slcan0 7E5#0221010000000000
(1523990283.896735) slcan0 7EC#2600000000000000
(1523990283.904390) slcan0 7ED#102C6101FFFFF800
(1523990283.904891) slcan0 7E5#3010000000000000
(1523990283.924747) slcan0 7ED#210102980290040B
(1523990283.934565) slcan0 7ED#22001476003401BD
(1523990283.942852) slcan0 7E3#0221010000000000
(1523990283.945963) slcan0 7ED#2305AF4100000000
(1523990283.954692) slcan0 7EB#101E6101000003FF
(1523990283.954712) slcan0 7ED#2400250000600000
(1523990283.955211) slcan0 7E3#3010000000000000
(1523990283.961646) slcan0 7EB#210C38005886143A
(1523990283.964528) slcan0 7ED#25000001F4867B03
(1523990283.974550) slcan0 7EB#220000000A004102
(1523990283.974571) slcan0 7ED#2645000000000000
(1523990283.981183) slcan0 7EB#235304CA39E8FFE8
(1523990283.992047) slcan0 7EB#24FF300000000000
(1523990283.992595) slcan0 7D5#0221010000000000
(1523990284.021677) slcan0 7DD#101A6101FB180000
(1523990284.022239) slcan0 7D5#3010000000000000
(1523990284.042609) slcan0 7E4#0221010000000000
(1523990284.055794) slcan0 7EC#103D6101FFFFFFFF
(1523990284.056336) slcan0 7E4#3010000000000000
(1523990284.061781) slcan0 7DD#21BC0DFFF4FCFD02
(1523990284.072116) slcan0 7EC#213E264826480300
(1523990284.081870) slcan0 7EC#22070D6E0D0D0D0D
(1523990284.081890) slcan0 7DD#22010201FFFFFFFF
(1523990284.092058) slcan0 7EC#230D0D0D000DB304
(1523990284.092640) slcan0 7E4#0221050000000000
(1523990284.101752) slcan0 7EC#24B2270000920000
(1523990284.101776) slcan0 7DD#23000003C6000100
(1523990284.126024) slcan0 7EC#259D5600009DF800
(1523990284.135940) slcan0 7EC#260039E100003782
(1523990284.142696) slcan0 7E2#0221010000000000
(1523990284.146175) slcan0 7EC#27001321070D0157
(1523990284.152172) slcan0 7EA#10166101FFE00000
(1523990284.152740) slcan0 7E2#3010000000000000
(1523990284.156441) slcan0 7EC#280000000003E800
(1523990284.162108) slcan0 7EA#2109215AA705E402
(1523990284.173870) slcan0 7EC#102D6105FFFFFFFF
(1523990284.173891) slcan0 7EA#22000000003B7834
(1523990284.174429) slcan0 7E4#3010000000000000
(1523990284.182029) slcan0 7EA#2304200000000000
(1523990284.185992) slcan0 7EC#2100000000000D0D
(1523990284.192979) slcan0 7E2#0221020000000000
(1523990284.197198) slcan0 7EC#220D0D0D0D0D2648
(1523990284.202171) slcan0 7EA#10176102FF800000
(1523990284.202622) slcan0 7E2#3010000000000000
(1523990284.206105) slcan0 7EC#2326480001550D0D
(1523990284.225254) slcan0 7EA#2101010000009410
(1523990284.225274) slcan0 7EC#2403E85003E8273F
(1523990284.234204) slcan0 7EC#2500290000000000
(1523990284.234224) slcan0 7EA#2386F63900000000
(1523990284.241224) slcan0 7EC#2600000000000000
(1523990284.242537) slcan0 7E5#0221010000000000
(1523990284.254556) slcan0 7ED#102C6101FFFFF800
(1523990284.292934) slcan0 7E3#0221010000000000
(1523990284.293299) slcan0 7E5#3010000000000000
(1523990284.300503) slcan0 7EB#101E6101000003FF
(1523990284.300950) slcan0 7E3#3010000000000000
(1523990284.304688) slcan0 7ED#2101029A0295040F
(1523990284.326750) slcan0 7EB#210C38005386FF39
(1523990284.326770) slcan0 7ED#22001576003401BD
(1523990284.330787) slcan0 7EB#235304C039000000
(1523990284.334535) slcan0 7ED#2400260000600000
(1523990284.340803) slcan0 7EB#2400000000000000
(1523990284.342570) slcan0 7D5#0221010000000000
(1523990284.345640) slcan0 7ED#25000001F4867A03
(1523990284.354677) slcan0 7ED#2633000000000000
(1523990284.372116) slcan0 7DD#101A6101FB180000
(1523990284.372687) slcan0 7D5#3010000000000000
(1523990284.392741) slcan0 7E4#0221010000000000
(1523990284.406276) slcan0 7EC#103D6101FFFFFFFF
(1523990284.406819) slcan0 7E4#3010000000000000
(1523990284.411853) slcan0 7DD#21BD0DFFF4FCFD02
(1523990284.432321) slcan0 7DD#22010201FFFFFFFF
(1523990284.432342) slcan0 7EC#213E264826480300
(1523990284.441547) slcan0 7EC#22080D6E0D0D0D0D
(1523990284.442523) slcan0 7E4#0221050000000000
(1523990284.452365) slcan0 7DD#23000003C6000100
(1523990284.452386) slcan0 7EC#230D0D0D000DB304
(1523990284.461611) slcan0 7EC#24B2270000920000
(1523990284.472177) slcan0 7EC#259D5600009DF800
(1523990284.481352) slcan0 7EC#260039E100003782
(1523990284.492003) slcan0 7EC#27001321070D0157
(1523990284.492286) slcan0 7E2#0221010000000000
(1523990284.502207) slcan0 7EC#280000000003E800
(1523990284.502217) slcan0 7EA#10166101FFE00000
(1523990284.527257) slcan0 7EC#102D6105FFFFFFFF
(1523990284.527772) slcan0 7E2#3010000000000000
(1523990284.528220) slcan0 7E4#3010000000000000
(1523990284.542059) slcan0 7EC#2100000000000D0D
(1523990284.542082) slcan0 7EA#2109215AA205E102
(1523990284.542723) slcan0 7E2#0221020000000000
(1523990284.553873) slcan0 7EA#10176102FF800000
(1523990284.553895) slcan0 7EC#220D0D0D0D0D2648
(1523990284.554436) slcan0 7E2#3010000000000000
(1523990284.562250) slcan0 7EC#23264800014B0D0D
(1523990284.562271) slcan0 7EA#2101010000009513
(1523990284.574294) slcan0 7EA#22AC7B043A080763
(1523990284.574317) slcan0 7EC#2403E85003E8273F
(1523990284.582001) slcan0 7EC#2500290000000000
(1523990284.582023) slcan0 7EA#23861C3A00000000
(1523990284.592271) slcan0 7EC#2600000000000000
(1523990284.592795) slcan0 7E5#0221010000000000
(1523990284.604624) slcan0 7ED#102C6101FFFFF800
(1523990284.642963) slcan0 7E3#0221010000000000
(1523990284.652294) slcan0 7EB#101E6101000003FF
(1523990284.652904) slcan0 7E5#3010000000000000
(1523990284.653323) slcan0 7E3#3010000000000000
(1523990284.660832) slcan0 7EB#210C38005386F239
(1523990284.664508) slcan0 7ED#2101029F02960410
(1523990284.674647) slcan0 7EB#220000000A004102
(1523990284.674668) slcan0 7ED#22001576003401BD
(1523990284.680914) slcan0 7EB#235804D939180030
(1523990284.684571) slcan0 7ED#2305B04100000000
(1523990284.690990) slcan0 7EB#2400B7FF00000000
(1523990284.692587) slcan0 7D5#0221010000000000
(1523990284.695590) slcan0 7ED#2400260000600000
(1523990284.704238) slcan0 7ED#25000001F4867603
(1523990284.721943) slcan0 7DD#101A6101FB180000
(1523990284.722351) slcan0 7D5#3010000000000000
(1523990284.726523) slcan0 7ED#2635000000000000
(1523990284.742707) slcan0 7E4#0221010000000000
(1523990284.756326) slcan0 7EC#103D6101FFFFFFFF
(1523990284.756773) slcan0 7E4#3010000000000000
(1523990284.761768) slcan0 7DD#21BC0DFFF4FCFD02
(1523990284.772018) slcan0 7EC#213E264826480300
(1523990284.781928) slcan0 7EC#22070D6E0D0D0D0D
(1523990284.781948) slcan0 7DD#22010202FFFFFFFF
(1523990284.792200) slcan0 7EC#230D0D0D000DB302
(1523990284.792752) slcan0 7E4#0221050000000000
(1523990284.802179) slcan0 7EC#24B2270000920000
(1523990284.802200) slcan0 7DD#23000003C6000100
(1523990284.825947) slcan0 7EC#259D5600009DF800
(1523990284.831942) slcan0 7EC#260039E100003782
(1523990284.841627) slcan0 7EC#27001321070D0157
(1523990284.842663) slcan0 7E2#0221010000000000
(1523990284.854365) slcan0 7EA#10166101FFE00000
(1523990284.854385) slcan0 7EC#280000000003E800
(1523990284.854935) slcan0 7E2#3010000000000000
(1523990284.861912) slcan0 7EA#2109215AA505E102
(1523990284.866737) slcan0 7EC#102D6105FFFFFFFF
(1523990284.867287) slcan0 7E4#3010000000000000
(1523990284.874220) slcan0 7EA#2200000000417834
(1523990284.882359) slcan0 7EC#2100000000000D0D
(1523990284.882379) slcan0 7EA#2304200000000000
(1523990284.892098) slcan0 7EC#220D0D0D0D0D2648
(1523990284.892673) slcan0 7E2#0221020000000000
(1523990284.902198) slcan0 7EC#2326480001500D0D
(1523990284.902214) slcan0 7EA#10176102FF800000
(1523990284.926223) slcan0 7EC#2403E85003E8273F
(1523990284.926758) slcan0 7E2#3010000000000000
(1523990284.934580) slcan0 7EC#2500310000000000
(1523990284.942217) slcan0 7EC#2600000000000000
(1523990284.942245) slcan0 7EA#2101010000009413
(1523990284.942729) slcan0 7E5#0221010000000000
(1523990284.954945) slcan0 7EA#22AC7BFC39740761
(1523990284.954970) slcan0 7ED#102C6101FFFFF800
(1523990284.962069) slcan0 7EA#2386093A00000000
(1523990284.962540) slcan0 7E5#3010000000000000
(1523990284.974164) slcan0 7ED#210102A2029A0411
(1523990284.984265) slcan0 7ED#22001576003401BD
(1523990284.992848) slcan0 7E3#0221010000000000
(1523990284.995893) slcan0 7ED#2305AF4100000000
(1523990285.001037) slcan0 7EB#101E6101000003FF
(1523990285.001503) slcan0 7E3#3010000000000000
(1523990285.004901) slcan0 7ED#2400260000600000
(1523990285.025761) slcan0 7EB#210C38005586063A
(1523990285.025779) slcan0 7ED#25000001F4867A03
(1523990285.031920) slcan0 7EB#235304CA39E8FF00
(1523990285.041014) slcan0 7EB#2400180000000000
(1523990285.042470) slcan0 7D5#0221010000000000
(1523990285.072412) slcan0 7DD#101A6101FB180000
(1523990285.072931) slcan0 7D5#3010000000000000
(1523990285.092793) slcan0 7E4#0221010000000000
(1523990285.106922) slcan0 7EC#103D6101FFFFFFFF
(1523990285.107402) slcan0 7E4#3010000000000000
(1523990285.114047) slcan0 7DD#21BC0DFFF4FCFD02
(1523990285.132227) slcan0 7DD#22010201FFFFFFFF
(1523990285.136985) slcan0 7EC#213E264826480300
(1523990285.142801) slcan0 7E4#0221050000000000
(1523990285.146778) slcan0 7EC#22060D6E0D0D0D0D
(1523990285.152280) slcan0 7DD#23000003C6000100
(1523990285.157004) slcan0 7EC#230D0D0D000DB302
(1523990285.167035) slcan0 7EC#24B2270000910000
(1523990285.176785) slcan0 7EC#259D5600009DF800
(1523990285.186809) slcan0 7EC#260039E100003782
(1523990285.192780) slcan0 7E2#0221010000000000
(1523990285.197197) slcan0 7EC#27001321080D0157
(1523990285.202238) slcan0 7EA#10166101FFE00000
(1523990285.202761) slcan0 7E2#3010000000000000
(1523990285.207109) slcan0 7EC#280000000003E800
(1523990285.225805) slcan0 7EA#2109215AA505E402
(1523990285.225825) slcan0 7EC#102D6105FFFFFFFF
(1523990285.232307) slcan0 7EA#2304200000000000
(1523990285.232867) slcan0 7E4#3010000000000000
(1523990285.242996) slcan0 7E2#0221020000000000
(1523990285.246918) slcan0 7EC#2100000000000D0D
(1523990285.252183) slcan0 7EA#10176102FF800000
(1523990285.252737) slcan0 7E2#3010000000000000
(1523990285.257074) slcan0 7EC#220D0D0D0D0D2648
(1523990285.262167) slcan0 7EA#2101010000009410
(1523990285.267152) slcan0 7EC#2326480001500D0D
(1523990285.272138) slcan0 7EA#22AC7BD539900667
(1523990285.277157) slcan0 7EC#2403E85003E8273F
(1523990285.282017) slcan0 7EA#2386F33900000000
(1523990285.286930) slcan0 7EC#2500290000000000
(1523990285.292507) slcan0 7E5#0221010000000000
(1523990285.297223) slcan0 7EC#2600000000000000
(1523990285.304603) slcan0 7ED#102C6101FFFFF800
(1523990285.305126) slcan0 7E5#3010000000000000
(1523990285.326269) slcan0 7ED#2101029A02930410
(1523990285.335040) slcan0 7ED#2305AF4100000000
(1523990285.342936) slcan0 7E3#0221010000000000
(1523990285.346254) slcan0 7ED#2400260000600000
(1523990285.351618) slcan0 7EB#101E6101000003FF
(1523990285.352161) slcan0 7E3#3010000000000000
(1523990285.355410) slcan0 7ED#25000001F4867803
(1523990285.361622) slcan0 7EB#210C380052860D3A
(1523990285.364253) slcan0 7ED#2625000000000000
(1523990285.371533) slcan0 7EB#220000000A004202
(1523990285.381369) slcan0 7EB#235304D439E8FFE8
(1523990285.391587) slcan0 7EB#24FF300000000000
(1523990285.393736) slcan0 7D5#0221010000000000
(1523990285.423772) slcan0 7DD#101A6101FB180000
(1523990285.424354) slcan0 7D5#3010000000000000
(1523990285.442986) slcan0 7E4#0221010000000000
(1523990285.457334) slcan0 7EC#103D6101FFFFFFFF
(1523990285.457943) slcan0 7E4#3010000000000000
(1523990285.462479) slcan0 7DD#21BC0DFFF4FCFD02
(1523990285.474188) slcan0 7EC#213E264826480300
(1523990285.484429) slcan0 7DD#22010202FFFFFFFF
(1523990285.484449) slcan0 7EC#22070D6E0D0D0D0D
(1523990285.492899) slcan0 7E4#0221050000000000
(1523990285.496182) slcan0 7EC#230D0D0D000DB304
(1523990285.504695) slcan0 7DD#23000003C6000100
(1523990285.504716) slcan0 7EC#24B2270000920000
(1523990285.527240) slcan0 7EC#259D5600009DF800
(1523990285.538653) slcan0 7EC#260039E100003782
(1523990285.542635) slcan0 7E2#0221010000000000
(1523990285.547477) slcan0 7EC#27001321080D0157
(1523990285.553890) slcan0 7EA#10166101FFE00000
(1523990285.554441) slcan0 7E2#3010000000000000
(1523990285.557731) slcan0 7EC#280000000003E800
(1523990285.563935) slcan0 7EA#2109215AA705E402
(1523990285.574731) slcan0 7EA#2200000000387834
(1523990285.574751) slcan0 7EC#102D6105FFFFFFFF
(1523990285.584272) slcan0 7EA#2304200000000000
(1523990285.584815) slcan0 7E4#3010000000000000
(1523990285.592635) slcan0 7E2#0221020000000000
(1523990285.597224) slcan0 7EC#2100000000000D0D
(1523990285.603998) slcan0 7EA#10176102FF800000
(1523990285.604573) slcan0 7E2#3010000000000000
(1523990285.607748) slcan0 7EC#220D0D0D0D0D2648
(1523990285.626132) slcan0 7EA#2101010000009410
(1523990285.626151) slcan0 7EC#2326480001500D0D
(1523990285.635025) slcan0 7EA#2386EB3900000000
(1523990285.635044) slcan0 7EC#2403E85003E8273F
(1523990285.642923) slcan0 7E5#0221010000000000
(1523990285.645987) slcan0 7EC#2500290000000000
(1523990285.654674) slcan0 7EC#2600000000000000
(1523990285.654695) slcan0 7ED#102C6101FFFFF800
(1523990285.692737) slcan0 7E3#0221010000000000
(1523990285.701932) slcan0 7EB#101E6101000003FF
(1523990285.702455) slcan0 7E5#3010000000000000
(1523990285.702917) slcan0 7E3#3010000000000000
(1523990285.727013) slcan0 7EB#210C38005386FF39
(1523990285.727037) slcan0 7ED#2101029E02960410
(1523990285.731906) slcan0 7EB#235304C539180030
(1523990285.735428) slcan0 7ED#2305AF4100000000
(1523990285.741920) slcan0 7EB#2400B7FF00000000
(1523990285.742611) slcan0 7D5#0221010000000000
(1523990285.745815) slcan0 7ED#2400260000600000
(1523990285.754490) slcan0 7ED#25000001F4867C03
(1523990285.764636) slcan0 7ED#262C000000000000
(1523990285.773855) slcan0 7DD#101A6101FB180000
(1523990285.774450) slcan0 7D5#3010000000000000
(1523990285.793033) slcan0 7E4#0221010000000000
(1523990285.807624) slcan0 7EC#103D6101FFFFFFFF
(1523990285.808220) slcan0 7E4#3010000000000000
(1523990285.814160) slcan0 7DD#21BD0DFFF4FCFD02
(1523990285.835009) slcan0 7DD#22010201FFFFFFFF
(1523990285.835047) slcan0 7EC#213E264826480300
(1523990285.842998) slcan0 7E4#0221050000000000
(1523990285.846257) slcan0 7EC#22080D6E0D0D0D0D
(1523990285.854475) slcan0 7DD#23000003C6000100
(1523990285.854499) slcan0 7EC#230D0D0D000DB306
(1523990285.864576) slcan0 7EC#24B2270000920000
(1523990285.874465) slcan0 7EC#259D5600009DF800
(1523990285.884495) slcan0 7EC#260039E100003782
(1523990285.892556) slcan0 7E2#0221010000000000
(1523990285.895668) slcan0 7EC#27001321080D0157
(1523990285.905262) slcan0 7EA#10166101FFE00000
(1523990285.905273) slcan0 7EC#280000000003E800
(1523990285.905530) slcan0 7E2#3010000000000000
(1523990285.927159) slcan0 7EA#2109215AA505E402
(1523990285.927174) slcan0 7EC#102D6105FFFFFFFF
(1523990285.935324) slcan0 7EA#2304200000000000
(1523990285.935809) slcan0 7E4#3010000000000000
(1523990285.942956) slcan0 7E2#0221020000000000
(1523990285.947598) slcan0 7EC#2100000000000D0D
(1523990285.954385) slcan0 7EA#10176102FF800000
(1523990285.954909) slcan0 7E2#3010000000000000
(1523990285.958046) slcan0 7EC#220D0D0D0D0D2648
(1523990285.964555) slcan0 7EA#2101010000009513
(1523990285.967811) slcan0 7EC#2326480001550D0D
(1523990285.974527) slcan0 7EA#22AC7B0D3A5A076A
(1523990285.977818) slcan0 7EC#2403E85003E8273F
(1523990285.984509) slcan0 7EA#23861E3A00000000
(1523990285.987563) slcan0 7EC#2500290000000000
(1523990285.992623) slcan0 7E5#0221010000000000
(1523990285.997574) slcan0 7EC#2600000000000000
(1523990286.004851) slcan0 7ED#102C6101FFFFF800
(1523990286.005325) slcan0 7E5#3010000000000000
(1523990286.025486) slcan0 7ED#2101029D0294040D
(1523990286.034987) slcan0 7ED#2305B14100000000
(1523990286.042673) slcan0 7E3#0221010000000000
(1523990286.045899) slcan0 7ED#2400260000600000
(1523990286.051958) slcan0 7EB#101E6101000003FF
(1523990286.052471) slcan0 7E3#3010000000000000
(1523990286.055668) slcan0 7ED#25000001F4867D03
(1523990286.062170) slcan0 7EB#210C38004D86F239
(1523990286.065056) slcan0 7ED#263F000000000000
(1523990286.072093) slcan0 7EB#220000000A004202
(1523990286.082140) slcan0 7EB#235504C539000000
(1523990286.092194) slcan0 7EB#2400000000000000
(1523990286.092811) slcan0 7D5#0221010000000000
(1523990286.123776) slcan0 7DD#101A6101FB180000
(1523990286.124221) slcan0 7D5#3010000000000000
(1523990286.142874) slcan0 7E4#0221010000000000
(1523990286.154506) slcan0 7EC#103D6101FFFFFFFF
(1523990286.154875) slcan0 7E4#3010000000000000
(1523990286.163669) slcan0 7DD#21BC0DFFF4FCFD02
(1523990286.168012) slcan0 7EC#213E264826480300
(1523990286.178042) slcan0 7EC#22070D6E0D0D0D0D
(1523990286.183878) slcan0 7DD#22010201FFFFFFFF
(1523990286.187981) slcan0 7EC#230D0D0D000DB306
(1523990286.192757) slcan0 7E4#0221050000000000
(1523990286.198080) slcan0 7EC#24B2270000920000
(1523990286.203830) slcan0 7DD#23000003C6000100
(1523990286.208114) slcan0 7EC#259D5600009DF800
(1523990286.225455) slcan0 7EC#260039E100003782
(1523990286.235201) slcan0 7EC#27001321090D0157
(1523990286.242741) slcan0 7E2#0221010000000000
(1523990286.245981) slcan0 7EC#280000000003E800
(1523990286.252290) slcan0 7EA#10166101FFE00000
(1523990286.252834) slcan0 7E2#3010000000000000
(1523990286.258143) slcan0 7EC#102D6105FFFFFFFF
(1523990286.258689) slcan0 7E4#3010000000000000
(1523990286.262359) slcan0 7EA#2109215AA705E602
(1523990286.272012) slcan0 7EA#2200000000447834
(1523990286.275281) slcan0 7EC#2100000000000D0D
(1523990286.282271) slcan0 7EA#2304200000000000
(1523990286.285007) slcan0 7EC#220D0D0D0D0D2648
(1523990286.292957) slcan0 7E2#0221020000000000
(1523990286.295984) slcan0 7EC#2326480001500D0D
(1523990286.302062) slcan0 7EA#10176102FF800000
(1523990286.302756) slcan0 7E2#3010000000000000
(1523990286.305836) slcan0 7EC#2403E85003E8273F
(1523990286.327190) slcan0 7EA#2101010000009412
(1523990286.327211) slcan0 7EC#2500290000000000
(1523990286.332138) slcan0 7EA#23861D3A00000000
(1523990286.335801) slcan0 7EC#2600000000000000
(1523990286.342838) slcan0 7E5#0221010000000000
(1523990286.354990) slcan0 7ED#102C6101FFFFF800
(1523990286.355526) slcan0 7E5#3010000000000000
(1523990286.365175) slcan0 7ED#2101029E02960410
(1523990286.375239) slcan0 7ED#22001576003401BD
(1523990286.385154) slcan0 7ED#2305B04100000000
(1523990286.392984) slcan0 7E3#0221010000000000
(1523990286.396257) slcan0 7ED#2400260000600000
(1523990286.402277) slcan0 7EB#101E6101000003FF
(1523990286.402778) slcan0 7E3#3010000000000000
(1523990286.406146) slcan0 7ED#25000001F4867A03
(1523990286.426103) slcan0 7EB#210C38005086F239
(1523990286.426140) slcan0 7ED#2640000000000000
(1523990286.432279) slcan0 7EB#235404CF39B7FFE8
(1523990286.442473) slcan0 7EB#24FF610000000000
(1523990286.442914) slcan0 7D5#0221010000000000
(1523990286.473908) slcan0 7DD#101A6101FB180000
(1523990286.474546) slcan0 7D5#3010000000000000
(1523990286.493024) slcan0 7E4#0221010000000000
(1523990286.504982) slcan0 7EC#103D6101FFFFFFFF
(1523990286.505488) slcan0 7E4#3010000000000000
(1523990286.514084) slcan0 7DD#21BC0DFFF4FCFD02
(1523990286.527903) slcan0 7EC#213E264826480300
(1523990286.535653) slcan0 7DD#22010201FFFFFFFF
(1523990286.535674) slcan0 7EC#22060D6E0D0D0D0D
(1523990286.543025) slcan0 7E4#0221050000000000
(1523990286.546289) slcan0 7EC#230D0D0D000DB302
(1523990286.555293) slcan0 7DD#23000003C6000100
(1523990286.555314) slcan0 7EC#24B2270000910000
(1523990286.565241) slcan0 7EC#259D5600009DF800
(1523990286.575301) slcan0 7EC#260039E100003782
(1523990286.585185) slcan0 7EC#27001321090D0157
(1523990286.592979) slcan0 7E2#0221010000000000
(1523990286.596241) slcan0 7EC#280000000003E800
(1523990286.602054) slcan0 7EA#10166101FFE00000
(1523990286.602480) slcan0 7E2#3010000000000000
(1523990286.608213) slcan0 7EC#102D6105FFFFFFFF
(1523990286.608577) slcan0 7E4#3010000000000000
(1523990286.625666) slcan0 7EA#2109215AA505E402
(1523990286.632189) slcan0 7EA#2304200000000000
(1523990286.635538) slcan0 7EC#2100000000000D0D
(1523990286.643000) slcan0 7E2#0221020000000000
(1523990286.646210) slcan0 7EC#220D0D0D0D0D2648
(1523990286.652292) slcan0 7EA#10176102FF800000
(1523990286.652905) slcan0 7E2#3010000000000000
(1523990286.655961) slcan0 7EC#2326480001500D0D
(1523990286.662270) slcan0 7EA#2101010000009410
(1523990286.665032) slcan0 7EC#2403E85003E8273F
(1523990286.672112) slcan0 7EA#22AC7BD33945065E
(1523990286.675390) slcan0 7EC#2500290000000000
(1523990286.682258) slcan0 7EA#2386EE3900000000
(1523990286.685033) slcan0 7EC#2600000000000000
(1523990286.692730) slcan0 7E5#0221010000000000
(1523990286.705059) slcan0 7ED#102C6101FFFFF800
(1523990286.705604) slcan0 7E5#3010000000000000
(1523990286.726867) slcan0 7ED#2101029E02970411
(1523990286.735809) slcan0 7ED#2305AF4100000000
(1523990286.742787) slcan0 7E3#0221010000000000
(1523990286.745861) slcan0 7ED#2400260000600000
(1523990286.755699) slcan0 7EB#101E6101000003FF
(1523990286.755735) slcan0 7ED#25000001F4867A03
(1523990286.756292) slcan0 7E3#3010000000000000
(1523990286.765471) slcan0 7EB#210C38005586143A
(1523990286.765492) slcan0 7ED#2638000000000000
(1523990286.775497) slcan0 7EB#220000000A004002
(1523990286.785006) slcan0 7EB#235304C539E8FFE8
(1523990286.792784) slcan0 7D5#0221010000000000
(1523990286.795974) slcan0 7EB#24FF300000000000
(1523990286.823982) slcan0 7DD#101A6101FB180000
(1523990286.824508) slcan0 7D5#3010000000000000
(1523990286.842780) slcan0 7E4#0221010000000000
(1523990286.855003) slcan0 7EC#103D6101FFFFFFFF
(1523990286.855512) slcan0 7E4#3010000000000000
(1523990286.864044) slcan0 7DD#21BC0DFFF4FCFD02
(1523990286.868457) slcan0 7EC#213E264826480300
(1523990286.878488) slcan0 7EC#22070D6E0D0D0D0D
(1523990286.884073) slcan0 7DD#22010201FFFFFFFF
(1523990286.888608) slcan0 7EC#230D0D0D000DB302
(1523990286.892587) slcan0 7E4#0221050000000000
(1523990286.898758) slcan0 7EC#24B2270000920000
(1523990286.904049) slcan0 7DD#23000003C6000100
(1523990286.908643) slcan0 7EC#259D5600009DF800
(1523990286.927016) slcan0 7EC#260039E100003782
(1523990286.935698) slcan0 7EC#27001321090D0157
(1523990286.942968) slcan0 7E2#0221010000000000
(1523990286.946016) slcan0 7EC#280000000003E800
(1523990286.952224) slcan0 7EA#10166101FFE00000
(1523990286.952771) slcan0 7E2#3010000000000000
(1523990286.958680) slcan0 7EC#102D6105FFFFFFFF
(1523990286.959148) slcan0 7E4#3010000000000000
(1523990286.962779) slcan0 7EA#2109215AA705E902
(1523990286.972136) slcan0 7EA#22000000003E7834
(1523990286.975408) slcan0 7EC#2100000000000D0D
(1523990286.982060) slcan0 7EA#2304200000000000
(1523990286.985030) slcan0 7EC#220D0D0D0D0D2648
(1523990286.992586) slcan0 7E2#0221020000000000
(1523990286.995997) slcan0 7EC#2326480001500D0D
(1523990287.002090) slcan0 7EA#10176102FF800000
(1523990287.002569) slcan0 7E2#3010000000000000
(1523990287.005615) slcan0 7EC#2403E85003E8273F
(1523990287.026036) slcan0 7EA#2101010000009412
(1523990287.026053) slcan0 7EC#2500290000000000
(1523990287.031952) slcan0 7EA#2386FD3900000000
(1523990287.035351) slcan0 7EC#2600000000000000
(1523990287.042762) slcan0 7E5#0221010000000000
(1523990287.055242) slcan0 7ED#102C6101FFFFF800
(1523990287.055812) slcan0 7E5#3010000000000000
(1523990287.065294) slcan0 7ED#2101029E0296040F
(1523990287.075230) slcan0 7ED#22001576003401BD
(1523990287.085082) slcan0 7ED#2305AF4100000000
(1523990287.092983) slcan0 7E3#0221010000000000
(1523990287.096262) slcan0 7ED#2400260000600000
(1523990287.105780) slcan0 7EB#101E6101000003FF
(1523990287.105801) slcan0 7ED#25000001F4867C03
(1523990287.106302) slcan0 7E3#3010000000000000
(1523990287.127476) slcan0 7EB#210C38005486F239
(1523990287.127496) slcan0 7ED#2636000000000000
(1523990287.135440) slcan0 7EB#235504B2390000E8
(1523990287.142818) slcan0 7D5#0221010000000000
(1523990287.145884) slcan0 7EB#24FF180000000000
(1523990287.174306) slcan0 7DD#101A6101FB180000
(1523990287.174828) slcan0 7D5#3010000000000000
(1523990287.192998) slcan0 7E4#0221010000000000
(1523990287.205299) slcan0 7EC#103D6101FFFFFFFF
(1523990287.205835) slcan0 7E4#3010000000000000
(1523990287.214310) slcan0 7DD#21BC0DFFF4FCFD02
(1523990287.225789) slcan0 7EC#213E264826480300
(1523990287.235548) slcan0 7DD#22010201FFFFFFFF
(1523990287.235570) slcan0 7EC#22070D6E0D0D0D0D
(1523990287.243002) slcan0 7E4#0221050000000000
(1523990287.246056) slcan0 7EC#230D0D0D000DB30D
(1523990287.255369) slcan0 7DD#23000003C6000100
(1523990287.255390) slcan0 7EC#24B2270000910000
(1523990287.265336) slcan0 7EC#259D5600009DF800
(1523990287.275513) slcan0 7EC#260039E100003782
(1523990287.285295) slcan0 7EC#270013210A0D0157
(1523990287.293077) slcan0 7E2#0221010000000000
(1523990287.296352) slcan0 7EC#280000000003E800
(1523990287.302361) slcan0 7EA#10166101FFE00000
(1523990287.302986) slcan0 7E2#3010000000000000
(1523990287.308989) slcan0 7EC#102D6105FFFFFFFF
(1523990287.309538) slcan0 7E4#3010000000000000
(1523990287.312795) slcan0 7EA#2109215AA705E402
(1523990287.327170) slcan0 7EA#22000000003B7834
(1523990287.332303) slcan0 7EA#2304200000000000
(1523990287.335372) slcan0 7EC#2100000000000D0D
(1523990287.342827) slcan0 7E2#0221020000000000
(1523990287.345860) slcan0 7EC#220D0D0D0D0D2648
(1523990287.352104) slcan0 7EA#10176102FF800000
(1523990287.352605) slcan0 7E2#3010000000000000
(1523990287.355639) slcan0 7EC#23264800014B0D0D
(1523990287.362033) slcan0 7EA#2101010000009413
(1523990287.365082) slcan0 7EC#2403E85003E8273F
(1523990287.372014) slcan0 7EA#22AC7BFD399F076E
(1523990287.375296) slcan0 7EC#2500290000000000
(1523990287.382029) slcan0 7EA#2386053A00000000
(1523990287.385060) slcan0 7EC#2600000000000000
(1523990287.392989) slcan0 7E5#0221010000000000
(1523990287.405559) slcan0 7ED#102C6101FFFFF800
(1523990287.406028) slcan0 7E5#3010000000000000
(1523990287.425796) slcan0 7ED#2101029D0294040D
(1523990287.435241) slcan0 7ED#2305B14100000000
(1523990287.443022) slcan0 7E3#0221010000000000
(1523990287.446278) slcan0 7ED#2400260000720000
(1523990287.455506) slcan0 7EB#101E6101000003FF
(1523990287.455529) slcan0 7ED#25000001F4868103
(1523990287.456005) slcan0 7E3#3010000000000000
(1523990287.465781) slcan0 7EB#210C38005186F239
(1523990287.465801) slcan0 7ED#2630000000000000
(1523990287.475596) slcan0 7EB#220000000A004102
(1523990287.485305) slcan0 7EB#235304DE39180000
(1523990287.492753) slcan0 7D5#0221010000000000
(1523990287.496023) slcan0 7EB#2400E8FF00000000
(1523990287.524061) slcan0 7DD#101A6101FB180000
(1523990287.524558) slcan0 7D5#3010000000000000
(1523990287.543009) slcan0 7E4#0221010000000000
(1523990287.555203) slcan0 7EC#103D6101FFFFFFFF
(1523990287.555778) slcan0 7E4#3010000000000000
(1523990287.564140) slcan0 7DD#21BC0DFFF4FCFD02
(1523990287.569445) slcan0 7EC#213E264826482300
(1523990287.579301) slcan0 7EC#22070D6E0D0D0D0D
(1523990287.584120) slcan0 7DD#22010202FFFFFFFF
(1523990287.589377) slcan0 7EC#230D0D0D000DB326
(1523990287.592672) slcan0 7E4#0221050000000000
(1523990287.599400) slcan0 7EC#24B2270000920000
(1523990287.604141) slcan0 7DD#23000003C6000100
(1523990287.609518) slcan0 7EC#259D5600009DF800
(1523990287.625815) slcan0 7EC#260039E100003782
(1523990287.635316) slcan0 7EC#270013210A0D0157
(1523990287.642824) slcan0 7E2#0221010000000000
(1523990287.646147) slcan0 7EC#280000000003E800
(1523990287.652299) slcan0 7EA#10166101FFE00000
(1523990287.652813) slcan0 7E2#3010000000000000
(1523990287.662255) slcan0 7EC#102D6105FFFFFFFF
(1523990287.662279) slcan0 7EA#21092112A505E902
(1523990287.662791) slcan0 7E4#3010000000000000
(1523990287.672048) slcan0 7EA#22000000003C7834
(1523990287.675590) slcan0 7EC#2100000000000D0D
(1523990287.682069) slcan0 7EA#2306200000000000
(1523990287.685266) slcan0 7EC#220D0D0D0D0D2648
(1523990287.693005) slcan0 7E2#0221020000000000
(1523990287.696001) slcan0 7EC#2326480001500D0D
(1523990287.702056) slcan0 7EA#10176102FF800000
(1523990287.702645) slcan0 7E2#3010000000000000
(1523990287.705677) slcan0 7EC#2403E85003E8273F
(1523990287.711931) slcan0 7EA#2101010000009411
(1523990287.727546) slcan0 7EA#22AC7BF739F60660
(1523990287.727568) slcan0 7EC#2500290000000000
(1523990287.732240) slcan0 7EA#2386013A00000000
(1523990287.735244) slcan0 7EC#2600000000000000
(1523990287.742714) slcan0 7E5#0221010000000000
(1523990287.755306) slcan0 7ED#102C6101FFFFF800
(1523990287.755775) slcan0 7E5#3010000000000000
(1523990287.765333) slcan0 7ED#2101029E0296040E
(1523990287.775110) slcan0 7ED#22001476003400BD
(1523990287.785148) slcan0 7ED#2305AE4100000000
(1523990287.793021) slcan0 7E3#0221010000000000
(1523990287.796349) slcan0 7ED#2400260000720000
(1523990287.805724) slcan0 7EB#101E6101000003FF
(1523990287.805746) slcan0 7ED#25000001F4868503
(1523990287.806301) slcan0 7E3#3010000000000000
(1523990287.827479) slcan0 7EB#210C38005786063A
(1523990287.827500) slcan0 7ED#2639000000000000
(1523990287.835256) slcan0 7EB#235504DE391800E8
(1523990287.842737) slcan0 7D5#0221010000000000
(1523990287.845774) slcan0 7EB#24FF000000000000
(1523990287.874339) slcan0 7DD#101A6101FB180000
(1523990287.874969) slcan0 7D5#3010000000000000
(1523990287.892983) slcan0 7E4#0221010000000000
(1523990287.905451) slcan0 7EC#103D6101FFFFFFFF
(1523990287.906068) slcan0 7E4#3010000000000000
(1523990287.915696) slcan0 7DD#21BC0DFFF4FCFC02
(1523990287.927383) slcan0 7EC#213E264826482300
(1523990287.935648) slcan0 7DD#22010201FFFFFFFF
(1523990287.935670) slcan0 7EC#22060D6E0D0D0D0D
(1523990287.943032) slcan0 7E4#0221050000000000
(1523990287.946370) slcan0 7EC#230D0D0D000DB304
(1523990287.955463) slcan0 7DD#23000003C6000100
(1523990287.955484) slcan0 7EC#24B2270000920000
(1523990287.965485) slcan0 7EC#259D5600009DF800
(1523990287.975237) slcan0 7EC#260039E100003782
(1523990287.985223) slcan0 7EC#270013210A0D0157
(1523990287.992796) slcan0 7E2#0221010000000000
(1523990287.995841) slcan0 7EC#280000000003E800
(1523990288.002078) slcan0 7EA#10166101FFE00000
(1523990288.002623) slcan0 7E2#3010000000000000
(1523990288.009891) slcan0 7EC#102D6105FFFFFFFF
(1523990288.010589) slcan0 7E4#3010000000000000
(1523990288.025550) slcan0 7EA#21092112AA05E602
(1523990288.031947) slcan0 7EA#2306200000000000
(1523990288.035466) slcan0 7EC#2100000000000D0D
(1523990288.042586) slcan0 7E2#0221020000000000
(1523990288.045825) slcan0 7EC#220D0D0D0D0D2648
(1523990288.052001) slcan0 7EA#10176102FF800000
(1523990288.052463) slcan0 7E2#3010000000000000
(1523990288.055584) slcan0 7EC#2326480001500D0D
(1523990288.061904) slcan0 7EA#210101000000940E
(1523990288.065361) slcan0 7EC#2403E85003E8273F
(1523990288.071926) slcan0 7EA#22817BAF39AA0559
(1523990288.075524) slcan0 7EC#2500290000000000
(1523990288.081997) slcan0 7EA#2364FA3900000000
(1523990288.085329) slcan0 7EC#2600000000000000
(1523990288.092962) slcan0 7E5#0221010000000000
(1523990288.105565) slcan0 7ED#102C6101FFFFF800
(1523990288.106095) slcan0 7E5#3010000000000000
(1523990288.126717) slcan0 7ED#2101029A0293040D
(1523990288.135282) slcan0 7ED#23057A4100000000
(1523990288.142558) slcan0 7E3#0221010000000000
(1523990288.146208) slcan0 7ED#2400260000720000
(1523990288.155792) slcan0 7EB#101E6101000003FF
(1523990288.155814) slcan0 7ED#25000001F4514C03
(1523990288.156292) slcan0 7E3#3010000000000000
(1523990288.165935) slcan0 7EB#21083800A850AB37
(1523990288.165956) slcan0 7ED#263C000000000000
(1523990288.175682) slcan0 7EB#220000000A003702
(1523990288.185410) slcan0 7EB#2354047C370000E8
(1523990288.192990) slcan0 7D5#0221010000000000
(1523990288.196267) slcan0 7EB#24FF180000000000
(1523990288.225339) slcan0 7DD#101A6101FB180000
(1523990288.225859) slcan0 7D5#3010000000000000
(1523990288.242908) slcan0 7E4#0221010000000000
(1523990288.255442) slcan0 7EC#103D6101FFFFFFFF
(1523990288.256021) slcan0 7E4#3010000000000000
(1523990288.264641) slcan0 7DD#21AC0DFFF4FCFC02
(1523990288.270705) slcan0 7EC#213E264826482000
(1523990288.280851) slcan0 7EC#22000D6F0D0D0D0D
(1523990288.285339) slcan0 7DD#22010201FFFFFFFF
(1523990288.290929) slcan0 7EC#230D0D0D000DB31B
(1523990288.292581) slcan0 7E4#0221050000000000
(1523990288.300595) slcan0 7EC#24B2270000860000
(1523990288.305199) slcan0 7DD#23000003C6000100
(1523990288.310892) slcan0 7EC#259D5600009DF800
(1523990288.326737) slcan0 7EC#260039E100003782
(1523990288.335364) slcan0 7EC#270013210B0900CD
(1523990288.342767) slcan0 7E2#0221010000000000
(1523990288.346152) slcan0 7EC#280000000003E800
(1523990288.352246) slcan0 7EA#10166101FFE00000
(1523990288.352805) slcan0 7E2#3010000000000000
(1523990288.362220) slcan0 7EC#102D6105FFFFFFFF
(1523990288.362241) slcan0 7EA#21092192A505E402
(1523990288.362786) slcan0 7E4#3010000000000000
(1523990288.372246) slcan0 7EA#2200000000A67534
(1523990288.375462) slcan0 7EC#2100000000000D0D
(1523990288.382244) slcan0 7EA#2306200000000000
(1523990288.385360) slcan0 7EC#220D0D0D0D0D2648
(1523990288.392797) slcan0 7E2#0221020000000000
(1523990288.395911) slcan0 7EC#2326480001500D0D
(1523990288.402022) slcan0 7EA#10176102FF800000
(1523990288.402522) slcan0 7E2#3010000000000000
(1523990288.405902) slcan0 7EC#2403E85003E8273F
(1523990288.411992) slcan0 7EA#2101000000008600
(1523990288.426546) slcan0 7EA#22667B6D340000A6
(1523990288.426566) slcan0 7EC#2500290000000000
(1523990288.431981) slcan0 7EA#234FAD3400000000
(1523990288.435540) slcan0 7EC#2600000000000000
(1523990288.442700) slcan0 7E5#0221010000000000
(1523990288.455200) slcan0 7ED#102C6101FFFFF800
(1523990288.455678) slcan0 7E5#3010000000000000
(1523990288.465654) slcan0 7ED#2101029D0296040E
(1523990288.475695) slcan0 7ED#22001476003400BD
(1523990288.485415) slcan0 7ED#2305264100000000
(1523990288.492794) slcan0 7E3#0221010000000000
(1523990288.495984) slcan0 7ED#2400260000720000
(1523990288.506161) slcan0 7EB#101E6101000003FF
(1523990288.506183) slcan0 7ED#25000001F44F9603
(1523990288.506722) slcan0 7E3#3010000000000000
(1523990288.527962) slcan0 7ED#2638000000000000
(1523990288.535658) slcan0 7EB#21083800414F9234
(1523990288.542745) slcan0 7D5#0221010000000000
(1523990288.546210) slcan0 7EB#220000000A003602
(1523990288.555212) slcan0 7EB#2354045F34E8FF00
(1523990288.565450) slcan0 7EB#2400180000000000
(1523990288.575127) slcan0 7DD#101A6101FB180000
(1523990288.575654) slcan0 7D5#3010000000000000
(1523990288.592764) slcan0 7E4#0221010000000000
(1523990288.605478) slcan0 7EC#103D6101FFFFFFFF
(1523990288.606030) slcan0 7E4#3010000000000000
(1523990288.615454) slcan0 7DD#21AA0DFFF4FCFC02
(1523990288.625804) slcan0 7EC#213E264826482000
(1523990288.635940) slcan0 7DD#22010202FFFFFFFF
(1523990288.635964) slcan0 7EC#22000D6F0D0D0D0D
(1523990288.642695) slcan0 7E4#0221050000000000
(1523990288.646145) slcan0 7EC#230D0D0D000DB326
(1523990288.655682) slcan0 7DD#23000003C6000100
(1523990288.655704) slcan0 7EC#24B3270000850000
(1523990288.665456) slcan0 7EC#259D5600009DF800
(1523990288.675504) slcan0 7EC#260039E100003782
(1523990288.685451) slcan0 7EC#270013210B0900CA
(1523990288.692935) slcan0 7E2#0221010000000000
(1523990288.696209) slcan0 7EC#280000000003E800
(1523990288.702349) slcan0 7EA#10166101FFE00000
(1523990288.702869) slcan0 7E2#3010000000000000
(1523990288.712247) slcan0 7EC#102D6105FFFFFFFF
(1523990288.712271) slcan0 7EA#21092192A505E402
(1523990288.712757) slcan0 7E4#3010000000000000
(1523990288.727536) slcan0 7EA#2200000000167334
(1523990288.732302) slcan0 7EA#2306200000000000
(1523990288.735457) slcan0 7EC#2100000000000D0D
(1523990288.742845) slcan0 7E2#0221020000000000
(1523990288.745959) slcan0 7EC#220D0D0D0D0D2648
(1523990288.752078) slcan0 7EA#10176102FF800000
(1523990288.752595) slcan0 7E2#3010000000000000
(1523990288.755875) slcan0 7EC#2326480001500D0D
(1523990288.762298) slcan0 7EA#2101000000008600
(1523990288.765711) slcan0 7EC#2403E85003E8273F
(1523990288.772133) slcan0 7EA#22657B4A3400008C
(1523990288.775550) slcan0 7EC#2500290000000000
(1523990288.782287) slcan0 7EA#234E873400000000
(1523990288.785648) slcan0 7EC#2600000000000000
(1523990288.792658) slcan0 7E5#0221010000000000
(1523990288.805727) slcan0 7ED#102C6101FFFFF800
(1523990288.806362) slcan0 7E5#3010000000000000
(1523990288.826581) slcan0 7ED#2101029A0293040D
(1523990288.835681) slcan0 7ED#2305214100000000
(1523990288.842916) slcan0 7E3#0221010000000000
(1523990288.846266) slcan0 7ED#2400250000720000
(1523990288.855740) slcan0 7ED#25000001F44E1B03
(1523990288.855761) slcan0 7EB#101E6101000003FF
(1523990288.865743) slcan0 7ED#2638000000000000
(1523990288.866403) slcan0 7E3#3010000000000000
(1523990288.874378) slcan0 7EB#210838002B4E6A34
(1523990288.885628) slcan0 7EB#220000000A003602
(1523990288.892977) slcan0 7D5#0221010000000000
(1523990288.896218) slcan0 7EB#23520437340000E8
(1523990288.905718) slcan0 7EB#24FF180000000000
(1523990288.925371) slcan0 7DD#101A6101FB180000
(1523990288.925903) slcan0 7D5#3010000000000000
(1523990288.942910) slcan0 7E4#0221010000000000
(1523990288.955583) slcan0 7EC#103D6101FFFFFFFF
(1523990288.956121) slcan0 7E4#3010000000000000
(1523990288.964523) slcan0 7DD#21AA0DFFF4FCFC02
(1523990288.970932) slcan0 7EC#213E264826482000
(1523990288.980884) slcan0 7EC#22000D6F0D0D0D0D
(1523990288.984353) slcan0 7DD#22010201FFFFFFFF
(1523990288.990623) slcan0 7EC#230D0D0D000DB302
(1523990288.992599) slcan0 7E4#0221050000000000
(1523990289.000739) slcan0 7EC#24B2270000840000
(1523990289.004550) slcan0 7DD#23000003C6000100
(1523990289.010686) slcan0 7EC#259D5600009DF800
(1523990289.025856) slcan0 7EC#260039E100003782
(1523990289.035670) slcan0 7EC#270013210C0900C6
(1523990289.042874) slcan0 7E2#0221010000000000
(1523990289.046442) slcan0 7EC#280000000003E800
(1523990289.052320) slcan0 7EA#10166101FFE00000
(1523990289.052890) slcan0 7E2#3010000000000000
(1523990289.062224) slcan0 7EC#102D6105FFFFFFFF
(1523990289.062246) slcan0 7EA#21092192A505E402
(1523990289.062804) slcan0 7E4#3010000000000000
(1523990289.072262) slcan0 7EA#2200000000347134
(1523990289.075955) slcan0 7EC#2100000000000D0D
(1523990289.082034) slcan0 7EA#2306200000000000
(1523990289.085830) slcan0 7EC#220D0D0D0D0D2648
(1523990289.092729) slcan0 7E2#0221020000000000
(1523990289.096706) slcan0 7EC#2326480001500D0D
(1523990289.102139) slcan0 7EA#10176102FF800000
(1523990289.102616) slcan0 7E2#3010000000000000
(1523990289.106083) slcan0 7EC#2403E85003E8273F
(1523990289.112482) slcan0 7EA#2101000000008600
(1523990289.127546) slcan0 7EA#22637B2834000022
(1523990289.127560) slcan0 7EC#2500290000000000
(1523990289.132304) slcan0 7EA#234D613400000000
(1523990289.135922) slcan0 7EC#2600000000000000
(1523990289.142591) slcan0 7E5#0221010000000000
(1523990289.154679) slcan0 7ED#102C6101FFFFF800
(1523990289.155170) slcan0 7E5#3010000000000000
(1523990289.164537) slcan0 7ED#2101029C0294040E
(1523990289.174366) slcan0 7ED#22001476003400BD
(1523990289.184828) slcan0 7ED#23051E4100000000
(1523990289.193006) slcan0 7E3#0221010000000000
(1523990289.196294) slcan0 7ED#2400260000720000
(1523990289.205129) slcan0 7ED#25000001F44D0703
(1523990289.205150) slcan0 7EB#101E6101000003FF
(1523990289.222621) slcan0 7ED#263B000000000000
(1523990289.223211) slcan0 7E3#3010000000000000
(1523990289.235597) slcan0 7EB#21083800AD4C5534
(1523990289.242660) slcan0 7D5#0221010000000000
(1523990289.245750) slcan0 7EB#220000000A003502
(1523990289.255837) slcan0 7EB#2352041534180000
(1523990289.265019) slcan0 7EB#2400E8FF00000000
(1523990289.274981) slcan0 7DD#101A6101FB180000
(1523990289.275383) slcan0 7D5#3010000000000000
(1523990289.292794) slcan0 7E4#0221010000000000
(1523990289.306208) slcan0 7EC#103D6101FFFFFFFF
(1523990289.306794) slcan0 7E4#3010000000000000
(1523990289.314379) slcan0 7DD#21AA0DFFF4FCFC02
(1523990289.336188) slcan0 7DD#22010202FFFFFFFF
(1523990289.336210) slcan0 7EC#213E264826482000
(1523990289.342917) slcan0 7E4#0221020000000000
(1523990289.346581) slcan0 7EC#22000D6F0D0D0D0D
(1523990289.356221) slcan0 7DD#23000003C6000100
(1523990289.356243) slcan0 7EC#230D0D0D000DB326
(1523990289.366226) slcan0 7EC#24B2270000840000
(1523990289.375971) slcan0 7EC#259D5600009DF800
(1523990289.386002) slcan0 7EC#260039E100003782
(1523990289.392783) slcan0 7E4#0221030000000000
(1523990289.396843) slcan0 7EC#270013210C0900C3
(1523990289.406332) slcan0 7EC#280000000003E800
(1523990289.422585) slcan0 7EC#10266103FFFFFFFF
(1523990289.423160) slcan0 7E4#3010000000000000
(1523990289.436318) slcan0 7EC#21B3B3B3B3B3B3B2
(1523990289.442757) slcan0 7E4#0221040000000000
(1523990289.446393) slcan0 7EC#22B3B3B3B3B3B3B3
(1523990289.456315) slcan0 7EC#23B3B3B3B3B3B3B3
(1523990289.466188) slcan0 7EC#24B3B3B3B3B3B3B3
(1523990289.476329) slcan0 7EC#25B3B3B3B3000000
(1523990289.491462) slcan0 7EC#10266104FFFFFFFF
(1523990289.492045) slcan0 7E4#3010000000000000
(1523990289.494386) slcan0 7E4#0221050000000000
(1523990289.542936) slcan0 7E2#0221010000000000
(1523990289.552359) slcan0 7EA#10166101FFE00000
(1523990289.552952) slcan0 7E2#3010000000000000
(1523990289.562185) slcan0 7EA#21092192AA05E402
(1523990289.572304) slcan0 7EA#22000000004F6F34
(1523990289.582078) slcan0 7EA#2306200000000000
(1523990289.593005) slcan0 7E2#0221020000000000
(1523990289.602152) slcan0 7EA#10176102FF800000
(1523990289.602687) slcan0 7E2#3010000000000000
(1523990289.612301) slcan0 7EA#2101000000008500
(1523990289.625073) slcan0 7EA#22607BFA3300004E
(1523990289.632333) slcan0 7EA#234B313400000000
(1523990289.642531) slcan0 7E5#0221010000000000
(1523990289.654424) slcan0 7ED#102C6101FFFFF800
(1523990289.654769) slcan0 7E5#3010000000000000
(1523990289.664793) slcan0 7ED#2101029D02950410
(1523990289.674329) slcan0 7ED#22001476003400BD
(1523990289.684533) slcan0 7ED#2305194100000000
(1523990289.692998) slcan0 7E3#0221010000000000
(1523990289.696033) slcan0 7ED#2400260000720000
(1523990289.706082) slcan0 7ED#25000001F44B3103
(1523990289.706112) slcan0 7EB#101E6101000003FF
(1523990289.726893) slcan0 7ED#2632000000000000
(1523990289.727455) slcan0 7E3#3010000000000000
(1523990289.735310) slcan0 7EB#21083800DC4A1934
(1523990289.742674) slcan0 7D5#0221010000000000
(1523990289.746144) slcan0 7EB#220000000A003602
(1523990289.755232) slcan0 7EB#235504F3330000E8
(1523990289.766354) slcan0 7EB#24FF180000000000
(1523990289.775013) slcan0 7DD#101A6101FB180000
(1523990289.775403) slcan0 7D5#3010000000000000
(1523990289.792790) slcan0 7E4#0221010000000000
(1523990289.806453) slcan0 7EC#103D6101FFFFFFFF
(1523990289.806998) slcan0 7E4#3010000000000000
(1523990289.815181) slcan0 7DD#21A90DFFF4FCFC02
(1523990289.836613) slcan0 7DD#22010202FFFFFFFF
(1523990289.836638) slcan0 7EC#213E264826482000
(1523990289.842999) slcan0 7E4#0221050000000000
(1523990289.846462) slcan0 7EC#22000D6F0D0D0D0D
(1523990289.856743) slcan0 7DD#23000003C6000100
(1523990289.856764) slcan0 7EC#230D0D0D000DB301
(1523990289.866466) slcan0 7EC#24B2270000840000
(1523990289.876754) slcan0 7EC#259D5600009DF800
(1523990289.886533) slcan0 7EC#260039E100003782
(1523990289.892803) slcan0 7E2#0221010000000000
(1523990289.897298) slcan0 7EC#270013210C0900BF
(1523990289.902176) slcan0 7EA#10166101FFE00000
(1523990289.902678) slcan0 7E2#3010000000000000
(1523990289.906583) slcan0 7EC#280000000003E800
(1523990289.912211) slcan0 7EA#21092192AA05E902
(1523990289.927242) slcan0 7EA#22000000005F6E34
(1523990289.927261) slcan0 7EC#102D6105FFFFFFFF
(1523990289.932065) slcan0 7EA#2306200000000000
(1523990289.932468) slcan0 7E4#3010000000000000
(1523990289.942791) slcan0 7E2#0221020000000000
(1523990289.946898) slcan0 7EC#2100000000000D0D
(1523990289.952474) slcan0 7EA#10176102FF800000
(1523990289.952969) slcan0 7E2#3010000000000000
(1523990289.956545) slcan0 7EC#220D0D0D0D0D2648
(1523990289.962067) slcan0 7EA#2101000000008500
(1523990289.966585) slcan0 7EC#2326480001500D0D
(1523990289.972060) slcan0 7EA#225F7AE533000023
(1523990289.976576) slcan0 7EC#2403E85003E8273F
(1523990289.982009) slcan0 7EA#234A1D3400000000
(1523990289.986542) slcan0 7EC#2500290000000000
(1523990289.992733) slcan0 7E5#0221010000000000
(1523990289.997318) slcan0 7EC#2600000000000000
(1523990290.004564) slcan0 7ED#102C6101FFFFF800
(1523990290.005092) slcan0 7E5#3010000000000000
(1523990290.024766) slcan0 7ED#210102980291040C
(1523990290.024785) slcan0 7ED#22001476003400BD
(1523990290.034521) slcan0 7ED#2305164100000000
(1523990290.042714) slcan0 7E3#0221010000000000
(1523990290.045739) slcan0 7ED#2400250000720000
(1523990290.055585) slcan0 7ED#25000001F449C003
(1523990290.055607) slcan0 7EB#101E6101000003FF
(1523990290.064841) slcan0 7ED#2629000000000000
(1523990290.065348) slcan0 7E3#3010000000000000
(1523990290.075642) slcan0 7EB#21083800B8491234
(1523990290.085738) slcan0 7EB#220000000A003702
(1523990290.092748) slcan0 7D5#0221010000000000
(1523990290.096217) slcan0 7EB#235304D033E8FFE8
(1523990290.105461) slcan0 7EB#24FF300000000000
(1523990290.125245) slcan0 7DD#101A6101FB180000
(1523990290.125720) slcan0 7D5#3010000000000000
(1523990290.142676) slcan0 7E4#0221010000000000
(1523990290.156845) slcan0 7EC#103D6101FFFFFFFF
(1523990290.157436) slcan0 7E4#3010000000000000
(1523990290.165329) slcan0 7DD#21A90DFFF4FCFC02
(1523990290.171810) slcan0 7EC#213E264826482000
(1523990290.181860) slcan0 7EC#22000D6F0D0D0D0D
(1523990290.185091) slcan0 7DD#22010202FFFFFFFF
(1523990290.192018) slcan0 7EC#230D0D0D000DB326
(1523990290.192609) slcan0 7E4#0221050000000000
(1523990290.202164) slcan0 7EC#24B2270000840000
(1523990290.205270) slcan0 7DD#23000003C6000100
(1523990290.211940) slcan0 7EC#259D5600009DF800
(1523990290.224981) slcan0 7EC#260039E100003782
(1523990290.232047) slcan0 7EC#270013210D0900BB
(1523990290.241916) slcan0 7EC#280000000003E800
(1523990290.242640) slcan0 7E2#0221010000000000
(1523990290.252396) slcan0 7EA#10166101FFE00000
(1523990290.252981) slcan0 7E2#3010000000000000
(1523990290.257134) slcan0 7EC#102D6105FFFFFFFF
(1523990290.257588) slcan0 7E4#3010000000000000
(1523990290.262195) slcan0 7EA#21092192A505E602
(1523990290.272618) slcan0 7EC#2100000000000D0D
(1523990290.272641) slcan0 7EA#2200000000A46D34
(1523990290.282353) slcan0 7EC#220D0D0D0D0D2648
(1523990290.282373) slcan0 7EA#2306200000000000
(1523990290.292143) slcan0 7EC#2326480001500D0D
(1523990290.292750) slcan0 7E2#0221020000000000
(1523990290.302354) slcan0 7EC#2403E85003E8273F
(1523990290.302375) slcan0 7EA#10176102FF800000
(1523990290.312112) slcan0 7EC#2500290000000000
(1523990290.327060) slcan0 7EC#2600000000000000
(1523990290.327564) slcan0 7E2#3010000000000000
(1523990290.332355) slcan0 7EA#2101000000008500
(1523990290.342277) slcan0 7EA#225D7AC3330000C3
(1523990290.342835) slcan0 7E5#0221010000000000
(1523990290.354448) slcan0 7EA#2348013400000000
(1523990290.354469) slcan0 7ED#102C6101FFFFF800
(1523990290.392834) slcan0 7E3#0221010000000000
(1523990290.393294) slcan0 7E5#3010000000000000
(1523990290.405746) slcan0 7ED#2101029A0292040D
(1523990290.405766) slcan0 7EB#101E6101000003FF
(1523990290.425017) slcan0 7ED#22001476003400BD
(1523990290.425604) slcan0 7E3#3010000000000000
(1523990290.436037) slcan0 7ED#2400260000720000
(1523990290.436058) slcan0 7EB#210838004D48F733
(1523990290.442946) slcan0 7D5#0221010000000000
(1523990290.446266) slcan0 7ED#25000001F448A603
(1523990290.446283) slcan0 7EB#220000000A003702
(1523990290.456006) slcan0 7ED#2632000000000000
(1523990290.456027) slcan0 7EB#235304AE33180000
(1523990290.466018) slcan0 7EB#2400E8FF00000000
(1523990290.475206) slcan0 7DD#101A6101FB180000
(1523990290.492857) slcan0 7E4#0221010000000000
(1523990290.507250) slcan0 7EC#103D6101FFFFFFFF
(1523990290.507676) slcan0 7D5#3010000000000000
(1523990290.508005) slcan0 7E4#3010000000000000
(1523990290.537237) slcan0 7EC#213E264826482000
(1523990290.542729) slcan0 7E4#0221050000000000
(1523990290.547473) slcan0 7EC#22000D6F0D0D0D0D
(1523990290.557227) slcan0 7DD#21A80DFFF4FCFC02
(1523990290.557252) slcan0 7EC#230D0D0D000DB301
(1523990290.567509) slcan0 7EC#24B2270000830000
(1523990290.577491) slcan0 7DD#22010201FFFFFFFF
(1523990290.577521) slcan0 7EC#259D5600009DF800
(1523990290.587499) slcan0 7EC#260039E100003782
(1523990290.592900) slcan0 7E2#0221010000000000
(1523990290.597934) slcan0 7DD#23000003C6000100
(1523990290.597955) slcan0 7EC#270013210D0900B8
(1523990290.602466) slcan0 7EA#10166101FFE00000
(1523990290.607562) slcan0 7EC#280000000003E800
(1523990290.622612) slcan0 7EC#102D6105FFFFFFFF
(1523990290.623100) slcan0 7E2#3010000000000000
(1523990290.632184) slcan0 7EA#21092192A705E602
(1523990290.632400) slcan0 7E4#3010000000000000
(1523990290.642548) slcan0 7EA#2200000000106D34
(1523990290.642559) slcan0 7EC#2100000000000D0D
(1523990290.642731) slcan0 7E2#0221020000000000
(1523990290.652873) slcan0 7EA#10176102FF800000
(1523990290.652893) slcan0 7EC#220D0D0D0D0D2648
(1523990290.653375) slcan0 7E2#3010000000000000
(1523990290.662777) slcan0 7EA#2101000000008400
(1523990290.662798) slcan0 7EC#2326480001500D0D
(1523990290.672555) slcan0 7EA#225C7AAD330000B8
(1523990290.672578) slcan0 7EC#2403E85003E8273F
(1523990290.682834) slcan0 7EA#2347E93300000000
(1523990290.682855) slcan0 7EC#2500290000000000
(1523990290.692465) slcan0 7EC#2600000000000000
(1523990290.692909) slcan0 7E5#0221010000000000
(1523990290.704484) slcan0 7ED#102C6101FFFFF800
(1523990290.742627) slcan0 7E3#0221010000000000
(1523990290.756298) slcan0 7EB#101E6101000003FF
(1523990290.756817) slcan0 7E5#3010000000000000
(1523990290.757302) slcan0 7E3#3010000000000000
(1523990290.766194) slcan0 7ED#2101029A0292040D
(1523990290.766216) slcan0 7EB#210838003A47DC33
(1523990290.776291) slcan0 7ED#22001476003400BD
(1523990290.776312) slcan0 7EB#220000000A003602
(1523990290.786112) slcan0 7ED#2305114100000000
(1523990290.786140) slcan0 7EB#2353049F33E8FFE8
(1523990290.792859) slcan0 7D5#0221010000000000
(1523990290.797723) slcan0 7ED#2400250000720000
(1523990290.797746) slcan0 7EB#24FF300000000000
(1523990290.804720) slcan0 7ED#25000001F4473D03
(1523990290.825800) slcan0 7DD#101A6101FB180000
(1523990290.825820) slcan0 7ED#2634000000000000
(1523990290.842945) slcan0 7E4#0221010000000000
(1523990290.852493) slcan0 7EC#103D6101FFFFFFFF
(1523990290.892972) slcan0 7E4#0221050000000000
(1523990290.893322) slcan0 7D5#3010000000000000
(1523990290.935409) slcan0 7DD#21A80DFFF4FCFC02
(1523990290.935918) slcan0 7E4#3010000000000000
(1523990290.942871) slcan0 7E2#0221010000000000
(1523990290.952385) slcan0 7EA#10166101FFE00000
(1523990290.952929) slcan0 7E2#3010000000000000
(1523990290.956201) slcan0 7DD#22010201FFFFFFFF
(1523990290.962086) slcan0 7EA#21092192A205E602
(1523990290.972104) slcan0 7EA#2200000000946C34
(1523990290.975477) slcan0 7DD#23000003C6000100
(1523990290.982361) slcan0 7EA#2306200000000000
(1523990290.992752) slcan0 7E2#0221020000000000
(1523990291.002240) slcan0 7EA#10176102FF800000
(1523990291.002681) slcan0 7E2#3010000000000000
(1523990291.012312) slcan0 7EA#2101000000008400
(1523990291.024703) slcan0 7EA#225A7A8D3300003B
(1523990291.032239) slcan0 7EA#2346BE3300000000
(1523990291.042731) slcan0 7E5#0221010000000000
(1523990291.054422) slcan0 7ED#102C6101FFFFF800
(1523990291.054978) slcan0 7E5#3010000000000000
(1523990291.064745) slcan0 7ED#2101029C0294040E
(1523990291.074348) slcan0 7ED#22001476003400BD
(1523990291.084855) slcan0 7ED#23050E4100000000
(1523990291.092716) slcan0 7E3#0221010000000000
(1523990291.096017) slcan0 7ED#2400260000720000
(1523990291.106328) slcan0 7ED#25000001F4462203
(1523990291.106354) slcan0 7EB#101E6101000003FF
(1523990291.126007) slcan0 7ED#2636000000000000
(1523990291.126587) slcan0 7E3#3010000000000000
(1523990291.136587) slcan0 7EB#21083800CE45B333
(1523990291.142706) slcan0 7D5#0221010000000000
(1523990291.146371) slcan0 7EB#220000000A003602
(1523990291.156370) slcan0 7EB#2355047C33E8FF00
(1523990291.166666) slcan0 7EB#2400180000000000
(1523990291.175596) slcan0 7DD#101A6101FB180000
(1523990291.176027) slcan0 7D5#3010000000000000
(1523990291.192783) slcan0 7E4#0221010000000000
(1523990291.203065) slcan0 7EC#103D6101FFFFFFFF
(1523990291.203632) slcan0 7E4#3010000000000000
(1523990291.215641) slcan0 7DD#21A80DFFF4FCFC02
(1523990291.225322) slcan0 7EC#213E264826482000
(1523990291.235768) slcan0 7EC#22000D6F0D0D0D0D
(1523990291.235788) slcan0 7DD#22010202FFFFFFFF
(1523990291.242751) slcan0 7E4#0221050000000000
(1523990291.242902) slcan0 7EC#230D0D0D000DB319
(1523990291.255697) slcan0 7EC#24B2270000830000
(1523990291.255718) slcan0 7DD#23000003C6000100
(1523990291.263168) slcan0 7EC#259D5600009DF800
(1523990291.273139) slcan0 7EC#260039E100003782
(1523990291.282923) slcan0 7EC#270013210E0900B2
(1523990291.292743) slcan0 7E2#0221010000000000
(1523990291.295804) slcan0 7EC#280000000003E800
(1523990291.302232) slcan0 7EA#10166101FFE00000
(1523990291.307976) slcan0 7EC#102D6105FFFFFFFF
(1523990291.308386) slcan0 7E2#3010000000000000
(1523990291.308727) slcan0 7E4#3010000000000000
(1523990291.334635) slcan0 7EA#21092192A505DF02
(1523990291.334656) slcan0 7EC#2100000000000D0D
(1523990291.342673) slcan0 7E2#0221020000000000
(1523990291.345737) slcan0 7EA#22000000002A6C34
(1523990291.345765) slcan0 7EC#220D0D0D0D0D2648
(1523990291.354397) slcan0 7EA#10176102FF800000
(1523990291.354421) slcan0 7EC#2326480001500D0D
(1523990291.364908) slcan0 7EC#2403E85003E8273F
(1523990291.365381) slcan0 7E2#3010000000000000
(1523990291.374697) slcan0 7EA#2101000000008400
(1523990291.374719) slcan0 7EC#2500290000000000
(1523990291.384922) slcan0 7EA#22597A7233000036
(1523990291.384944) slcan0 7EC#2600000000000000
(1523990291.392221) slcan0 7EA#2345B33300000000
(1523990291.392679) slcan0 7E5#0221010000000000
(1523990291.404700) slcan0 7ED#102C6101FFFFF800
(1523990291.442783) slcan0 7E3#0221010000000000
(1523990291.456678) slcan0 7EB#101E6101000003FF
(1523990291.457131) slcan0 7E5#3010000000000000
(1523990291.457472) slcan0 7E3#3010000000000000
(1523990291.466677) slcan0 7ED#2101029E0295040F
(1523990291.466702) slcan0 7EB#21083800BE449F33
(1523990291.476921) slcan0 7ED#22001476003400BD
(1523990291.476943) slcan0 7EB#220000000A003602
(1523990291.486884) slcan0 7ED#23050B4100000000
(1523990291.486906) slcan0 7EB#2353046933000018
(1523990291.492866) slcan0 7D5#0221010000000000
(1523990291.496802) slcan0 7ED#2400260000720000
(1523990291.496818) slcan0 7EB#2400E8FF00000000
(1523990291.504867) slcan0 7ED#25000001F444BB03
(1523990291.526792) slcan0 7DD#101A6101FB180000
(1523990291.526814) slcan0 7ED#2634000000000000
(1523990291.542923) slcan0 7E4#0221010000000000
(1523990291.554430) slcan0 7EC#103D6101FFFFFFFF
(1523990291.592707) slcan0 7E4#0221050000000000
(1523990291.593091) slcan0 7D5#3010000000000000
(1523990291.635668) slcan0 7DD#21A70DFFF4FCFC02
(1523990291.636205) slcan0 7E4#3010000000000000
(1523990291.642950) slcan0 7E2#0221010000000000
(1523990291.652323) slcan0 7EA#10166101FFE00000
(1523990291.652850) slcan0 7E2#3010000000000000
(1523990291.656266) slcan0 7DD#22010202FFFFFFFF
(1523990291.662474) slcan0 7EA#21092192A705E402
(1523990291.672439) slcan0 7EA#2200000000D36B34
(1523990291.676149) slcan0 7DD#23000003C6000100
(1523990291.682426) slcan0 7EA#2306200000000000
(1523990291.692740) slcan0 7E2#0221020000000000
(1523990291.702257) slcan0 7EA#10176102FF800000
(1523990291.702765) slcan0 7E2#3010000000000000
(1523990291.712480) slcan0 7EA#2101000000008300
(1523990291.725720) slcan0 7EA#22577A59330000C6
(1523990291.732252) slcan0 7EA#2343923300000000
(1523990291.742705) slcan0 7E5#0221010000000000
(1523990291.754447) slcan0 7ED#102C6101FFFFF800
(1523990291.754826) slcan0 7E5#3010000000000000
(1523990291.764698) slcan0 7ED#2101029C02950410
(1523990291.774466) slcan0 7ED#22001476003400BD
(1523990291.784824) slcan0 7ED#23050A4100000000
(1523990291.792936) slcan0 7E3#0221010000000000
(1523990291.796153) slcan0 7ED#2400260000720000
(1523990291.807240) slcan0 7ED#25000001F443A903
(1523990291.807260) slcan0 7EB#101E6101000003FF
(1523990291.825859) slcan0 7ED#2638000000000000
(1523990291.826430) slcan0 7E3#3010000000000000
(1523990291.836963) slcan0 7EB#2108380050438333
(1523990291.842663) slcan0 7D5#0221010000000000
(1523990291.846971) slcan0 7EB#220000000A003702
(1523990291.857068) slcan0 7EB#23540455330000E8
(1523990291.867278) slcan0 7EB#24FF180000000000
(1523990291.875869) slcan0 7DD#101A6101FB180000
(1523990291.876304) slcan0 7D5#3010000000000000
(1523990291.892670) slcan0 7E4#0221010000000000
(1523990291.904775) slcan0 7EC#103D6101FFFFFFFF
(1523990291.905275) slcan0 7E4#3010000000000000
(1523990291.915928) slcan0 7DD#21A70DFFF4FCFC02
(1523990291.925742) slcan0 7EC#213E264826482000
(1523990291.936061) slcan0 7EC#22000D6F0D0D0D0D
(1523990291.936083) slcan0 7DD#22010201FFFFFFFF
(1523990291.942953) slcan0 7E4#0221050000000000
(1523990291.946252) slcan0 7EC#230D0D0D000DB326
(1523990291.956003) slcan0 7EC#24B2270000820000
(1523990291.956024) slcan0 7DD#23000003C6000100
(1523990291.964964) slcan0 7EC#259D5600009DF800
(1523990291.974475) slcan0 7EC#260039E100003782
(1523990291.984697) slcan0 7EC#270013210E0900AB
(1523990291.992771) slcan0 7E2#0221010000000000
(1523990291.995774) slcan0 7EC#280000000003E800
(1523990292.002229) slcan0 7EA#10166101FFE00000
(1523990292.002707) slcan0 7E2#3010000000000000
(1523990292.008849) slcan0 7EC#102D6105FFFFFFFF
(1523990292.009390) slcan0 7E4#3010000000000000
(1523990292.012777) slcan0 7EA#21092192A505E402
(1523990292.025477) slcan0 7EA#2200000000856B34
(1523990292.025504) slcan0 7EC#2100000000000D0D
(1523990292.034791) slcan0 7EA#2306200000000000
(1523990292.034811) slcan0 7EC#220D0D0D0D0D2648
(1523990292.042703) slcan0 7E2#0221020000000000
(1523990292.045701) slcan0 7EC#2326480001500D0D
(1523990292.054470) slcan0 7EA#10176102FF800000
(1523990292.054491) slcan0 7EC#2403E85003E8273F
(1523990292.064725) slcan0 7EC#2500290000000000
(1523990292.065286) slcan0 7E2#3010000000000000
(1523990292.074555) slcan0 7EA#2101000000008300
(1523990292.074573) slcan0 7EC#2600000000000000
(1523990292.082410) slcan0 7EA#22557A42330000B2
(1523990292.092232) slcan0 7EA#2342833300000000
(1523990292.092660) slcan0 7E5#0221010000000000
(1523990292.104921) slcan0 7ED#102C6101FFFFF800
(1523990292.142784) slcan0 7E3#0221010000000000
(1523990292.143115) slcan0 7E5#3010000000000000
(1523990292.154786) slcan0 7ED#2101029C0294040E
(1523990292.157445) slcan0 7EB#101E6101000003FF
(1523990292.157924) slcan0 7E3#3010000000000000
(1523990292.167287) slcan0 7ED#22001476003400BD
(1523990292.167307) slcan0 7EB#2108380048426833
(1523990292.177245) slcan0 7ED#2305074100000000
(1523990292.177260) slcan0 7EB#220000000A003602
(1523990292.187530) slcan0 7ED#2400260000720000
(1523990292.187566) slcan0 7EB#23530438330000E8
(1523990292.192919) slcan0 7D5#0221010000000000
(1523990292.197319) slcan0 7ED#25000001F4424403
(1523990292.197336) slcan0 7EB#24FF180000000000
(1523990292.204829) slcan0 7ED#263C000000000000
(1523990292.226408) slcan0 7DD#101A6101FB180000
(1523990292.242670) slcan0 7E4#0221010000000000
(1523990292.254517) slcan0 7EC#103D6101FFFFFFFF
(1523990292.292969) slcan0 7E4#0221050000000000
(1523990292.293406) slcan0 7D5#3010000000000000
(1523990292.293728) slcan0 7E4#3010000000000000
(1523990292.304823) slcan0 7EC#213E264826482000
(1523990292.317379) slcan0 7EC#22000D6F0D0D0D0D
(1523990292.325896) slcan0 7EC#230D0D0D000DB30C
(1523990292.336266) slcan0 7EC#24B2270000820000
(1523990292.336287) slcan0 7DD#21A70DFFF4FCFC02
(1523990292.342921) slcan0 7E2#0221010000000000
(1523990292.346196) slcan0 7EC#259D5600009DF800
(1523990292.356019) slcan0 7EA#10166101FFE00000
(1523990292.356042) slcan0 7EC#260039E100003782
(1523990292.356046) slcan0 7DD#22010202FFFFFFFF
(1523990292.356550) slcan0 7E2#3010000000000000
(1523990292.364913) slcan0 7EA#21092192A705E902
(1523990292.364934) slcan0 7EC#270013210F0900A8
(1523990292.376528) slcan0 7EA#2200000000406B34
(1523990292.376548) slcan0 7EC#280000000003E800
(1523990292.376552) slcan0 7DD#23000003C6000100
(1523990292.382492) slcan0 7EA#2306200000000000
(1523990292.392973) slcan0 7E2#0221020000000000
(1523990292.402328) slcan0 7EA#10176102FF800000
(1523990292.443058) slcan0 7E5#0221010000000000
(1523990292.454842) slcan0 7ED#102C6101FFFFF800
(1523990292.492735) slcan0 7E3#0221010000000000
(1523990292.493052) slcan0 7E2#3010000000000000
(1523990292.493274) slcan0 7E5#3010000000000000
(1523990292.498773) slcan0 7EB#101E6101000003FF
(1523990292.499247) slcan0 7E3#3010000000000000
(1523990292.507693) slcan0 7EA#2101000000008300
(1523990292.507714) slcan0 7ED#2101029D0293040D
(1523990292.507718) slcan0 7EB#21083800DA405433
(1523990292.512695) slcan0 7EA#22547A2733000045
(1523990292.517449) slcan0 7ED#22001476003400BD
(1523990292.528826) slcan0 7EA#23415F3300000000
(1523990292.528846) slcan0 7EB#220000000A003502
(1523990292.528850) slcan0 7ED#2305054100000000
(1523990292.534989) slcan0 7ED#2400250000720000
(1523990292.539838) slcan0 7EB#2400E8FF00000000
(1523990292.542624) slcan0 7D5#0221010000000000
(1523990292.545634) slcan0 7ED#25000001F4413803
(1523990292.554627) slcan0 7ED#263E000000000000
(1523990292.576298) slcan0 7DD#101A6101FB180000
(1523990292.592939) slcan0 7E4#0221010000000000
(1523990292.605029) slcan0 7EC#103D6101FFFFFFFF
(1523990292.642741) slcan0 7E4#0221050000000000
(1523990292.643101) slcan0 7D5#3010000000000000
(1523990292.643439) slcan0 7E4#3010000000000000
(1523990292.654574) slcan0 7EC#213E264826482000
(1523990292.665096) slcan0 7EC#22000D6F0D0D0D0D
(1523990292.674807) slcan0 7EC#230D0D0D000DB302
(1523990292.686427) slcan0 7EC#24B3270000820000
(1523990292.686448) slcan0 7DD#21A60DFFF4FCFC02
(1523990292.692951) slcan0 7E2#0221010000000000
(1523990292.696238) slcan0 7EC#259D5600009DF800
(1523990292.706475) slcan0 7EA#10166101FFE00000
(1523990292.706497) slcan0 7EC#260039E100003782
(1523990292.706505) slcan0 7DD#22010201FFFFFFFF
(1523990292.707058) slcan0 7E2#3010000000000000
(1523990292.717615) slcan0 7EC#270013210F0900A5
(1523990292.726685) slcan0 7EC#280000000003E800
(1523990292.726707) slcan0 7DD#23000003C6000100
(1523990292.732489) slcan0 7EA#21092192AA05E402
(1523990292.742453) slcan0 7EA#2200000000026B34
(1523990292.742998) slcan0 7E2#0221020000000000
(1523990292.752595) slcan0 7EA#10176102FF800000
(1523990292.792746) slcan0 7E5#0221010000000000
(1523990292.793167) slcan0 7E2#3010000000000000
(1523990292.804835) slcan0 7EA#2101000000008300
(1523990292.804854) slcan0 7ED#102C6101FFFFF800
(1523990292.812422) slcan0 7EA#22527A1233000045
(1523990292.812914) slcan0 7E5#3010000000000000
(1523990292.826211) slcan0 7EA#2340503300000000
(1523990292.835078) slcan0 7ED#2101029B0294040E
(1523990292.842940) slcan0 7E3#0221010000000000
(1523990292.847901) slcan0 7ED#22001476003400BD
(1523990292.847921) slcan0 7EB#101E6101000003FF
(1523990292.854605) slcan0 7ED#2305024100000000
(1523990292.855135) slcan0 7E3#3010000000000000
(1523990292.864845) slcan0 7ED#2400260000720000
(1523990292.867988) slcan0 7EB#21083800D63F3933
(1523990292.874865) slcan0 7ED#25000001F43FD103
(1523990292.878072) slcan0 7EB#220000000A003602
(1523990292.884838) slcan0 7ED#2633000000000000
(1523990292.887966) slcan0 7EB#23540410330000E8
(1523990292.892906) slcan0 7D5#0221010000000000
(1523990292.898043) slcan0 7EB#24FF180000000000
(1523990292.927307) slcan0 7DD#101A6101FB180000
(1523990292.927840) slcan0 7D5#3010000000000000
(1523990292.942917) slcan0 7E4#0221010000000000
(1523990292.954639) slcan0 7EC#103D6101FFFFFFFF
(1523990292.955169) slcan0 7E4#3010000000000000
(1523990292.967080) slcan0 7DD#21A60DFFF4FCFC02
(1523990292.969828) slcan0 7EC#213E264826482000
(1523990292.979747) slcan0 7EC#22000D6F0D0D0D0D
(1523990292.986970) slcan0 7DD#22010201FFFFFFFF
(1523990292.989746) slcan0 7EC#230D0D0D000DB326
(1523990292.992636) slcan0 7E4#0221050000000000
(1523990292.999616) slcan0 7EC#24B3270000810000
(1523990293.006824) slcan0 7DD#23000003C6000100
(1523990293.009687) slcan0 7EC#259D5600009DF800
(1523990293.025995) slcan0 7EC#260039E100003782
(1523990293.035087) slcan0 7EC#27001321100900A2
(1523990293.042831) slcan0 7E2#0221010000000000
(1523990293.046134) slcan0 7EC#280000000003E800
(1523990293.052323) slcan0 7EA#10166101FFE00000
(1523990293.052836) slcan0 7E2#3010000000000000
(1523990293.062442) slcan0 7EC#102D6105FFFFFFFF
(1523990293.062462) slcan0 7EA#21092192A505E602
(1523990293.062981) slcan0 7E4#3010000000000000
(1523990293.074721) slcan0 7EA#2200000000C76A34
(1523990293.074736) slcan0 7EC#2100000000000D0D
(1523990293.084855) slcan0 7EA#2306200000000000
(1523990293.084877) slcan0 7EC#220D0D0D0D0D2648
(1523990293.092992) slcan0 7E2#0221020000000000
(1523990293.096012) slcan0 7EC#2326480001500D0D
(1523990293.104840) slcan0 7EA#10176102FF800000
(1523990293.104853) slcan0 7EC#2403E85003E8273F
(1523990293.117396) slcan0 7EC#2500290000000000
(1523990293.117885) slcan0 7E2#3010000000000000
(1523990293.126239) slcan0 7EC#2600000000000000
(1523990293.132273) slcan0 7EA#2101000000008300
(1523990293.142431) slcan0 7EA#22517AFB320000E4
(1523990293.142912) slcan0 7E5#0221010000000000
(1523990293.154933) slcan0 7EA#233E2C3300000000
(1523990293.154953) slcan0 7ED#102C6101FFFFF800
(1523990293.192771) slcan0 7E3#0221010000000000
(1523990293.193107) slcan0 7E5#3010000000000000
(1523990293.198199) slcan0 7EB#101E6101000003FF
(1523990293.198735) slcan0 7E3#3010000000000000
(1523990293.204934) slcan0 7ED#2101029C0295040F
(1523990293.208138) slcan0 7EB#210838006E3E2533
(1523990293.218182) slcan0 7ED#22001476003400BD
(1523990293.218197) slcan0 7EB#220000000A003602
(1523990293.228351) slcan0 7ED#2305004100000000
(1523990293.228371) slcan0 7EB#235304E432000018
(1523990293.235095) slcan0 7ED#2400260000720000
(1523990293.239614) slcan0 7EB#2400E8FF00000000
(1523990293.242570) slcan0 7D5#0221010000000000
(1523990293.245831) slcan0 7ED#25000001F43EC903
(1523990293.254617) slcan0 7ED#2639000000000000
(1523990293.266547) slcan0 7DD#101A6101FB180000
(1523990293.292875) slcan0 7E4#0221010000000000
(1523990293.293272) slcan0 7D5#3010000000000000
(1523990293.305000) slcan0 7EC#103D6101FFFFFFFF
(1523990293.305470) slcan0 7E4#3010000000000000
(1523990293.317387) slcan0 7EC#213E264826482000
(1523990293.326492) slcan0 7EC#22000D6F0D0D0D0D
(1523990293.336806) slcan0 7EC#230D0D0D000DB326
(1523990293.336826) slcan0 7DD#21A60DFFF4FCFC02
(1523990293.342949) slcan0 7E4#0221050000000000
(1523990293.346262) slcan0 7EC#24B3270000810000
(1523990293.356827) slcan0 7EC#259D5600009DF800
(1523990293.356847) slcan0 7DD#22010201FFFFFFFF
(1523990293.365294) slcan0 7EC#260039E100003782
(1523990293.377070) slcan0 7EC#270013211009009F
(1523990293.377091) slcan0 7DD#23000003C6000100
(1523990293.385333) slcan0 7EC#280000000003E800
(1523990293.392943) slcan0 7E2#0221010000000000
(1523990293.402406) slcan0 7EC#102D6105FFFFFFFF
(1523990293.402426) slcan0 7EA#10166101FFE00000
(1523990293.442863) slcan0 7E2#0221020000000000
(1523990293.443307) slcan0 7E4#3010000000000000
(1523990293.443641) slcan0 7E2#3010000000000000
(1523990293.452536) slcan0 7EA#21092192A705E402
(1523990293.455297) slcan0 7EC#2100000000000D0D
(1523990293.462590) slcan0 7EA#2200000000906A34
(1523990293.465430) slcan0 7EC#220D0D0D0D0D2648
(1523990293.472600) slcan0 7EA#2306200000000000
(1523990293.475284) slcan0 7EC#2326480001500D0D
(1523990293.485556) slcan0 7EC#2403E85003E8273F
(1523990293.492848) slcan0 7E5#0221010000000000
(1523990293.496102) slcan0 7EC#2500290000000000
(1523990293.505398) slcan0 7ED#102C6101FFFFF800
(1523990293.505416) slcan0 7EC#2600000000000000
(1523990293.505978) slcan0 7E5#3010000000000000
(1523990293.517398) slcan0 7ED#2101029E02950410
(1523990293.526924) slcan0 7ED#22001476003400BD
(1523990293.535091) slcan0 7ED#2304FD4100000000
(1523990293.542947) slcan0 7E3#0221010000000000
(1523990293.548767) slcan0 7ED#2400260000720000
(1523990293.548786) slcan0 7EB#101E6101000003FF
(1523990293.554806) slcan0 7ED#25000001F43D5C03
(1523990293.555314) slcan0 7E3#3010000000000000
(1523990293.565186) slcan0 7ED#2640000000000000
(1523990293.568657) slcan0 7EB#21083800663D0A33
(1523990293.578437) slcan0 7EB#220000000A003702
(1523990293.588493) slcan0 7EB#235504E432000018
(1523990293.592859) slcan0 7D5#0221010000000000
(1523990293.598627) slcan0 7EB#2400E8FF00000000
(1523990293.616723) slcan0 7DD#101A6101FB180000
(1523990293.617163) slcan0 7D5#3010000000000000
(1523990293.642897) slcan0 7E4#0221010000000000
(1523990293.656882) slcan0 7EC#103D6101FFFFFFFF
(1523990293.656918) slcan0 7DD#21A60DFFF4FCFC02
(1523990293.657383) slcan0 7E4#3010000000000000
(1523990293.671194) slcan0 7EC#213E264826482000
(1523990293.676943) slcan0 7DD#22010202FFFFFFFF
(1523990293.681232) slcan0 7EC#22000D6F0D0D0D0D
(1523990293.691210) slcan0 7EC#230D0D0D000DB30D
(1523990293.693178) slcan0 7E4#0221050000000000
(1523990293.696965) slcan0 7DD#23000003C6000100
(1523990293.701233) slcan0 7EC#24B2270000810000
(1523990293.711271) slcan0 7EC#259D5600009DF800
(1523990293.726619) slcan0 7EC#260039E100003782
(1523990293.735517) slcan0 7EC#270013211009009B
(1523990293.742906) slcan0 7E2#0221010000000000
(1523990293.746204) slcan0 7EC#280000000003E800
(1523990293.752672) slcan0 7EA#10166101FFE00000
(1523990293.753267) slcan0 7E2#3010000000000000
(1523990293.762449) slcan0 7EC#102D6105FFFFFFFF
(1523990293.762469) slcan0 7EA#21092192A705E602
(1523990293.763020) slcan0 7E4#3010000000000000
(1523990293.772274) slcan0 7EA#22000000005B6A34
(1523990293.775677) slcan0 7EC#2100000000000D0D
(1523990293.782619) slcan0 7EA#2306200000000000
(1523990293.785407) slcan0 7EC#220D0D0D0D0D2648
(1523990293.792711) slcan0 7E2#0221020000000000
(1523990293.795973) slcan0 7EC#2326480001550D0D
(1523990293.802394) slcan0 7EA#10176102FF800000
(1523990293.802957) slcan0 7E2#3010000000000000
(1523990293.806228) slcan0 7EC#2403E85003E8273F
(1523990293.812512) slcan0 7EA#2101000000008200
(1523990293.818183) slcan0 7EC#2500290000000000
(1523990293.827362) slcan0 7EA#224D7ACF32000078
(1523990293.827382) slcan0 7EC#2600000000000000
(1523990293.832509) slcan0 7EA#233CFE3200000000
(1523990293.842758) slcan0 7E5#0221010000000000
(1523990293.854657) slcan0 7ED#102C6101FFFFF800
(1523990293.855087) slcan0 7E5#3010000000000000
(1523990293.864973) slcan0 7ED#210102A102970411
(1523990293.874750) slcan0 7ED#22001476003400BD
(1523990293.885245) slcan0 7ED#2304FB4100000000
(1523990293.892852) slcan0 7E3#0221010000000000
(1523990293.895855) slcan0 7ED#2400260000720000
(1523990293.899029) slcan0 7EB#101E6101000003FF
(1523990293.899499) slcan0 7E3#3010000000000000
(1523990293.905386) slcan0 7ED#25000001F43C5B03
(1523990293.908764) slcan0 7EB#21083800093CFC32
(1523990293.918771) slcan0 7ED#263C000000000000
(1523990293.918786) slcan0 7EB#220000000A003602
(1523990293.928745) slcan0 7EB#235504C632000000
(1523990293.939704) slcan0 7EB#2400000000000000
(1523990293.942628) slcan0 7D5#0221010000000000
(1523990293.966921) slcan0 7DD#101A6101FB180000
(1523990293.967328) slcan0 7D5#3010000000000000
(1523990293.992919) slcan0 7E4#0221010000000000
(1523990294.006905) slcan0 7EC#103D6101FFFFFFFF
(1523990294.006928) slcan0 7DD#21A50DFFF4FCFC02
(1523990294.007488) slcan0 7E4#3010000000000000
(1523990294.027507) slcan0 7EC#213E264826482000
(1523990294.027529) slcan0 7DD#22010202FFFFFFFF
(1523990294.035938) slcan0 7EC#22000D6F0D0D0D0D
(1523990294.042790) slcan0 7E4#0221050000000000
(1523990294.047241) slcan0 7EC#230D0D0D000DB326
(1523990294.047261) slcan0 7DD#23000003C6000100
(1523990294.055791) slcan0 7EC#24B2270000810000
(1523990294.066110) slcan0 7EC#259D5600009DF800
(1523990294.075801) slcan0 7EC#260039E100003782
(1523990294.085826) slcan0 7EC#2700132111090099
(1523990294.092609) slcan0 7E2#0221010000000000
(1523990294.096939) slcan0 7EC#280000000003E800
(1523990294.102628) slcan0 7EA#10166101FFE00000
(1523990294.103088) slcan0 7E2#3010000000000000
(1523990294.112324) slcan0 7EC#102D6105FFFFFFFF
(1523990294.112344) slcan0 7EA#21092192A705E402
(1523990294.112801) slcan0 7E4#3010000000000000
(1523990294.127552) slcan0 7EA#2200000000296A34
(1523990294.127572) slcan0 7EC#2100000000000D0D
(1523990294.132325) slcan0 7EA#2306200000000000
(1523990294.135974) slcan0 7EC#220D0D0D0D0D2648
(1523990294.142966) slcan0 7E2#0221020000000000
(1523990294.146267) slcan0 7EC#2326480001500D0D
(1523990294.152348) slcan0 7EA#10176102FF800000
(1523990294.152786) slcan0 7E2#3010000000000000
(1523990294.156272) slcan0 7EC#2403E85003E8273F
(1523990294.162266) slcan0 7EA#2101000000008200
(1523990294.165788) slcan0 7EC#2500290000000000
(1523990294.172549) slcan0 7EA#224C7ABC32000071
(1523990294.176069) slcan0 7EC#2600000000000000
(1523990294.182546) slcan0 7EA#233BF63200000000
(1523990294.192729) slcan0 7E5#0221010000000000
(1523990294.205290) slcan0 7ED#102C6101FFFFF800
(1523990294.205801) slcan0 7E5#3010000000000000
(1523990294.217399) slcan0 7ED#2101029B0293040F
(1523990294.227160) slcan0 7ED#22001476003400BD
(1523990294.235247) slcan0 7ED#2304F84100000000
(1523990294.242952) slcan0 7E3#0221010000000000
(1523990294.246315) slcan0 7ED#2400260000720000
(1523990294.252090) slcan0 7EB#101E6101000003FF
(1523990294.252626) slcan0 7E3#3010000000000000
(1523990294.255710) slcan0 7ED#25000001F43AF303
(1523990294.259320) slcan0 7EB#21083800F73ADA32
(1523990294.265201) slcan0 7ED#263B000000000000
(1523990294.269298) slcan0 7EB#220000000A003602
(1523990294.279093) slcan0 7EB#235304AE32000000
(1523990294.289134) slcan0 7EB#2400000000000000
(1523990294.292575) slcan0 7D5#0221010000000000
(1523990294.317244) slcan0 7DD#101A6101FB180000
(1523990294.317831) slcan0 7D5#3010000000000000
(1523990294.342746) slcan0 7E4#0221010000000000
(1523990294.357218) slcan0 7EC#103D6101FFFFFFFF
(1523990294.357239) slcan0 7DD#21A50DFFF4FCFC02
(1523990294.357773) slcan0 7E4#3010000000000000
(1523990294.371281) slcan0 7EC#213E264826482000
(1523990294.377573) slcan0 7DD#22010202FFFFFFFF
(1523990294.381259) slcan0 7EC#22000D6F0D0D0D0D
(1523990294.391367) slcan0 7EC#230D0D0D000DB326
(1523990294.393336) slcan0 7E4#0221050000000000
(1523990294.397504) slcan0 7DD#23000003C6000100
(1523990294.401191) slcan0 7EC#24B2270000800000
(1523990294.411268) slcan0 7EC#259D5600009DF800
(1523990294.427450) slcan0 7EC#260039E100003782
(1523990294.436337) slcan0 7EC#2700132111090095
(1523990294.442975) slcan0 7E2#0221010000000000
(1523990294.446699) slcan0 7EC#280000000003E800
(1523990294.452721) slcan0 7EA#10166101FFE00000
(1523990294.453270) slcan0 7E2#3010000000000000
(1523990294.462704) slcan0 7EC#102D6105FFFFFFFF
(1523990294.462725) slcan0 7EA#21092192A705E402
(1523990294.463291) slcan0 7E4#3010000000000000
(1523990294.472563) slcan0 7EA#2200000000F46934
(1523990294.476389) slcan0 7EC#2100000000000D0D
(1523990294.482651) slcan0 7EA#2306200000000000
(1523990294.486328) slcan0 7EC#220D0D0D0D0D2648
(1523990294.492689) slcan0 7E2#0221020000000000
(1523990294.496720) slcan0 7EC#2326480001550D0D
(1523990294.502436) slcan0 7EA#10176102FF800000
(1523990294.502875) slcan0 7E2#3010000000000000
(1523990294.506370) slcan0 7EC#2403E85003E8273F
(1523990294.512522) slcan0 7EA#2101000000008200
(1523990294.517777) slcan0 7EC#2500310000000000
(1523990294.527978) slcan0 7EA#224A7A9F3200000B
(1523990294.527997) slcan0 7EC#2600000000000000
(1523990294.532646) slcan0 7EA#233AD83200000000
(1523990294.542604) slcan0 7E5#0221010000000000
(1523990294.554974) slcan0 7ED#102C6101FFFFF800
(1523990294.555458) slcan0 7E5#3010000000000000
(1523990294.565129) slcan0 7ED#2101029E02950410
(1523990294.574858) slcan0 7ED#22001576003400BD
(1523990294.585058) slcan0 7ED#2304F64100000000
(1523990294.592723) slcan0 7E3#0221010000000000
(1523990294.596007) slcan0 7ED#2400260000720000
(1523990294.599469) slcan0 7EB#101E6101000003FF
(1523990294.599872) slcan0 7E3#3010000000000000
(1523990294.605335) slcan0 7ED#25000001F439F003
(1523990294.609579) slcan0 7EB#210838009E39C632
(1523990294.619503) slcan0 7ED#263A000000000000
(1523990294.619540) slcan0 7EB#220000000A003702
(1523990294.629697) slcan0 7EB#2355049532E8FF18
