(1523990505.733244) slcan0 7E4#0221010000000000
(1523990505.748521) slcan0 7EC#103D6101FFFFFFFF
(1523990505.748962) slcan0 7E4#3010000000000000
(1523990505.764410) slcan0 7EC#213E264826480300
(1523990505.775833) slcan0 7EC#22090D6E0D0D0D0D
(1523990505.783581) slcan0 7E4#0221020000000000
(1523990505.786597) slcan0 7EC#230D0D0D000EB301
(1523990505.797328) slcan0 7EC#24B2270000920000
(1523990505.804587) slcan0 7EC#259D5600009DF900
(1523990505.816908) slcan0 7EC#260039E100003782
(1523990505.824585) slcan0 7EC#27001321E40D0157
(1523990505.833821) slcan0 7E4#0221030000000000
(1523990505.840428) slcan0 7EC#280000000003E800
(1523990505.857273) slcan0 7EC#10266103FFFFFFFF
(1523990505.857796) slcan0 7E4#3010000000000000
(1523990505.868714) slcan0 7EC#21B3B3B3B3B3B3B2
(1523990505.878961) slcan0 7EC#22B3B3B3B3B3B3B3
(1523990505.883818) slcan0 7E4#0221040000000000
(1523990505.888967) slcan0 7EC#23B3B3B3B3B3B3B3
(1523990505.898972) slcan0 7EC#24B3B3B3B3B3B3B3
(1523990505.909024) slcan0 7EC#25B3B3B3B3000000
(1523990505.924504) slcan0 7EC#10266104FFFFFFFF
(1523990505.924971) slcan0 7E4#3010000000000000
(1523990505.933831) slcan0 7E4#0221050000000000
(1523990505.940409) slcan0 7EC#21B3B3B3B3B3B3B3
(1523990505.948760) slcan0 7EC#22B3B3B3B3B3B3B3
(1523990505.958992) slcan0 7EC#23B3B3B3B3B3B3B3
(1523990505.968949) slcan0 7EC#24B3B3B3B3B3B3B3
(1523990505.978963) slcan0 7EC#25B3B3B3B3000000
(1523990505.983793) slcan0 7E2#0221010000000000
(1523990505.997935) slcan0 7EA#10166101FFE00000
(1523990505.997972) slcan0 7EC#102D6105FFFFFFFF
(1523990505.998489) slcan0 7E2#3010000000000000
(1523990505.998952) slcan0 7E4#3010000000000000
(1523990506.005621) slcan0 7EA#2109215AA505E902
(1523990506.009080) slcan0 7EC#2100000000000D0D
(1523990506.018809) slcan0 7EA#22000000004E7834
(1523990506.018833) slcan0 7EC#220D0D0D0D0D2648
(1523990506.025646) slcan0 7EA#2304200000000000
(1523990506.028903) slcan0 7EC#23264800014B0D0D
(1523990506.033503) slcan0 7E2#0221020000000000
(1523990506.040138) slcan0 7EC#2403E85003E8273F
(1523990506.048893) slcan0 7EA#10176102FF800000
(1523990506.048908) slcan0 7EC#2500290000000000
(1523990506.049404) slcan0 7E2#3010000000000000
(1523990506.058923) slcan0 7EC#2600000000000000
(1523990506.065621) slcan0 7EA#2101010000009411
(1523990506.075797) slcan0 7EA#22AC7CE539E80663
(1523990506.083786) slcan0 7E5#0221010000000000
(1523990506.086766) slcan0 7EA#2386F73900000000
(1523990506.097344) slcan0 7ED#102C6101FFFFF800
(1523990506.097900) slcan0 7E5#3010000000000000
(1523990506.107153) slcan0 7ED#2100793F0293040B
(1523990506.117234) slcan0 7ED#22001377003401BD
(1523990506.127046) slcan0 7ED#2305B04100000000
(1523990506.133648) slcan0 7E3#0221010000000000
(1523990506.140212) slcan0 7ED#2400040000680017
(1523990506.147039) slcan0 7EB#101E6101000003FF
(1523990506.147060) slcan0 7ED#25000D01F4867B03
(1523990506.147548) slcan0 7E3#3010000000000000
(1523990506.157337) slcan0 7ED#263B001200000000
(1523990506.164805) slcan0 7EB#210C38005386063A
(1523990506.175946) slcan0 7EB#220000000A004102
(1523990506.183613) slcan0 7D5#0221010000000000
(1523990506.186872) slcan0 7EB#235404C539E8FFE8
(1523990506.197591) slcan0 7EB#24FF300000000000
(1523990506.214766) slcan0 7DD#101A6101FB180000
(1523990506.215227) slcan0 7D5#3010000000000000
(1523990506.233835) slcan0 7E4#0221010000000000
(1523990506.249102) slcan0 7EC#103D6101FFFFFFFF
(1523990506.249583) slcan0 7E4#3010000000000000
(1523990506.254656) slcan0 7DD#21BC0DFFF4FCFD02
(1523990506.264511) slcan0 7EC#213E264826480300
(1523990506.276470) slcan0 7DD#22010201FFFFFFFF
(1523990506.276492) slcan0 7EC#22090D6E0D0D0D0D
(1523990506.283828) slcan0 7E4#0221050000000000
(1523990506.286906) slcan0 7EC#230D0D0D000EB326
(1523990506.297585) slcan0 7DD#23000003C7000100
(1523990506.297600) slcan0 7EC#24B2270000920000
(1523990506.304311) slcan0 7EC#259D5600009DF900
(1523990506.316618) slcan0 7EC#260039E100003782
(1523990506.324366) slcan0 7EC#27001321E50D0157
(1523990506.333617) slcan0 7E2#0221010000000000
(1523990506.340485) slcan0 7EC#280000000003E800
(1523990506.346160) slcan0 7EA#10166101FFE00000
(1523990506.346690) slcan0 7E2#3010000000000000
(1523990506.357065) slcan0 7EC#102D6105FFFFFFFF
(1523990506.357585) slcan0 7E4#3010000000000000
(1523990506.365704) slcan0 7EA#2109215AAC05E602
(1523990506.369415) slcan0 7EC#2100000000000D0D
(1523990506.376214) slcan0 7EA#2200000000557834
(1523990506.379234) slcan0 7EC#220D0D0D0D0D2648
(1523990506.383734) slcan0 7E2#0221020000000000
(1523990506.389457) slcan0 7EA#2304200000000000
(1523990506.389477) slcan0 7EC#2326480001500D0D
(1523990506.399521) slcan0 7EA#10176102FF800000
(1523990506.399540) slcan0 7EC#2403E85003E8273F
(1523990506.409490) slcan0 7EC#2500290000000000
(1523990506.410016) slcan0 7E2#3010000000000000
(1523990506.419303) slcan0 7EC#2600000000000000
(1523990506.425789) slcan0 7EA#2101010000009413
(1523990506.433586) slcan0 7E5#0221010000000000
(1523990506.440459) slcan0 7EA#22AC7CEC39090763
(1523990506.447367) slcan0 7EA#23860B3A00000000
(1523990506.447387) slcan0 7ED#102C6101FFFFF800
(1523990506.483893) slcan0 7E3#0221010000000000
(1523990506.484326) slcan0 7E5#3010000000000000
(1523990506.497988) slcan0 7EB#101E6101000003FF
(1523990506.498009) slcan0 7ED#210079390294040A
(1523990506.498478) slcan0 7E3#3010000000000000
(1523990506.507016) slcan0 7EB#210C38005286F239
(1523990506.507040) slcan0 7ED#22001377003401BD
(1523990506.517584) slcan0 7EB#220000000A004002
(1523990506.517604) slcan0 7ED#2305B04100000000
(1523990506.527269) slcan0 7EB#235404B739300018
(1523990506.527289) slcan0 7ED#2400040000680017
(1523990506.533780) slcan0 7D5#0221010000000000
(1523990506.540884) slcan0 7EB#2400B7FF00000000
(1523990506.540905) slcan0 7ED#25000D01F4867803
(1523990506.547295) slcan0 7ED#2630001200000000
(1523990506.565002) slcan0 7DD#101A6101FB180000
(1523990506.583533) slcan0 7E4#0221010000000000
(1523990506.597672) slcan0 7EC#103D6101FFFFFFFF
(1523990506.633977) slcan0 7E4#0221050000000000
(1523990506.634360) slcan0 7D5#3010000000000000
(1523990506.634935) slcan0 7E4#3010000000000000
(1523990506.649481) slcan0 7EC#213E264826480300
(1523990506.659476) slcan0 7EC#22070D6E0D0D0D0D
(1523990506.669458) slcan0 7EC#230D0D0D000EB326
(1523990506.675076) slcan0 7DD#21BC0DFFF4FCFD02
(1523990506.679668) slcan0 7EC#24B2270000920000
(1523990506.683819) slcan0 7E2#0221010000000000
(1523990506.689805) slcan0 7EC#259D5600009DF900
(1523990506.699707) slcan0 7DD#22010201FFFFFFFF
(1523990506.699727) slcan0 7EA#10166101FFE00000
(1523990506.699734) slcan0 7EC#260039E100003782
(1523990506.709831) slcan0 7EC#27001321E50D0157
(1523990506.710420) slcan0 7E2#3010000000000000
(1523990506.715424) slcan0 7DD#23000003C7000100
(1523990506.719853) slcan0 7EC#280000000003E800
(1523990506.726532) slcan0 7EA#2109215AA505E402
(1523990506.733639) slcan0 7E2#0221020000000000
(1523990506.740506) slcan0 7EA#2200000000527834
(1523990506.746358) slcan0 7EA#10176102FF800000
(1523990506.746938) slcan0 7E2#3010000000000000
(1523990506.766463) slcan0 7EA#2101010000009515
(1523990506.776592) slcan0 7EA#22AC7C103A490861
(1523990506.783832) slcan0 7E5#0221010000000000
(1523990506.787103) slcan0 7EA#23861D3A00000000
(1523990506.797386) slcan0 7ED#102C6101FFFFF800
(1523990506.797781) slcan0 7E5#3010000000000000
(1523990506.807022) slcan0 7ED#2100792E0295040D
(1523990506.817044) slcan0 7ED#22001477003401BD
(1523990506.827330) slcan0 7ED#2305B14100000000
(1523990506.833742) slcan0 7E3#0221010000000000
(1523990506.840760) slcan0 7ED#2400050000680017
(1523990506.847964) slcan0 7EB#101E6101000003FF
(1523990506.847984) slcan0 7ED#25000D01F4867903
(1523990506.848474) slcan0 7E3#3010000000000000
(1523990506.857432) slcan0 7ED#2636001200000000
(1523990506.865372) slcan0 7EB#210C38005386143A
(1523990506.875383) slcan0 7EB#220000000A004202
(1523990506.883644) slcan0 7D5#0221010000000000
(1523990506.886653) slcan0 7EB#235304E339300030
(1523990506.895687) slcan0 7EB#24009FFF00000000
(1523990506.915032) slcan0 7DD#101A6101FB180000
(1523990506.915576) slcan0 7D5#3010000000000000
(1523990506.933834) slcan0 7E4#0221010000000000
(1523990506.949955) slcan0 7EC#103D6101FFFFFFFF
(1523990506.950482) slcan0 7E4#3010000000000000
(1523990506.955098) slcan0 7DD#21BC0DFFF4FCFD02
(1523990506.964800) slcan0 7EC#213E264826480300
(1523990506.975635) slcan0 7DD#22010201FFFFFFFF
(1523990506.975656) slcan0 7EC#22070D6E0D0D0D0D
(1523990506.983577) slcan0 7E4#0221050000000000
(1523990506.986841) slcan0 7EC#230D0D0D000EB302
(1523990506.995654) slcan0 7EC#24B2270000920000
(1523990506.995674) slcan0 7DD#23000003C7000100
(1523990507.005081) slcan0 7EC#259D5600009DF900
(1523990507.015015) slcan0 7EC#260039E100003782
(1523990507.025076) slcan0 7EC#27001321E50D0157
(1523990507.033826) slcan0 7E2#0221010000000000
(1523990507.040950) slcan0 7EC#280000000003E800
(1523990507.046825) slcan0 7EA#10166101FFE00000
(1523990507.047341) slcan0 7E2#3010000000000000
(1523990507.057264) slcan0 7EC#102D6105FFFFFFFF
(1523990507.057769) slcan0 7E4#3010000000000000
(1523990507.066836) slcan0 7EA#2109215AAA05E402
(1523990507.070103) slcan0 7EC#2100000000000D0D
(1523990507.076575) slcan0 7EA#22000000004D7834
(1523990507.080034) slcan0 7EC#220D0D0D0D0D2648
(1523990507.083739) slcan0 7E2#0221020000000000
(1523990507.090226) slcan0 7EA#2304200000000000
(1523990507.090248) slcan0 7EC#2326480001500D0D
(1523990507.100138) slcan0 7EA#10176102FF800000
(1523990507.100158) slcan0 7EC#2403E85003E8273F
(1523990507.109981) slcan0 7EC#2500290000000000
(1523990507.110486) slcan0 7E2#3010000000000000
(1523990507.120186) slcan0 7EC#2600000000000000
(1523990507.126643) slcan0 7EA#2101010000009413
(1523990507.133866) slcan0 7E5#0221010000000000
(1523990507.140977) slcan0 7EA#22AC7C013AAF0762
(1523990507.147322) slcan0 7EA#23860A3A00000000
(1523990507.147342) slcan0 7ED#102C6101FFFFF800
(1523990507.183599) slcan0 7E3#0221010000000000
(1523990507.183958) slcan0 7E5#3010000000000000
(1523990507.197956) slcan0 7EB#101E6101000003FF
(1523990507.197975) slcan0 7ED#210079260296040E
(1523990507.198436) slcan0 7E3#3010000000000000
(1523990507.207042) slcan0 7EB#210C38005286213A
(1523990507.207056) slcan0 7ED#22001477003401BD
(1523990507.217517) slcan0 7EB#220000000A004302
(1523990507.217540) slcan0 7ED#2305B04100000000
(1523990507.227083) slcan0 7EB#235204E339300049
(1523990507.227103) slcan0 7ED#2400050000680017
(1523990507.233881) slcan0 7D5#0221010000000000
(1523990507.241489) slcan0 7EB#240086FF00000000
(1523990507.241510) slcan0 7ED#25000D01F4867E03
(1523990507.247322) slcan0 7ED#263B001200000000
(1523990507.265113) slcan0 7DD#101A6101FB180000
(1523990507.283588) slcan0 7E4#0221010000000000
(1523990507.295387) slcan0 7EC#103D6101FFFFFFFF
(1523990507.333665) slcan0 7E4#0221050000000000
(1523990507.334096) slcan0 7D5#3010000000000000
(1523990507.334481) slcan0 7E4#3010000000000000
(1523990507.350227) slcan0 7EC#213E264826480300
(1523990507.360190) slcan0 7EC#22080D6E0D0D0D0D
(1523990507.370457) slcan0 7EC#230D0D0D000EB302
(1523990507.375392) slcan0 7DD#21BC0DFFF4FCFD02
(1523990507.380216) slcan0 7EC#24B2270000920000
(1523990507.383513) slcan0 7E2#0221010000000000
(1523990507.390199) slcan0 7EC#259D5600009DF900
(1523990507.400194) slcan0 7DD#22010202FFFFFFFF
(1523990507.400216) slcan0 7EA#10166101FFE00000
(1523990507.400220) slcan0 7EC#260039E100003782
(1523990507.410201) slcan0 7EC#27001321E60D0157
(1523990507.410665) slcan0 7E2#3010000000000000
(1523990507.415365) slcan0 7DD#23000003C7000100
(1523990507.420328) slcan0 7EC#280000000003E800
(1523990507.426057) slcan0 7EA#2109215AA205E402
(1523990507.433382) slcan0 7E2#0221020000000000
(1523990507.440890) slcan0 7EA#2200000000527834
(1523990507.446084) slcan0 7EA#10176102FF800000
(1523990507.446353) slcan0 7E2#3010000000000000
(1523990507.457642) slcan0 7EA#2101010000009413
(1523990507.465787) slcan0 7EA#22AC7CEA391D0763
(1523990507.476053) slcan0 7EA#2386073A00000000
(1523990507.483813) slcan0 7E5#0221010000000000
(1523990507.497913) slcan0 7ED#102C6101FFFFF800
(1523990507.498520) slcan0 7E5#3010000000000000
(1523990507.507052) slcan0 7ED#2100791C0293040C
(1523990507.517300) slcan0 7ED#22001477003401BD
(1523990507.527201) slcan0 7ED#2305B04100000000
(1523990507.533633) slcan0 7E3#0221010000000000
(1523990507.540948) slcan0 7ED#2400050000680017
(1523990507.547692) slcan0 7EB#101E6101000003FF
(1523990507.547713) slcan0 7ED#25000D01F4867B03
(1523990507.548217) slcan0 7E3#3010000000000000
(1523990507.557867) slcan0 7ED#2639001200000000
(1523990507.566951) slcan0 7EB#210C38005686F239
(1523990507.576913) slcan0 7EB#220000000A004202
(1523990507.583568) slcan0 7D5#0221010000000000
(1523990507.587061) slcan0 7EB#235304C039000018
(1523990507.598140) slcan0 7EB#2400E8FF00000000
(1523990507.615524) slcan0 7DD#101A6101FB180000
(1523990507.616009) slcan0 7D5#3010000000000000
(1523990507.633559) slcan0 7E4#0221010000000000
(1523990507.650530) slcan0 7EC#103D6101FFFFFFFF
(1523990507.651009) slcan0 7E4#3010000000000000
(1523990507.655545) slcan0 7DD#21BC0DFFF4FCFD02
(1523990507.665768) slcan0 7EC#213E264826480300
(1523990507.675807) slcan0 7DD#22010201FFFFFFFF
(1523990507.675830) slcan0 7EC#22080D6E0D0D0D0D
(1523990507.683684) slcan0 7E4#0221050000000000
(1523990507.686888) slcan0 7EC#230D0D0D000EB308
(1523990507.696141) slcan0 7EC#24B2270000920000
(1523990507.696161) slcan0 7DD#23000003C7000100
(1523990507.705806) slcan0 7EC#259D5600009DF900
(1523990507.715961) slcan0 7EC#260039E100003782
(1523990507.725567) slcan0 7EC#27001321E60D0157
(1523990507.733596) slcan0 7E2#0221010000000000
(1523990507.740882) slcan0 7EC#280000000003E800
(1523990507.745864) slcan0 7EA#10166101FFE00000
(1523990507.746396) slcan0 7E2#3010000000000000
(1523990507.757769) slcan0 7EA#2109215AA505E602
(1523990507.757789) slcan0 7EC#102D6105FFFFFFFF
(1523990507.766069) slcan0 7EA#2200000000557834
(1523990507.766573) slcan0 7E4#3010000000000000
(1523990507.775842) slcan0 7EA#2304200000000000
(1523990507.780636) slcan0 7EC#2100000000000D0D
(1523990507.783462) slcan0 7E2#0221020000000000
(1523990507.790639) slcan0 7EC#220D0D0D0D0D2648
(1523990507.800887) slcan0 7EA#10176102FF800000
(1523990507.800908) slcan0 7EC#2326480001500D0D
(1523990507.801363) slcan0 7E2#3010000000000000
(1523990507.810936) slcan0 7EC#2403E85003E8273F
(1523990507.816000) slcan0 7EA#2101010000009514
(1523990507.820917) slcan0 7EC#2500290000000000
(1523990507.826074) slcan0 7EA#22AC7C013A58076A
(1523990507.830651) slcan0 7EC#2600000000000000
(1523990507.833661) slcan0 7E5#0221010000000000
(1523990507.841059) slcan0 7EA#2386243A00000000
(1523990507.847360) slcan0 7ED#102C6101FFFFF800
(1523990507.847705) slcan0 7E5#3010000000000000
(1523990507.857599) slcan0 7ED#210079130293040C
(1523990507.867057) slcan0 7ED#22001377003401BD
(1523990507.877155) slcan0 7ED#2305B04100000000
(1523990507.883825) slcan0 7E3#0221010000000000
(1523990507.887545) slcan0 7ED#2400050000680017
(1523990507.898665) slcan0 7EB#101E6101000003FF
(1523990507.898685) slcan0 7ED#25000D01F4867B03
(1523990507.899134) slcan0 7E3#3010000000000000
(1523990507.907396) slcan0 7EB#210C38004C86F239
(1523990507.907418) slcan0 7ED#2633001200000000
(1523990507.917678) slcan0 7EB#220000000A004002
(1523990507.926431) slcan0 7EB#235304B739000030
(1523990507.933655) slcan0 7D5#0221010000000000
(1523990507.940779) slcan0 7EB#2400D0FF00000000
(1523990507.965700) slcan0 7DD#101A6101FB180000
(1523990507.966301) slcan0 7D5#3010000000000000
(1523990507.983816) slcan0 7E4#0221010000000000
(1523990507.998037) slcan0 7EC#103D6101FFFFFFFF
(1523990507.998583) slcan0 7E4#3010000000000000
(1523990508.005704) slcan0 7DD#21BC0DFFF4FCFD02
(1523990508.010935) slcan0 7EC#213E264826480300
(1523990508.020794) slcan0 7EC#22070D6E0D0D0D0D
(1523990508.025544) slcan0 7DD#22010202FFFFFFFF
(1523990508.030827) slcan0 7EC#230D0D0D000EB304
(1523990508.033555) slcan0 7E4#0221050000000000
(1523990508.041024) slcan0 7EC#24B2270000920000
(1523990508.045767) slcan0 7DD#23000003C7000100
(1523990508.050862) slcan0 7EC#259D5600009DF900
(1523990508.060879) slcan0 7EC#260039E100003782
(1523990508.070902) slcan0 7EC#27001321E60D0157
(1523990508.080915) slcan0 7EC#280000000003E800
(1523990508.083488) slcan0 7E2#0221010000000000
(1523990508.098910) slcan0 7EA#10166101FFE00000
(1523990508.098931) slcan0 7EC#102D6105FFFFFFFF
(1523990508.099419) slcan0 7E2#3010000000000000
(1523990508.099848) slcan0 7E4#3010000000000000
(1523990508.105917) slcan0 7EA#2109215AAA05E602
(1523990508.111257) slcan0 7EC#2100000000000D0D
(1523990508.116045) slcan0 7EA#2200000000507834
(1523990508.120928) slcan0 7EC#220D0D0D0D0D2648
(1523990508.126021) slcan0 7EA#2304200000000000
(1523990508.131164) slcan0 7EC#2326480001550D0D
(1523990508.133582) slcan0 7E2#0221020000000000
(1523990508.141056) slcan0 7EC#2403E85003E8273F
(1523990508.145853) slcan0 7EA#10176102FF800000
(1523990508.146362) slcan0 7E2#3010000000000000
(1523990508.158029) slcan0 7EA#2101010000009412
(1523990508.158050) slcan0 7EC#2500290000000000
(1523990508.166634) slcan0 7EA#22AC7C0A3A910763
(1523990508.166662) slcan0 7EC#2600000000000000
(1523990508.175791) slcan0 7EA#2386153A00000000
(1523990508.183826) slcan0 7E5#0221010000000000
(1523990508.198377) slcan0 7ED#102C6101FFFFF800
(1523990508.233824) slcan0 7E3#0221010000000000
(1523990508.234339) slcan0 7E5#3010000000000000
(1523990508.247665) slcan0 7EB#101E6101000003FF
(1523990508.247684) slcan0 7ED#210079090295040D
(1523990508.248201) slcan0 7E3#3010000000000000
(1523990508.257895) slcan0 7EB#210C38005986213A
(1523990508.257909) slcan0 7ED#22001477003401BD
(1523990508.267862) slcan0 7EB#220000000A004302
(1523990508.267883) slcan0 7ED#2305B04100000000
(1523990508.277731) slcan0 7EB#235204ED39180018
(1523990508.277757) slcan0 7ED#2400050000680017
(1523990508.283624) slcan0 7D5#0221010000000000
(1523990508.287929) slcan0 7EB#2400D0FF00000000
(1523990508.287950) slcan0 7ED#25000D01F4867703
(1523990508.298361) slcan0 7ED#263C001200000000
(1523990508.316120) slcan0 7DD#101A6101FB180000
(1523990508.333462) slcan0 7E4#0221010000000000
(1523990508.346500) slcan0 7EC#103D6101FFFFFFFF
(1523990508.383632) slcan0 7E4#0221050000000000
(1523990508.384067) slcan0 7D5#3010000000000000
(1523990508.384359) slcan0 7E4#3010000000000000
(1523990508.398070) slcan0 7EC#213E264826480300
(1523990508.406475) slcan0 7EC#22060D6E0D0D0D0D
(1523990508.416618) slcan0 7EC#230D0D0D000EB306
(1523990508.426752) slcan0 7DD#21BC0DFFF4FCFD02
(1523990508.426772) slcan0 7EC#24B2270000920000
(1523990508.433845) slcan0 7E2#0221010000000000
(1523990508.441360) slcan0 7EC#259D5600009DF900
(1523990508.446501) slcan0 7EA#10166101FFE00000
(1523990508.446521) slcan0 7DD#22010201FFFFFFFF
(1523990508.447001) slcan0 7E2#3010000000000000
(1523990508.456625) slcan0 7EC#260039E100003782
(1523990508.466754) slcan0 7DD#23000003C7000100
(1523990508.466774) slcan0 7EA#2109215AAC05E602
(1523990508.466779) slcan0 7EC#27001321E70D0157
(1523990508.476619) slcan0 7EA#2200000000527834
(1523990508.476656) slcan0 7EC#280000000003E800
(1523990508.483787) slcan0 7E2#0221020000000000
(1523990508.486812) slcan0 7EA#2304200000000000
(1523990508.498099) slcan0 7EA#10176102FF800000
(1523990508.533828) slcan0 7E5#0221010000000000
(1523990508.547750) slcan0 7ED#102C6101FFFFF800
(1523990508.548262) slcan0 7E2#3010000000000000
(1523990508.548725) slcan0 7E5#3010000000000000
(1523990508.567679) slcan0 7EA#2101010000009411
(1523990508.567704) slcan0 7ED#210079000297040F
(1523990508.577701) slcan0 7EA#22AC7CE939B4066B
(1523990508.577721) slcan0 7ED#22001477003401BD
(1523990508.583872) slcan0 7E3#0221010000000000
(1523990508.588092) slcan0 7EA#23860A3A00000000
(1523990508.588112) slcan0 7ED#2305B04100000000
(1523990508.598883) slcan0 7EB#101E6101000003FF
(1523990508.598906) slcan0 7ED#2400050000680017
(1523990508.607737) slcan0 7ED#25000D01F4867603
(1523990508.618444) slcan0 7ED#263C001200000000
(1523990508.619000) slcan0 7E3#3010000000000000
(1523990508.627210) slcan0 7EB#210C38005786213A
(1523990508.633621) slcan0 7D5#0221010000000000
(1523990508.640868) slcan0 7EB#220000000A004102
(1523990508.647037) slcan0 7EB#235404F239300030
(1523990508.657316) slcan0 7EB#24009FFF00000000
(1523990508.666178) slcan0 7DD#101A6101FB180000
(1523990508.683665) slcan0 7E4#0221010000000000
(1523990508.684126) slcan0 7D5#3010000000000000
(1523990508.698824) slcan0 7EC#103D6101FFFFFFFF
(1523990508.699365) slcan0 7E4#3010000000000000
(1523990508.711499) slcan0 7EC#213E264826480300
(1523990508.721846) slcan0 7EC#22080D6E0D0D0D0D
(1523990508.726183) slcan0 7DD#21BD0DFFF4FCFD02
(1523990508.731795) slcan0 7EC#230D0D0D000EB307
(1523990508.733455) slcan0 7E4#0221050000000000
(1523990508.741863) slcan0 7EC#24B2270000910000
(1523990508.746467) slcan0 7DD#22010201FFFFFFFF
(1523990508.756946) slcan0 7EC#259D5600009DF900
(1523990508.766902) slcan0 7DD#23000003C7000100
(1523990508.766922) slcan0 7EC#260039E100003782
(1523990508.776599) slcan0 7EC#27001321E70D0157
(1523990508.783635) slcan0 7E2#0221010000000000
(1523990508.787109) slcan0 7EC#280000000003E800
(1523990508.798333) slcan0 7EA#10166101FFE00000
(1523990508.798893) slcan0 7E2#3010000000000000
(1523990508.802399) slcan0 7EC#102D6105FFFFFFFF
(1523990508.802948) slcan0 7E4#3010000000000000
(1523990508.806429) slcan0 7EA#2109215AAC05E902
(1523990508.816957) slcan0 7EA#22000000005B7834
(1523990508.816978) slcan0 7EC#2100000000000D0D
(1523990508.826981) slcan0 7EA#2304200000000000
(1523990508.827003) slcan0 7EC#220D0D0D0D0D2648
(1523990508.833839) slcan0 7E2#0221020000000000
(1523990508.841007) slcan0 7EC#23264800014B0D0D
(1523990508.847220) slcan0 7EA#10176102FF800000
(1523990508.847240) slcan0 7EC#2403E85003E8273F
(1523990508.856740) slcan0 7EC#2500290000000000
(1523990508.857189) slcan0 7E2#3010000000000000
(1523990508.867037) slcan0 7EA#2101010000009512
(1523990508.867057) slcan0 7EC#2600000000000000
(1523990508.876006) slcan0 7EA#22AC7CF639B60666
(1523990508.883869) slcan0 7E5#0221010000000000
(1523990508.886902) slcan0 7EA#23861B3A00000000
(1523990508.898361) slcan0 7ED#102C6101FFFFF800
(1523990508.933602) slcan0 7E3#0221010000000000
(1523990508.933994) slcan0 7E5#3010000000000000
(1523990508.947741) slcan0 7ED#210078F80297040E
(1523990508.947777) slcan0 7EB#101E6101000003FF
(1523990508.957044) slcan0 7ED#22001377003401BD
(1523990508.957548) slcan0 7E3#3010000000000000
(1523990508.967813) slcan0 7ED#2305B14100000000
(1523990508.967833) slcan0 7EB#210C38005486063A
(1523990508.977754) slcan0 7ED#2400050000680017
(1523990508.977775) slcan0 7EB#220000000A003D02
(1523990508.983818) slcan0 7D5#0221010000000000
(1523990508.987729) slcan0 7ED#25000D01F4867803
(1523990508.987753) slcan0 7EB#235304CA39300030
(1523990508.998923) slcan0 7EB#24009FFF00000000
(1523990508.998944) slcan0 7ED#262F001200000000
(1523990509.016136) slcan0 7DD#101A6101FB180000
(1523990509.033856) slcan0 7E4#0221010000000000
(1523990509.047062) slcan0 7EC#103D6101FFFFFFFF
(1523990509.083905) slcan0 7E4#0221050000000000
(1523990509.084409) slcan0 7D5#3010000000000000
(1523990509.084740) slcan0 7E4#3010000000000000
(1523990509.097319) slcan0 7EC#213E264826480300
(1523990509.106867) slcan0 7EC#22080D6E0D0D0D0D
(1523990509.117244) slcan0 7EC#230D0D0D000EB302
(1523990509.127207) slcan0 7DD#21BC0DFFF4FCFD02
(1523990509.127244) slcan0 7EC#24B2270000920000
(1523990509.133802) slcan0 7E2#0221010000000000
(1523990509.141199) slcan0 7EC#259D5600009DF900
(1523990509.147191) slcan0 7EA#10166101FFE00000
(1523990509.147229) slcan0 7DD#22010201FFFFFFFF
(1523990509.147233) slcan0 7EC#260039E100003782
(1523990509.147759) slcan0 7E2#3010000000000000
(1523990509.156979) slcan0 7EC#27001321E70D0157
(1523990509.167205) slcan0 7EA#2109215AA705E402
(1523990509.167227) slcan0 7DD#23000003C7000100
(1523990509.167231) slcan0 7EC#280000000003E800
(1523990509.176370) slcan0 7EA#22000000005A7834
(1523990509.183905) slcan0 7E2#0221020000000000
(1523990509.186956) slcan0 7EA#2304200000000000
(1523990509.197404) slcan0 7EA#10176102FF800000
(1523990509.233812) slcan0 7E5#0221010000000000
(1523990509.247245) slcan0 7ED#102C6101FFFFF800
(1523990509.247855) slcan0 7E2#3010000000000000
(1523990509.248359) slcan0 7E5#3010000000000000
(1523990509.267071) slcan0 7EA#2101010000009513
(1523990509.267094) slcan0 7ED#210078EE0295040E
(1523990509.277079) slcan0 7EA#22AC7C0B3A3B076E
(1523990509.277104) slcan0 7ED#22001477003401BD
(1523990509.283822) slcan0 7E3#0221010000000000
(1523990509.287300) slcan0 7EA#2386203A00000000
(1523990509.287333) slcan0 7ED#2305B14100000000
(1523990509.298037) slcan0 7ED#2400050000680017
(1523990509.298060) slcan0 7EB#101E6101000003FF
(1523990509.307079) slcan0 7ED#25000D01F4867803
(1523990509.317088) slcan0 7ED#2630001200000000
(1523990509.333684) slcan0 7D5#0221010000000000
(1523990509.334095) slcan0 7E3#3010000000000000
(1523990509.347884) slcan0 7EB#210C38005986F239
(1523990509.357882) slcan0 7EB#220000000A004002
(1523990509.367891) slcan0 7DD#101A6101FB180000
(1523990509.367913) slcan0 7EB#235204BB39610092
(1523990509.377685) slcan0 7EB#24000CFF00000000
(1523990509.378448) slcan0 7D5#3010000000000000
(1523990509.383678) slcan0 7E4#0221010000000000
(1523990509.397417) slcan0 7EC#103D6101FFFFFFFF
(1523990509.397867) slcan0 7E4#3010000000000000
(1523990509.413142) slcan0 7EC#213E264826480300
(1523990509.416379) slcan0 7DD#21BC0DFFF4FCFD02
(1523990509.423008) slcan0 7EC#22060D6E0D0D0D0D
(1523990509.433236) slcan0 7EC#230D0D0D000EB302
(1523990509.433704) slcan0 7E4#0221050000000000
(1523990509.436843) slcan0 7DD#22010202FFFFFFFF
(1523990509.445921) slcan0 7EC#24B2270000920000
(1523990509.457185) slcan0 7DD#23000003C7000100
(1523990509.457205) slcan0 7EC#259D5600009DF900
(1523990509.463491) slcan0 7EC#260039E100003782
(1523990509.473444) slcan0 7EC#27001321E80D0157
(1523990509.483036) slcan0 7EC#280000000003E800
(1523990509.483534) slcan0 7E2#0221010000000000
(1523990509.497808) slcan0 7EA#10166101FFE00000
(1523990509.497829) slcan0 7EC#102D6105FFFFFFFF
(1523990509.498337) slcan0 7E2#3010000000000000
(1523990509.498670) slcan0 7E4#3010000000000000
(1523990509.505854) slcan0 7EA#2109215AAC05E602
(1523990509.513491) slcan0 7EC#2100000000000D0D
(1523990509.516595) slcan0 7EA#2200000000537834
(1523990509.523256) slcan0 7EC#220D0D0D0D0D2648
(1523990509.526186) slcan0 7EA#2304200000000000
(1523990509.533194) slcan0 7EC#23264800014B0D0D
(1523990509.533653) slcan0 7E2#0221020000000000
(1523990509.546214) slcan0 7EC#2403E85003E8273F
(1523990509.546240) slcan0 7EA#10176102FF800000
(1523990509.556752) slcan0 7EC#2500290000000000
(1523990509.557297) slcan0 7E2#3010000000000000
(1523990509.565968) slcan0 7EC#2600000000000000
(1523990509.565988) slcan0 7EA#2101010000009410
(1523990509.576095) slcan0 7EA#22AC7CF039AA0668
(1523990509.583654) slcan0 7E5#0221010000000000
(1523990509.586839) slcan0 7EA#2386003A00000000
(1523990509.597252) slcan0 7ED#102C6101FFFFF800
(1523990509.597589) slcan0 7E5#3010000000000000
(1523990509.607108) slcan0 7ED#210078E40297040D
(1523990509.617409) slcan0 7ED#22001477003401BD
(1523990509.627208) slcan0 7ED#2305B14100000000
(1523990509.633856) slcan0 7E3#0221010000000000
(1523990509.641464) slcan0 7ED#2400050000680017
(1523990509.648205) slcan0 7ED#25000D01F4867A03
(1523990509.648225) slcan0 7EB#101E6101000003FF
(1523990509.657353) slcan0 7ED#263D001200000000
(1523990509.657876) slcan0 7E3#3010000000000000
(1523990509.667903) slcan0 7EB#210C38005586213A
(1523990509.677978) slcan0 7EB#220000000A004002
(1523990509.683672) slcan0 7D5#0221010000000000
(1523990509.687890) slcan0 7EB#235204E339180030
(1523990509.698199) slcan0 7EB#2400B7FF00000000
(1523990509.716805) slcan0 7DD#101A6101FB180000
(1523990509.717323) slcan0 7D5#3010000000000000
(1523990509.733836) slcan0 7E4#0221010000000000
(1523990509.747597) slcan0 7EC#103D6101FFFFFFFF
(1523990509.747990) slcan0 7E4#3010000000000000
(1523990509.756818) slcan0 7DD#21BC0DFFF4FCFD02
(1523990509.763355) slcan0 7EC#213E264826480300
(1523990509.773491) slcan0 7EC#22060D6E0D0D0D0D
(1523990509.776798) slcan0 7DD#22010201FFFFFFFF
(1523990509.783269) slcan0 7EC#230D0D0D000EB302
(1523990509.783788) slcan0 7E4#0221050000000000
(1523990509.793378) slcan0 7EC#24B3270000920000
(1523990509.797019) slcan0 7DD#23000003C7000100
(1523990509.803329) slcan0 7EC#259D5600009DF900
(1523990509.813269) slcan0 7EC#260039E100003782
(1523990509.823041) slcan0 7EC#27001321E80D0157
(1523990509.833346) slcan0 7EC#280000000003E800
(1523990509.833882) slcan0 7E2#0221010000000000
(1523990509.847655) slcan0 7EA#10166101FFE00000
(1523990509.847673) slcan0 7EC#102D6105FFFFFFFF
(1523990509.848093) slcan0 7E2#3010000000000000
(1523990509.848424) slcan0 7E4#3010000000000000
(1523990509.866186) slcan0 7EC#2100000000000D0D
(1523990509.866207) slcan0 7EA#2109215AAC05E902
(1523990509.873488) slcan0 7EC#220D0D0D0D0D2648
(1523990509.876255) slcan0 7EA#2200000000587834
(1523990509.883311) slcan0 7EC#23264800014B0D0D
(1523990509.883809) slcan0 7E2#0221020000000000
(1523990509.886900) slcan0 7EA#2304200000000000
(1523990509.893535) slcan0 7EC#2403E85003E8273F
(1523990509.897324) slcan0 7EA#10176102FF800000
(1523990509.897778) slcan0 7E2#3010000000000000
(1523990509.905963) slcan0 7EC#2500290000000000
(1523990509.905977) slcan0 7EA#2101010000009410
(1523990509.913323) slcan0 7EC#2600000000000000
(1523990509.916492) slcan0 7EA#22AC7CE6393A0667
(1523990509.926073) slcan0 7EA#2386FD3900000000
(1523990509.933588) slcan0 7E5#0221010000000000
(1523990509.947422) slcan0 7ED#102C6101FFFFF800
(1523990509.947891) slcan0 7E5#3010000000000000
(1523990509.957027) slcan0 7ED#210078D80293040C
(1523990509.967079) slcan0 7ED#22001377003401BD
(1523990509.977339) slcan0 7ED#2305B14100000000
(1523990509.983841) slcan0 7E3#0221010000000000
(1523990509.987487) slcan0 7ED#2400040000680017
(1523990509.998492) slcan0 7ED#25000D01F4867603
(1523990509.998512) slcan0 7EB#101E6101000003FF
(1523990510.007361) slcan0 7ED#262D001200000000
(1523990510.007888) slcan0 7E3#3010000000000000
(1523990510.018203) slcan0 7EB#210C38005186283A
(1523990510.028188) slcan0 7EB#220000000A004002
(1523990510.033621) slcan0 7D5#0221010000000000
(1523990510.041585) slcan0 7EB#235204ED39490030
(1523990510.048338) slcan0 7EB#240086FF00000000
(1523990510.066671) slcan0 7DD#101A6101FB180000
(1523990510.067147) slcan0 7D5#3010000000000000
(1523990510.083699) slcan0 7E4#0221010000000000
(1523990510.098253) slcan0 7EC#103D6101FFFFFFFF
(1523990510.098803) slcan0 7E4#3010000000000000
(1523990510.106875) slcan0 7DD#21BD0DFFF4FCFD02
(1523990510.113406) slcan0 7EC#213E264826480300
(1523990510.123182) slcan0 7EC#22070D6E0D0D0D0D
(1523990510.126831) slcan0 7DD#22010201FFFFFFFF
(1523990510.133342) slcan0 7EC#230D0D0D000EB30D
(1523990510.133885) slcan0 7E4#0221050000000000
(1523990510.147228) slcan0 7EC#24B2270000920000
(1523990510.147269) slcan0 7DD#23000003C7000100
(1523990510.157111) slcan0 7EC#259D5600009DF900
(1523990510.163239) slcan0 7EC#260039E100003782
(1523990510.173308) slcan0 7EC#27001321E80D0157
(1523990510.183089) slcan0 7EC#280000000003E800
(1523990510.183633) slcan0 7E2#0221010000000000
(1523990510.198168) slcan0 7EA#10166101FFE00000
(1523990510.198191) slcan0 7EC#102D6105FFFFFFFF
(1523990510.198802) slcan0 7E2#3010000000000000
(1523990510.199249) slcan0 7E4#3010000000000000
(1523990510.206129) slcan0 7EA#2109215AAF05E902
(1523990510.213343) slcan0 7EC#2100000000000D0D
(1523990510.216598) slcan0 7EA#22000000005F7834
(1523990510.223086) slcan0 7EC#220D0D0D0D0D2648
(1523990510.226435) slcan0 7EA#2304200000000000
(1523990510.233389) slcan0 7EC#2326480001550D0D
(1523990510.233860) slcan0 7E2#0221020000000000
(1523990510.246617) slcan0 7EA#10176102FF800000
(1523990510.246636) slcan0 7EC#2403E85003E8273F
(1523990510.247124) slcan0 7E2#3010000000000000
(1523990510.256534) slcan0 7EC#2500290000000000
(1523990510.263321) slcan0 7EC#2600000000000000
(1523990510.266191) slcan0 7EA#2101010000009513
(1523990510.276129) slcan0 7EA#22AC7C0B3A090768
(1523990510.283857) slcan0 7E5#0221010000000000
(1523990510.287171) slcan0 7EA#23861F3A00000000
(1523990510.297318) slcan0 7ED#102C6101FFFFF800
(1523990510.297709) slcan0 7E5#3010000000000000
(1523990510.307320) slcan0 7ED#210078D70299040F
(1523990510.317312) slcan0 7ED#2200147700340080
(1523990510.327128) slcan0 7ED#2305B14100000000
(1523990510.333822) slcan0 7E3#0221010000000000
(1523990510.348533) slcan0 7ED#2400050000680017
(1523990510.348556) slcan0 7ED#25000D01F4867E03
(1523990510.348561) slcan0 7EB#101E6101000003FF
(1523990510.357401) slcan0 7ED#2648001200000000
(1523990510.383800) slcan0 7D5#0221010000000000
(1523990510.384214) slcan0 7E3#3010000000000000
(1523990510.399568) slcan0 7EB#210C38005086FF39
(1523990510.408756) slcan0 7EB#220000000A004002
(1523990510.418596) slcan0 7DD#101A6101FB180000
(1523990510.418643) slcan0 7EB#235704C5397A0092
(1523990510.419350) slcan0 7D5#3010000000000000
(1523990510.428581) slcan0 7EB#2400F4FE00000000
(1523990510.433557) slcan0 7E4#0221010000000000
(1523990510.448307) slcan0 7EC#103D6101FFFFFFFF
(1523990510.448742) slcan0 7E4#3010000000000000
(1523990510.456935) slcan0 7DD#21BC0DFFF4FCFD02
(1523990510.463325) slcan0 7EC#213E264826480300
(1523990510.473415) slcan0 7EC#22080D6E0D0D0D0D
(1523990510.477208) slcan0 7DD#22010202FFFFFFFF
(1523990510.483279) slcan0 7EC#230D0D0D000EB302
(1523990510.483741) slcan0 7E4#0221050000000000
(1523990510.493404) slcan0 7EC#24B2270000920000
(1523990510.497763) slcan0 7DD#23000003C7000100
(1523990510.503567) slcan0 7EC#259D5600009DF900
(1523990510.513565) slcan0 7EC#260039E100003782
(1523990510.523641) slcan0 7EC#27001321E90D0157
(1523990510.533385) slcan0 7EC#280000000003E800
(1523990510.533650) slcan0 7E2#0221010000000000
(1523990510.548643) slcan0 7EA#10166101FFE00000
(1523990510.548679) slcan0 7EC#102D6105FFFFFFFF
(1523990510.549146) slcan0 7E2#3010000000000000
(1523990510.549578) slcan0 7E4#3010000000000000
(1523990510.566027) slcan0 7EC#2100000000000D0D
(1523990510.566048) slcan0 7EA#2109215AA705E602
(1523990510.576374) slcan0 7EC#220D0D0D0D0D2648
(1523990510.576395) slcan0 7EA#22000000005A7834
(1523990510.583759) slcan0 7E2#0221020000000000
(1523990510.586992) slcan0 7EC#2326480001500D0D
(1523990510.587014) slcan0 7EA#2304200000000000
(1523990510.593441) slcan0 7EC#2403E85003E8273F
(1523990510.597169) slcan0 7EA#10176102FF800000
(1523990510.603739) slcan0 7EC#2500290000000000
(1523990510.613768) slcan0 7EC#2600000000000000
(1523990510.614388) slcan0 7E2#3010000000000000
(1523990510.626426) slcan0 7EA#2101010000009513
(1523990510.633677) slcan0 7E5#0221010000000000
(1523990510.636720) slcan0 7EA#22AC7C103A7B076B
(1523990510.647204) slcan0 7EA#2386243A00000000
(1523990510.647226) slcan0 7ED#102C6101FFFFF800
(1523990510.683712) slcan0 7E3#0221010000000000
(1523990510.684152) slcan0 7E5#3010000000000000
(1523990510.689675) slcan0 7EB#101E6101000003FF
(1523990510.690219) slcan0 7E3#3010000000000000
(1523990510.698971) slcan0 7ED#210078CE0297040F
(1523990510.698992) slcan0 7EB#210C38005986EB39
(1523990510.709086) slcan0 7ED#2200147700340075
(1523990510.709107) slcan0 7EB#220000000A004002
(1523990510.717075) slcan0 7ED#2305B14100000000
(1523990510.720225) slcan0 7EB#235204C039180030
(1523990510.729123) slcan0 7ED#24002A0000620000
(1523990510.729145) slcan0 7EB#2400B7FF00000000
(1523990510.733589) slcan0 7D5#0221010000000000
(1523990510.747423) slcan0 7ED#25000001F4868503
(1523990510.747445) slcan0 7ED#2628000000000000
(1523990510.767433) slcan0 7DD#101A6101FB180000
(1523990510.783620) slcan0 7E4#0221010000000000
(1523990510.795003) slcan0 7EC#103D6101FFFFFFFF
(1523990510.833648) slcan0 7E4#0221050000000000
(1523990510.834067) slcan0 7D5#3010000000000000
(1523990510.834450) slcan0 7E4#3010000000000000
(1523990510.856811) slcan0 7EC#213E264826480300
(1523990510.864868) slcan0 7EC#22060D6E0D0D0D0D
(1523990510.877355) slcan0 7EC#230D0D0D000EB326
(1523990510.877376) slcan0 7DD#21BC0DFFF4FCFD02
(1523990510.883815) slcan0 7E2#0221010000000000
(1523990510.887001) slcan0 7EC#24B2270000920000
(1523990510.897702) slcan0 7EC#259D5600009DF900
(1523990510.897723) slcan0 7EA#10166101FFE00000
(1523990510.897726) slcan0 7DD#22010202FFFFFFFF
(1523990510.905084) slcan0 7EC#260039E100003782
(1523990510.905602) slcan0 7E2#3010000000000000
(1523990510.917447) slcan0 7EC#27001321E90D0158
(1523990510.917472) slcan0 7EA#2109215AAC05E402
(1523990510.917477) slcan0 7DD#23000003C7000100
(1523990510.926432) slcan0 7EC#280000000003E800
(1523990510.926454) slcan0 7EA#2200000000577834
(1523990510.933886) slcan0 7E2#0221020000000000
(1523990510.937162) slcan0 7EA#2304200000000000
(1523990510.957060) slcan0 7EA#10176102FF800000
(1523990510.983634) slcan0 7E5#0221010000000000
(1523990510.997466) slcan0 7ED#102C6101FFFFF800
(1523990511.033640) slcan0 7E3#0221010000000000
(1523990511.034059) slcan0 7E2#3010000000000000
(1523990511.034906) slcan0 7E5#3010000000000000
(1523990511.049401) slcan0 7EB#101E6101000003FF
(1523990511.049838) slcan0 7E3#3010000000000000
(1523990511.059310) slcan0 7EA#2101010000009410
(1523990511.059330) slcan0 7ED#210078C30295040D
(1523990511.059334) slcan0 7EB#210C38005D86143A
(1523990511.069332) slcan0 7EA#22AC7CE6394E0664
(1523990511.069353) slcan0 7ED#2200147700340074
(1523990511.069356) slcan0 7EB#220000000A004102
(1523990511.079138) slcan0 7EA#2386023A00000000
(1523990511.079162) slcan0 7ED#2305B14100000000
(1523990511.079167) slcan0 7EB#235304E839D0FFE8
(1523990511.083848) slcan0 7D5#0221010000000000
(1523990511.089164) slcan0 7ED#24002A0000720000
(1523990511.089189) slcan0 7EB#24FF490000000000
(1523990511.097378) slcan0 7ED#25000001F4868003
(1523990511.107350) slcan0 7ED#2631000000000000
(1523990511.117619) slcan0 7DD#101A6101FB180000
(1523990511.133682) slcan0 7E4#0221010000000000
(1523990511.157508) slcan0 7EC#103D6101FFFFFFFF
(1523990511.183830) slcan0 7E4#0221050000000000
(1523990511.233656) slcan0 7E2#0221010000000000
(1523990511.256818) slcan0 7EA#10166101FFE00000
(1523990511.283761) slcan0 7E2#0221020000000000
(1523990511.284125) slcan0 7D5#3010000000000000
(1523990511.284507) slcan0 7E4#3010000000000000
(1523990511.284886) slcan0 7E2#3010000000000000
(1523990511.297278) slcan0 7EA#21092112AA05E902
(1523990511.306416) slcan0 7EA#22000000005D7834
(1523990511.316469) slcan0 7EA#2306200000000000
(1523990511.333544) slcan0 7E5#0221010000000000
(1523990511.347241) slcan0 7ED#102C6101FFFFF800
(1523990511.347738) slcan0 7E5#3010000000000000
(1523990511.357371) slcan0 7ED#210078BC0298040F
(1523990511.367239) slcan0 7ED#2200147700340074
(1523990511.377104) slcan0 7ED#2305AF4100000000
(1523990511.383592) slcan0 7E3#0221010000000000
(1523990511.389619) slcan0 7ED#24002B0000720000
(1523990511.389641) slcan0 7EB#101E6101000003FF
(1523990511.397315) slcan0 7ED#25000001F4868403
(1523990511.397802) slcan0 7E3#3010000000000000
(1523990511.409496) slcan0 7ED#2630000000000000
(1523990511.409516) slcan0 7EB#210C3800666F2F3A
(1523990511.419706) slcan0 7EB#220000000A004102
(1523990511.429416) slcan0 7EB#235404F239000000
(1523990511.433788) slcan0 7D5#0221010000000000
(1523990511.447099) slcan0 7EB#2400000000000000
(1523990511.467515) slcan0 7DD#101A6101FB180000
(1523990511.467972) slcan0 7D5#3010000000000000
(1523990511.483423) slcan0 7E4#0221010000000000
(1523990511.494999) slcan0 7EC#103D6101FFFFFFFF
(1523990511.495580) slcan0 7E4#3010000000000000
(1523990511.509421) slcan0 7DD#21B80DFFF4FCFC02
(1523990511.509440) slcan0 7EC#213E264826482000
(1523990511.520473) slcan0 7EC#22030D6E0D0D0D0D
(1523990511.529668) slcan0 7DD#22010202FFFFFFFF
(1523990511.529698) slcan0 7EC#230D0D0D000EB323
(1523990511.533886) slcan0 7E4#0221050000000000
(1523990511.547959) slcan0 7EC#24B2270000900000
(1523990511.547982) slcan0 7DD#23000003C7000100
(1523990511.556848) slcan0 7EC#259D5600009DF900
(1523990511.565079) slcan0 7EC#260039E100003782
(1523990511.575242) slcan0 7EC#27001321EA0D00E4
(1523990511.583650) slcan0 7E2#0221010000000000
(1523990511.586712) slcan0 7EC#280000000003E800
(1523990511.599511) slcan0 7EA#10166101FFE00000
(1523990511.599532) slcan0 7EC#102D6105FFFFFFFF
(1523990511.633859) slcan0 7E2#0221020000000000
(1523990511.634332) slcan0 7E2#3010000000000000
(1523990511.634724) slcan0 7E4#3010000000000000
(1523990511.657184) slcan0 7EA#21092192A705E102
(1523990511.657201) slcan0 7EC#2100000000000D0D
(1523990511.666139) slcan0 7EC#220D0D0D0D0D2648
(1523990511.666152) slcan0 7EA#2200000000707734
(1523990511.676345) slcan0 7EC#2326480001500D0D
(1523990511.676365) slcan0 7EA#2306200000000000
(1523990511.683899) slcan0 7E5#0221010000000000
(1523990511.687043) slcan0 7EC#2403E85003E8273F
(1523990511.697286) slcan0 7EC#2500310000000000
(1523990511.697308) slcan0 7ED#102C6101FFFFF800
(1523990511.705060) slcan0 7EC#2600000000000000
(1523990511.733691) slcan0 7E3#0221010000000000
(1523990511.747351) slcan0 7EB#101E6101000003FF
(1523990511.747905) slcan0 7E5#3010000000000000
(1523990511.757353) slcan0 7ED#210078B00295040E
(1523990511.757880) slcan0 7E3#3010000000000000
(1523990511.769699) slcan0 7ED#2200147700340075
(1523990511.769719) slcan0 7EB#210838005A521B36
(1523990511.779710) slcan0 7ED#23054A4100000000
(1523990511.779746) slcan0 7EB#220000000A003502
(1523990511.783757) slcan0 7D5#0221010000000000
(1523990511.789781) slcan0 7ED#24002A0000720000
(1523990511.789803) slcan0 7EB#235304D035E8FF18
(1523990511.800046) slcan0 7ED#25000001F4524E03
(1523990511.800067) slcan0 7EB#2400000000000000
(1523990511.807154) slcan0 7ED#2635000000000000
(1523990511.817998) slcan0 7DD#101A6101FB180000
(1523990511.833647) slcan0 7E4#0221010000000000
(1523990511.848598) slcan0 7EC#103D6101FFFFFFFF
(1523990511.883655) slcan0 7E4#0221050000000000
(1523990511.884069) slcan0 7D5#3010000000000000
(1523990511.884469) slcan0 7E4#3010000000000000
(1523990511.895117) slcan0 7EC#213E264826482000
(1523990511.904876) slcan0 7EC#22000D6F0D0D0D0D
(1523990511.915295) slcan0 7EC#230D0D0D000EB341
(1523990511.925020) slcan0 7EC#24B3270000880000
(1523990511.927809) slcan0 7DD#21AF0DFFF4FCFC02
(1523990511.933852) slcan0 7E2#0221010000000000
(1523990511.937027) slcan0 7EC#259D5600009DF900
(1523990511.948173) slcan0 7EA#10166101FFE00000
(1523990511.948198) slcan0 7EC#260039E100003782
(1523990511.948203) slcan0 7DD#22010201FFFFFFFF
(1523990511.948567) slcan0 7E2#3010000000000000
(1523990511.956386) slcan0 7EC#27001321EA0900D2
(1523990511.967985) slcan0 7EC#280000000003E800
(1523990511.968007) slcan0 7EA#21092192AC05EB02
(1523990511.968011) slcan0 7DD#23000003C7000100
(1523990511.976214) slcan0 7EA#22000000003D7534
(1523990511.983738) slcan0 7E2#0221020000000000
(1523990511.986895) slcan0 7EA#2306200000000000
(1523990511.997311) slcan0 7EA#10176102FF800000
(1523990512.033615) slcan0 7E5#0221010000000000
(1523990512.047547) slcan0 7ED#102C6101FFFFF800
(1523990512.048026) slcan0 7E2#3010000000000000
(1523990512.048417) slcan0 7E5#3010000000000000
(1523990512.067122) slcan0 7EA#2101000000008900
(1523990512.067144) slcan0 7ED#210078A60296040E
(1523990512.077148) slcan0 7EA#22687CAF35000046
(1523990512.077169) slcan0 7ED#2200147700340075
(1523990512.083659) slcan0 7E3#0221010000000000
(1523990512.087263) slcan0 7EA#2351F13500000000
(1523990512.087303) slcan0 7ED#2305454100000000
(1523990512.090159) slcan0 7EB#101E6101000003FF
(1523990512.097353) slcan0 7ED#24002A0000720000
(1523990512.107050) slcan0 7ED#25000001F4512B03
(1523990512.107535) slcan0 7E3#3010000000000000
(1523990512.120011) slcan0 7ED#2630000000000000
(1523990512.120032) slcan0 7EB#21083800EA50D135
(1523990512.130000) slcan0 7EB#220000000A003602
(1523990512.133666) slcan0 7D5#0221010000000000
(1523990512.150276) slcan0 7EB#2353049A35300018
(1523990512.150297) slcan0 7EB#2400B7FF00000000
(1523990512.157896) slcan0 7DD#101A6101FB180000
(1523990512.183924) slcan0 7E4#0221010000000000
(1523990512.195193) slcan0 7EC#103D6101FFFFFFFF
(1523990512.195665) slcan0 7D5#3010000000000000
(1523990512.196083) slcan0 7E4#3010000000000000
(1523990512.210028) slcan0 7EC#213E264826482000
(1523990512.220118) slcan0 7EC#22000D6F0D0D0D0D
(1523990512.230217) slcan0 7EC#230D0D0D000EB34A
(1523990512.233587) slcan0 7E4#0221050000000000
(1523990512.238078) slcan0 7DD#21AF0DFFF4FCFC02
(1523990512.248064) slcan0 7EC#24B3270000880000
(1523990512.257955) slcan0 7EC#259D5600009DF900
(1523990512.257979) slcan0 7DD#22010201FFFFFFFF
(1523990512.265054) slcan0 7EC#260039E100003782
(1523990512.278181) slcan0 7EC#27001321EB0900CE
(1523990512.278202) slcan0 7DD#23000003C7000100
(1523990512.283710) slcan0 7E2#0221010000000000
(1523990512.286905) slcan0 7EC#280000000003E800
(1523990512.297312) slcan0 7EA#10166101FFE00000
(1523990512.300183) slcan0 7EC#102D6105FFFFFFFF
(1523990512.300583) slcan0 7E2#3010000000000000
(1523990512.300941) slcan0 7E4#3010000000000000
(1523990512.306109) slcan0 7EA#21092192A505E602
(1523990512.316693) slcan0 7EC#2100000000000D0D
(1523990512.316714) slcan0 7EA#2200000000977334
(1523990512.326282) slcan0 7EC#220D0D0D0D0D2648
(1523990512.326304) slcan0 7EA#2306200000000000
(1523990512.333612) slcan0 7E2#0221020000000000
(1523990512.336883) slcan0 7EC#23264800014B0D0D
(1523990512.348006) slcan0 7EA#10176102FF800000
(1523990512.348028) slcan0 7EC#2403E85003E8273F
(1523990512.357029) slcan0 7EC#2500290000000000
(1523990512.357563) slcan0 7E2#3010000000000000
(1523990512.366103) slcan0 7EC#2600000000000000
(1523990512.366139) slcan0 7EA#2101000000008900
(1523990512.376049) slcan0 7EA#22677C8F35000018
(1523990512.383678) slcan0 7E5#0221010000000000
(1523990512.386762) slcan0 7EA#2350CB3500000000
(1523990512.397256) slcan0 7ED#102C6101FFFFF800
(1523990512.433847) slcan0 7E3#0221010000000000
(1523990512.434274) slcan0 7E5#3010000000000000
(1523990512.448228) slcan0 7EB#101E6101000003FF
(1523990512.448771) slcan0 7E3#3010000000000000
(1523990512.457091) slcan0 7ED#2100789B0297040E
(1523990512.460540) slcan0 7EB#21083800B54FBD35
(1523990512.467389) slcan0 7ED#2200147700340075
(1523990512.470545) slcan0 7EB#220000000A003402
(1523990512.477333) slcan0 7ED#2305414100000000
(1523990512.480609) slcan0 7EB#2353047C350000E8
(1523990512.483758) slcan0 7D5#0221010000000000
(1523990512.487442) slcan0 7ED#24002A0000720000
(1523990512.490605) slcan0 7EB#24FF180000000000
(1523990512.497068) slcan0 7ED#25000001F44FBA03
(1523990512.508708) slcan0 7ED#263C000000000000
(1523990512.508733) slcan0 7DD#101A6101FB180000
(1523990512.533819) slcan0 7E4#0221010000000000
(1523990512.534309) slcan0 7D5#3010000000000000
(1523990512.547788) slcan0 7EC#103D6101FFFFFFFF
(1523990512.548310) slcan0 7E4#3010000000000000
(1523990512.565432) slcan0 7EC#213E264826482000
(1523990512.575756) slcan0 7EC#22000D6F0D0D0D0D
(1523990512.578411) slcan0 7DD#21AE0DFFF4FCFC02
(1523990512.583870) slcan0 7E4#0221050000000000
(1523990512.587172) slcan0 7EC#230D0D0D000EB31A
(1523990512.595640) slcan0 7EC#24B3270000880000
(1523990512.598693) slcan0 7DD#22010201FFFFFFFF
(1523990512.605746) slcan0 7EC#259D5600009DF900
(1523990512.615870) slcan0 7EC#260039E100003782
(1523990512.618634) slcan0 7DD#23000003C7000100
(1523990512.625484) slcan0 7EC#27001321EB0900CB
(1523990512.633653) slcan0 7E2#0221010000000000
(1523990512.636714) slcan0 7EC#280000000003E800
(1523990512.648136) slcan0 7EA#10166101FFE00000
(1523990512.648667) slcan0 7E2#3010000000000000
(1523990512.656850) slcan0 7EC#102D6105FFFFFFFF
(1523990512.657332) slcan0 7E4#3010000000000000
(1523990512.666055) slcan0 7EA#21092192AA05E902
(1523990512.671184) slcan0 7EC#2100000000000D0D
(1523990512.676272) slcan0 7EA#2200000000587234
(1523990512.681505) slcan0 7EC#220D0D0D0D0D2648
(1523990512.683483) slcan0 7E2#0221020000000000
(1523990512.686884) slcan0 7EA#2306200000000000
(1523990512.691512) slcan0 7EC#2326480001500D0D
(1523990512.697007) slcan0 7EA#10176102FF800000
(1523990512.697532) slcan0 7E2#3010000000000000
(1523990512.701411) slcan0 7EC#2403E85003E8273F
(1523990512.706085) slcan0 7EA#2101000000008900
(1523990512.711295) slcan0 7EC#2500290000000000
(1523990512.716233) slcan0 7EA#22657C6C350000AE
(1523990512.721534) slcan0 7EC#2600000000000000
(1523990512.726322) slcan0 7EA#234EAE3500000000
(1523990512.733494) slcan0 7E5#0221010000000000
(1523990512.747780) slcan0 7ED#102C6101FFFFF800
(1523990512.748303) slcan0 7E5#3010000000000000
(1523990512.757432) slcan0 7ED#210078890293040D
(1523990512.767431) slcan0 7ED#2200137700340075
(1523990512.777291) slcan0 7ED#23053E4100000000
(1523990512.783796) slcan0 7E3#0221010000000000
(1523990512.787208) slcan0 7ED#24002A0000720000
(1523990512.790956) slcan0 7EB#101E6101000003FF
(1523990512.791491) slcan0 7E3#3010000000000000
(1523990512.797417) slcan0 7ED#25000001F44E8903
(1523990512.800829) slcan0 7EB#21083800464E9B35
(1523990512.807408) slcan0 7ED#2633000000000000
(1523990512.810592) slcan0 7EB#220000000A003502
(1523990512.820635) slcan0 7EB#23520464350000E8
(1523990512.831014) slcan0 7EB#24FF180000000000
(1523990512.833402) slcan0 7D5#0221010000000000
(1523990512.858442) slcan0 7DD#101A6101FB180000
(1523990512.858927) slcan0 7D5#3010000000000000
(1523990512.883773) slcan0 7E4#0221010000000000
(1523990512.898945) slcan0 7EC#103D6101FFFFFFFF
(1523990512.898968) slcan0 7DD#21AE0DFFF4FCFC02
(1523990512.899486) slcan0 7E4#3010000000000000
(1523990512.911709) slcan0 7EC#213E264826482000
(1523990512.918644) slcan0 7DD#22010201FFFFFFFF
(1523990512.921608) slcan0 7EC#22000D6F0D0D0D0D
(1523990512.931674) slcan0 7EC#230D0D0D000EB302
(1523990512.933502) slcan0 7E4#0221050000000000
(1523990512.938379) slcan0 7DD#23000003C7000100
(1523990512.948188) slcan0 7EC#24B3270000870000
(1523990512.957405) slcan0 7EC#259D5600009DF900
(1523990512.966239) slcan0 7EC#260039E100003782
(1523990512.975987) slcan0 7EC#27001321EB0900C7
(1523990512.983844) slcan0 7E2#0221010000000000
(1523990512.987101) slcan0 7EC#280000000003E800
(1523990512.997130) slcan0 7EA#10166101FFE00000
(1523990512.997628) slcan0 7E2#3010000000000000
(1523990513.001788) slcan0 7EC#102D6105FFFFFFFF
(1523990513.002374) slcan0 7E4#3010000000000000
(1523990513.006304) slcan0 7EA#21092192AF05E402
(1523990513.016769) slcan0 7EA#2200000000677134
(1523990513.016789) slcan0 7EC#2100000000000D0D
(1523990513.026456) slcan0 7EA#2306200000000000
(1523990513.026469) slcan0 7EC#220D0D0D0D0D2648
(1523990513.033900) slcan0 7E2#0221020000000000
(1523990513.037105) slcan0 7EC#2326480001500D0D
(1523990513.048754) slcan0 7EA#10176102FF800000
(1523990513.048779) slcan0 7EC#2403E85003E8273F
(1523990513.057249) slcan0 7EC#2500290000000000
(1523990513.057765) slcan0 7E2#3010000000000000
(1523990513.066457) slcan0 7EA#2101000000008800
(1523990513.066471) slcan0 7EC#2600000000000000
(1523990513.075959) slcan0 7EA#22637C5235000084
(1523990513.083818) slcan0 7E5#0221010000000000
(1523990513.087034) slcan0 7EA#234D903500000000
(1523990513.097222) slcan0 7ED#102C6101FFFFF800
(1523990513.133613) slcan0 7E3#0221010000000000
(1523990513.134003) slcan0 7E5#3010000000000000
(1523990513.148596) slcan0 7EB#101E6101000003FF
(1523990513.148610) slcan0 7ED#210078810296040F
(1523990513.149076) slcan0 7E3#3010000000000000
(1523990513.157373) slcan0 7ED#2200147700340075
(1523990513.161131) slcan0 7EB#210838001E4D8D35
(1523990513.167407) slcan0 7ED#23053B4100000000
(1523990513.170936) slcan0 7EB#220000000A003502
(1523990513.177380) slcan0 7ED#24002A0000720000
(1523990513.181135) slcan0 7EB#2353044635180030
(1523990513.183527) slcan0 7D5#0221010000000000
(1523990513.187398) slcan0 7ED#25000001F44D1D03
(1523990513.191227) slcan0 7EB#2400B7FF00000000
(1523990513.197410) slcan0 7ED#262E000000000000
(1523990513.208696) slcan0 7DD#101A6101FB180000
(1523990513.209194) slcan0 7D5#3010000000000000
(1523990513.233671) slcan0 7E4#0221010000000000
(1523990513.249338) slcan0 7EC#103D6101FFFFFFFF
(1523990513.249361) slcan0 7DD#21AD0DFFF4FCFC02
(1523990513.249834) slcan0 7E4#3010000000000000
(1523990513.268919) slcan0 7EC#213E264826482000
(1523990513.268942) slcan0 7DD#22010202FFFFFFFF
(1523990513.276163) slcan0 7EC#22000D6F0D0D0D0D
(1523990513.283618) slcan0 7E4#0221050000000000
(1523990513.288575) slcan0 7EC#230D0D0D000EB30D
(1523990513.288590) slcan0 7DD#23000003C7000100
(1523990513.296939) slcan0 7EC#24B2270000870000
(1523990513.306191) slcan0 7EC#259D5600009DF900
(1523990513.316361) slcan0 7EC#260039E100003782
(1523990513.326196) slcan0 7EC#27001321EC0900C4
(1523990513.333652) slcan0 7E2#0221010000000000
(1523990513.336804) slcan0 7EC#280000000003E800
(1523990513.348430) slcan0 7EA#10166101FFE00000
(1523990513.349001) slcan0 7E2#3010000000000000
(1523990513.357259) slcan0 7EC#102D6105FFFFFFFF
(1523990513.357816) slcan0 7E4#3010000000000000
(1523990513.366256) slcan0 7EA#21092192AA05E902
(1523990513.372103) slcan0 7EC#2100000000000D0D
(1523990513.376283) slcan0 7EA#2200000000AB7034
(1523990513.382070) slcan0 7EC#220D0D0D0D0D2648
(1523990513.383467) slcan0 7E2#0221020000000000
(1523990513.386622) slcan0 7EA#2306200000000000
(1523990513.391879) slcan0 7EC#23264800014B0D0D
(1523990513.396978) slcan0 7EA#10176102FF800000
(1523990513.397393) slcan0 7E2#3010000000000000
(1523990513.402131) slcan0 7EC#2403E85003E8273F
(1523990513.406067) slcan0 7EA#2101000000008800
(1523990513.411934) slcan0 7EC#2500290000000000
(1523990513.416659) slcan0 7EA#22617C313500000B
(1523990513.422198) slcan0 7EC#2600000000000000
(1523990513.426062) slcan0 7EA#234C733500000000
(1523990513.433517) slcan0 7E5#0221010000000000
(1523990513.448925) slcan0 7ED#102C6101FFFFF800
(1523990513.449454) slcan0 7E5#3010000000000000
(1523990513.467435) slcan0 7ED#2100787A0297040F
(1523990513.477142) slcan0 7ED#2200147700340075
(1523990513.483766) slcan0 7E3#0221010000000000
(1523990513.487442) slcan0 7ED#2305394100000000
(1523990513.491412) slcan0 7EB#101E6101000003FF
(1523990513.491956) slcan0 7E3#3010000000000000
(1523990513.497456) slcan0 7ED#24002A0000720000
(1523990513.501434) slcan0 7EB#21083800AD4B5E35
(1523990513.507201) slcan0 7ED#25000001F44BFE03
(1523990513.511471) slcan0 7EB#220000000A003602
(1523990513.517428) slcan0 7ED#2631000000000000
(1523990513.521392) slcan0 7EB#2354042D35180000
(1523990513.531397) slcan0 7EB#2400E8FF00000000
(1523990513.533456) slcan0 7D5#0221010000000000
(1523990513.558926) slcan0 7DD#101A6101FB180000
(1523990513.559386) slcan0 7D5#3010000000000000
(1523990513.583758) slcan0 7E4#0221010000000000
(1523990513.598924) slcan0 7EC#103D6101FFFFFFFF
(1523990513.598940) slcan0 7DD#21AD0DFFF4FCFC02
(1523990513.599314) slcan0 7E4#3010000000000000
(1523990513.612067) slcan0 7EC#213E264826482000
(1523990513.618967) slcan0 7DD#22010201FFFFFFFF
(1523990513.622297) slcan0 7EC#22000D6F0D0D0D0D
(1523990513.632359) slcan0 7EC#230D0D0D000EB30B
(1523990513.634215) slcan0 7E4#0221050000000000
(1523990513.638763) slcan0 7DD#23000003C7000100
(1523990513.649346) slcan0 7EC#24B3270000870000
(1523990513.657897) slcan0 7EC#259D5600009DF900
(1523990513.666814) slcan0 7EC#260039E100003782
(1523990513.676674) slcan0 7EC#27001321EC0900C1
(1523990513.683611) slcan0 7E2#0221010000000000
(1523990513.687112) slcan0 7EC#280000000003E800
(1523990513.697255) slcan0 7EA#10166101FFE00000
(1523990513.697799) slcan0 7E2#3010000000000000
(1523990513.706051) slcan0 7EC#102D6105FFFFFFFF
(1523990513.706070) slcan0 7EA#21092192A505E602
(1523990513.706588) slcan0 7E4#3010000000000000
(1523990513.717069) slcan0 7EA#2200000000177034
(1523990513.717090) slcan0 7EC#2100000000000D0D
(1523990513.726896) slcan0 7EA#2306200000000000
(1523990513.726917) slcan0 7EC#220D0D0D0D0D2648
(1523990513.733826) slcan0 7E2#0221020000000000
(1523990513.737250) slcan0 7EC#23264800014B0D0D
(1523990513.749467) slcan0 7EA#10176102FF800000
(1523990513.749493) slcan0 7EC#2403E85003E8273F
(1523990513.757629) slcan0 7EC#2500290000000000
(1523990513.758195) slcan0 7E2#3010000000000000
(1523990513.766608) slcan0 7EA#2101000000008800
(1523990513.766624) slcan0 7EC#2600000000000000
(1523990513.776307) slcan0 7EA#22607C1F350000FD
(1523990513.783805) slcan0 7E5#0221010000000000
(1523990513.786983) slcan0 7EA#234A5E3500000000
(1523990513.797411) slcan0 7ED#102C6101FFFFF800
(1523990513.833592) slcan0 7E3#0221010000000000
(1523990513.833969) slcan0 7E5#3010000000000000
(1523990513.850872) slcan0 7EB#101E6101000003FF
(1523990513.850892) slcan0 7ED#2100786D02980410
(1523990513.851388) slcan0 7E3#3010000000000000
(1523990513.858061) slcan0 7ED#2200147700340075
(1523990513.861734) slcan0 7EB#21083800894A4935
(1523990513.867107) slcan0 7ED#2305364100000000
(1523990513.871746) slcan0 7EB#220000000A003602
(1523990513.877426) slcan0 7ED#24002A0000720000
(1523990513.881777) slcan0 7EB#2354040B35E8FF30
(1523990513.883454) slcan0 7D5#0221010000000000
(1523990513.887466) slcan0 7ED#25000001F44A8803
(1523990513.891774) slcan0 7EB#2400E8FF00000000
(1523990513.897110) slcan0 7ED#262E000000000000
(1523990513.909147) slcan0 7DD#101A6101FB180000
(1523990513.909640) slcan0 7D5#3010000000000000
(1523990513.933645) slcan0 7E4#0221010000000000
(1523990513.949752) slcan0 7DD#21AD0DFFF4FCFC02
(1523990513.949774) slcan0 7EC#103D6101FFFFFFFF
(1523990513.969682) slcan0 7DD#22010201FFFFFFFF
(1523990513.970245) slcan0 7E4#3010000000000000
(1523990513.982458) slcan0 7EC#213E264826482000
(1523990513.983447) slcan0 7E4#0221050000000000
(1523990513.988962) slcan0 7DD#23000003C7000100
(1523990513.992609) slcan0 7EC#22000D6F0D0D0D0D
(1523990514.002672) slcan0 7EC#230D0D0D000EB326
(1523990514.015236) slcan0 7EC#24B2270000860000
(1523990514.023635) slcan0 7EC#259D5600009DF900
(1523990514.033665) slcan0 7E2#0221010000000000
(1523990514.036953) slcan0 7EC#260039E100003782
(1523990514.050438) slcan0 7EA#10166101FFE00000
(1523990514.050458) slcan0 7EC#27001321EC0900BE
(1523990514.050964) slcan0 7E2#3010000000000000
(1523990514.058019) slcan0 7EC#280000000003E800
(1523990514.066266) slcan0 7EA#21092192A705E402
(1523990514.076160) slcan0 7EC#102D6105FFFFFFFF
(1523990514.076187) slcan0 7EA#22000000009E6F34
(1523990514.076622) slcan0 7E4#3010000000000000
(1523990514.083700) slcan0 7E2#0221020000000000
(1523990514.087476) slcan0 7EA#2306200000000000
(1523990514.087507) slcan0 7EC#2100000000000D0D
(1523990514.097442) slcan0 7EA#10176102FF800000
(1523990514.097459) slcan0 7EC#220D0D0D0D0D2648
(1523990514.107258) slcan0 7EC#2326480001500D0D
(1523990514.107764) slcan0 7E2#3010000000000000
(1523990514.117038) slcan0 7EA#2101000000008800
(1523990514.117063) slcan0 7EC#2403E85003E8273F
(1523990514.127036) slcan0 7EA#225E7C0135000086
(1523990514.127057) slcan0 7EC#2500290000000000
(1523990514.133728) slcan0 7E5#0221010000000000
(1523990514.137269) slcan0 7EA#23493E3500000000
(1523990514.137286) slcan0 7EC#2600000000000000
(1523990514.149725) slcan0 7ED#102C6101FFFFF800
(1523990514.183504) slcan0 7E3#0221010000000000
(1523990514.191847) slcan0 7EB#101E6101000003FF
(1523990514.233859) slcan0 7D5#0221010000000000
(1523990514.234295) slcan0 7E5#3010000000000000
(1523990514.234709) slcan0 7E3#3010000000000000
(1523990514.250355) slcan0 7EB#210838001E492E35
(1523990514.250381) slcan0 7ED#21007864029A0412
(1523990514.258976) slcan0 7EB#220000000A003602
(1523990514.258995) slcan0 7ED#2200147700340075
(1523990514.258999) slcan0 7DD#101A6101FB180000
(1523990514.261782) slcan0 7EB#235504F234000018
(1523990514.267252) slcan0 7ED#2305334100000000
(1523990514.272138) slcan0 7EB#2400E8FF00000000
(1523990514.272645) slcan0 7D5#3010000000000000
(1523990514.277381) slcan0 7ED#24002B0000720000
(1523990514.283704) slcan0 7E4#0221010000000000
(1523990514.287167) slcan0 7ED#25000001F4496E03
(1523990514.297641) slcan0 7EC#103D6101FFFFFFFF
(1523990514.297676) slcan0 7ED#2637000000000000
(1523990514.309076) slcan0 7DD#21AC0DFFF4FCFC02
(1523990514.309644) slcan0 7E4#3010000000000000
(1523990514.329139) slcan0 7EC#213E264826482000
(1523990514.329160) slcan0 7DD#22010202FFFFFFFF
(1523990514.333516) slcan0 7E4#0221050000000000
(1523990514.337423) slcan0 7EC#22000D6F0D0D0D0D
(1523990514.349826) slcan0 7DD#23000003C7000100
(1523990514.349848) slcan0 7EC#230D0D0D000EB30B
(1523990514.357922) slcan0 7EC#24B3270000860000
(1523990514.367424) slcan0 7EC#259D5600009DF900
(1523990514.377286) slcan0 7EC#260039E100003782
(1523990514.383605) slcan0 7E2#0221010000000000
(1523990514.387284) slcan0 7EC#27001321ED0900BA
(1523990514.397641) slcan0 7EA#10166101FFE00000
(1523990514.397661) slcan0 7EC#280000000003E800
(1523990514.416540) slcan0 7EC#102D6105FFFFFFFF
(1523990514.417132) slcan0 7E2#3010000000000000
(1523990514.426351) slcan0 7EA#21092192AA05E402
(1523990514.426967) slcan0 7E4#3010000000000000
(1523990514.433842) slcan0 7E2#0221020000000000
(1523990514.437543) slcan0 7EA#2200000000396F34
(1523990514.437564) slcan0 7EC#2100000000000D0D
(1523990514.450557) slcan0 7EA#10176102FF800000
(1523990514.450578) slcan0 7EC#220D0D0D0D0D2648
(1523990514.457949) slcan0 7EC#2326480001500D0D
(1523990514.458541) slcan0 7E2#3010000000000000
(1523990514.467623) slcan0 7EA#2101000000008700
(1523990514.467645) slcan0 7EC#2403E85003E8273F
(1523990514.477593) slcan0 7EA#225D7CE934000072
(1523990514.477615) slcan0 7EC#2500290000000000
(1523990514.483672) slcan0 7E5#0221010000000000
(1523990514.487905) slcan0 7EA#2348263500000000
(1523990514.487926) slcan0 7EC#2600000000000000
(1523990514.497534) slcan0 7ED#102C6101FFFFF800
(1523990514.533862) slcan0 7E3#0221010000000000
(1523990514.550040) slcan0 7EB#101E6101000003FF
(1523990514.583557) slcan0 7D5#0221010000000000
(1523990514.583896) slcan0 7E5#3010000000000000
(1523990514.584178) slcan0 7E3#3010000000000000
(1523990514.592375) slcan0 7EB#2108380007482135
(1523990514.598106) slcan0 7ED#2100785A029A0412
(1523990514.602443) slcan0 7EB#220000000A003602
(1523990514.609474) slcan0 7ED#2200147700340075
(1523990514.609496) slcan0 7DD#101A6101FB180000
(1523990514.612324) slcan0 7EB#235104D534300030
(1523990514.612883) slcan0 7D5#3010000000000000
(1523990514.617437) slcan0 7ED#2305314100000000
(1523990514.622274) slcan0 7EB#24009FFF00000000
(1523990514.627107) slcan0 7ED#24002B0000720000
(1523990514.633782) slcan0 7E4#0221010000000000
(1523990514.637283) slcan0 7ED#25000001F4480503
(1523990514.650986) slcan0 7DD#21AC0DFFF4FCFC02
(1523990514.651006) slcan0 7EC#103D6101FFFFFFFF
(1523990514.651010) slcan0 7ED#2632000000000000
(1523990514.669460) slcan0 7DD#22010201FFFFFFFF
(1523990514.669924) slcan0 7E4#3010000000000000
(1523990514.683556) slcan0 7E4#0221020000000000
(1523990514.689273) slcan0 7EC#213E264826482000
(1523990514.689294) slcan0 7DD#23000003C7000100
(1523990514.697500) slcan0 7EC#22000D6F0D0D0D0D
(1523990514.707848) slcan0 7EC#230D0D0D000EB326
(1523990514.718086) slcan0 7EC#24B3270000860000
(1523990514.727585) slcan0 7EC#259D5600009DF900
(1523990514.733628) slcan0 7E4#0221030000000000
(1523990514.737683) slcan0 7EC#260039E100003782
(1523990514.750239) slcan0 7EC#27001321ED0900B7
(1523990514.757958) slcan0 7EC#280000000003E800
(1523990514.776850) slcan0 7EC#10266103FFFFFFFF
(1523990514.777426) slcan0 7E4#3010000000000000
(1523990514.783926) slcan0 7E4#0221040000000000
(1523990514.788085) slcan0 7EC#21B3B3B3B3B3B3B2
(1523990514.797661) slcan0 7EC#22B3B3B3B3B3B3B3
(1523990514.807698) slcan0 7EC#23B3B3B3B3B3B3B3
(1523990514.818156) slcan0 7EC#24B3B3B3B3B3B3B3
(1523990514.827688) slcan0 7EC#25B3B3B3B3000000
(1523990514.833889) slcan0 7E4#0221050000000000
(1523990514.851545) slcan0 7EC#10266104FFFFFFFF
(1523990514.852042) slcan0 7E4#3010000000000000
(1523990514.868007) slcan0 7EC#21B3B3B3B3B3B3B3
(1523990514.877776) slcan0 7EC#22B3B3B3B3B3B3B3
(1523990514.883864) slcan0 7E2#0221010000000000
(1523990514.887768) slcan0 7EC#23B3B3B3B3B3B3B3
(1523990514.898177) slcan0 7EA#10166101FFE00000
(1523990514.898199) slcan0 7EC#24B3B3B3B3B3B3B3
(1523990514.898675) slcan0 7E2#3010000000000000
(1523990514.908050) slcan0 7EA#21092192A005E402
(1523990514.908071) slcan0 7EC#25B3B3B3B3000000
(1523990514.916984) slcan0 7EA#2200000000BC6E34
(1523990514.926348) slcan0 7EA#2306200000000000
(1523990514.933902) slcan0 7E2#0221020000000000
(1523990514.950617) slcan0 7EA#10176102FF800000
(1523990514.951213) slcan0 7E2#3010000000000000
(1523990514.966099) slcan0 7EA#2101000000008700
(1523990514.976680) slcan0 7EA#225A7CC83400009B
(1523990514.983843) slcan0 7E5#0221010000000000
(1523990514.987100) slcan0 7EA#2346033500000000
(1523990514.997789) slcan0 7ED#102C6101FFFFF800
(1523990514.998301) slcan0 7E5#3010000000000000
(1523990515.007144) slcan0 7ED#2100784A0297040F
(1523990515.017293) slcan0 7ED#2200147700340075
(1523990515.027137) slcan0 7ED#23052D4100000000
(1523990515.033512) slcan0 7E3#0221010000000000
(1523990515.037070) slcan0 7ED#24002A0000720000
(1523990515.051099) slcan0 7EB#101E6101000003FF
(1523990515.051126) slcan0 7ED#25000001F4463303
(1523990515.051617) slcan0 7E3#3010000000000000
(1523990515.057900) slcan0 7ED#262C000000000000
(1523990515.066070) slcan0 7EB#210838003D46EB34
(1523990515.076732) slcan0 7EB#220000000A003702
(1523990515.083633) slcan0 7D5#0221010000000000
(1523990515.086656) slcan0 7EB#235304B734E8FF00
(1523990515.097770) slcan0 7EB#2400180000000000
(1523990515.109487) slcan0 7DD#101A6101FB180000
(1523990515.109991) slcan0 7D5#3010000000000000
(1523990515.133674) slcan0 7E4#0221010000000000
(1523990515.150856) slcan0 7DD#21AC0DFFF4FCFC02
(1523990515.150876) slcan0 7EC#103D6101FFFFFFFF
(1523990515.169827) slcan0 7DD#22010202FFFFFFFF
(1523990515.170419) slcan0 7E4#3010000000000000
(1523990515.183652) slcan0 7E4#0221050000000000
(1523990515.186848) slcan0 7EC#213E264826482000
(1523990515.189583) slcan0 7DD#23000003C7000100
(1523990515.198033) slcan0 7EC#22000D6F0D0D0D0D
(1523990515.206145) slcan0 7EC#230D0D0D000EB308
(1523990515.216797) slcan0 7EC#24B3270000860000
(1523990515.225735) slcan0 7EC#259D5600009DF900
(1523990515.233617) slcan0 7E2#0221010000000000
(1523990515.237091) slcan0 7EC#260039E100003782
(1523990515.251639) slcan0 7EA#10166101FFE00000
(1523990515.251660) slcan0 7EC#27001321ED0900B3
(1523990515.252183) slcan0 7E2#3010000000000000
(1523990515.258437) slcan0 7EC#280000000003E800
(1523990515.266167) slcan0 7EA#21092192A705E602
(1523990515.277544) slcan0 7EA#2200000000716E34
(1523990515.277565) slcan0 7EC#102D6105FFFFFFFF
(1523990515.283873) slcan0 7E2#0221020000000000
(1523990515.284373) slcan0 7E4#3010000000000000
(1523990515.287502) slcan0 7EA#2306200000000000
(1523990515.298475) slcan0 7EA#10176102FF800000
(1523990515.298496) slcan0 7EC#2100000000000D0D
(1523990515.299001) slcan0 7E2#3010000000000000
(1523990515.308477) slcan0 7EA#2101000000008700
(1523990515.308499) slcan0 7EC#220D0D0D0D0D2648
(1523990515.318335) slcan0 7EA#22597CA634000036
(1523990515.318365) slcan0 7EC#2326480001500D0D
(1523990515.328224) slcan0 7EA#2345E03400000000
(1523990515.328246) slcan0 7EC#2403E85003E8273F
(1523990515.333547) slcan0 7E5#0221010000000000
(1523990515.338237) slcan0 7EC#2500290000000000
(1523990515.351255) slcan0 7EC#2600000000000000
(1523990515.351272) slcan0 7ED#102C6101FFFFF800
(1523990515.383830) slcan0 7E3#0221010000000000
(1523990515.398099) slcan0 7EB#101E6101000003FF
(1523990515.433887) slcan0 7D5#0221010000000000
(1523990515.434365) slcan0 7E5#3010000000000000
(1523990515.434812) slcan0 7E3#3010000000000000
(1523990515.451259) slcan0 7EB#21083800D044CF34
(1523990515.459913) slcan0 7EB#220000000A003502
(1523990515.459934) slcan0 7ED#2100784302980411
(1523990515.459940) slcan0 7DD#101A6101FB180000
(1523990515.467444) slcan0 7EB#2353049A34180049
(1523990515.467465) slcan0 7ED#23052B4100000000
(1523990515.477536) slcan0 7EB#24009FFF00000000
(1523990515.477558) slcan0 7ED#24002B0000720000
(1523990515.478148) slcan0 7D5#3010000000000000
(1523990515.483799) slcan0 7E4#0221010000000000
(1523990515.487513) slcan0 7ED#25000001F4452303
(1523990515.498219) slcan0 7EC#103D6101FFFFFFFF
(1523990515.498257) slcan0 7ED#2638000000000000
(1523990515.520041) slcan0 7DD#21AB0DFFF4FCFC02
(1523990515.533772) slcan0 7E4#0221050000000000
(1523990515.534215) slcan0 7E4#3010000000000000
(1523990515.539941) slcan0 7DD#22010201FFFFFFFF
(1523990515.551105) slcan0 7EC#213E264826482000
(1523990515.560109) slcan0 7EC#22000D6F0D0D0D0D
(1523990515.560131) slcan0 7DD#23000003C7000100
(1523990515.568631) slcan0 7EC#230D0D0D000EB321
(1523990515.578725) slcan0 7EC#24B3270000850000
(1523990515.583902) slcan0 7E2#0221010000000000
(1523990515.588691) slcan0 7EC#259D5600009DF900
(1523990515.598769) slcan0 7EA#10166101FFE00000
(1523990515.598807) slcan0 7EC#260039E100003782
(1523990515.608495) slcan0 7EC#27001321EE0900AF
(1523990515.609085) slcan0 7E2#3010000000000000
(1523990515.618740) slcan0 7EC#280000000003E800
(1523990515.626407) slcan0 7EA#21092192A705E602
(1523990515.633687) slcan0 7E2#0221020000000000
(1523990515.637399) slcan0 7EA#22000000002C6E34
(1523990515.651353) slcan0 7EA#10176102FF800000
(1523990515.651933) slcan0 7E2#3010000000000000
(1523990515.666348) slcan0 7EA#2101000000008700
(1523990515.677097) slcan0 7EA#22577C8F34000016
(1523990515.683923) slcan0 7E5#0221010000000000
(1523990515.686981) slcan0 7EA#2344CB3400000000
(1523990515.698135) slcan0 7ED#102C6101FFFFF800
(1523990515.698700) slcan0 7E5#3010000000000000
(1523990515.707179) slcan0 7ED#2100783902980411
(1523990515.717464) slcan0 7ED#2200147700340075
(1523990515.727437) slcan0 7ED#2305284100000000
(1523990515.733923) slcan0 7E3#0221010000000000
(1523990515.737637) slcan0 7ED#24002A0000720000
(1523990515.751462) slcan0 7EB#101E6101000003FF
(1523990515.752033) slcan0 7E3#3010000000000000
(1523990515.758280) slcan0 7ED#25000001F443B603
(1523990515.766275) slcan0 7EB#21083800BC43BB34
(1523990515.777010) slcan0 7EB#220000000A003502
(1523990515.783651) slcan0 7D5#0221010000000000
(1523990515.786898) slcan0 7EB#2352048634300018
(1523990515.798148) slcan0 7EB#2400B7FF00000000
(1523990515.809851) slcan0 7DD#101A6101FB180000
(1523990515.810312) slcan0 7D5#3010000000000000
(1523990515.833634) slcan0 7E4#0221010000000000
(1523990515.850141) slcan0 7DD#21AB0DFFF4FCFC02
(1523990515.858569) slcan0 7EC#103D6101FFFFFFFF
(1523990515.859138) slcan0 7E4#3010000000000000
(1523990515.870178) slcan0 7DD#22010201FFFFFFFF
(1523990515.877087) slcan0 7EC#213E264826482000
(1523990515.883751) slcan0 7E4#0221050000000000
(1523990515.886959) slcan0 7EC#22000D6F0D0D0D0D
(1523990515.890156) slcan0 7DD#23000003C7000100
(1523990515.898168) slcan0 7EC#230D0D0D000EB310
(1523990515.906334) slcan0 7EC#24B2270000850000
(1523990515.917259) slcan0 7EC#259D5600009DF900
(1523990515.926061) slcan0 7EC#260039E100003782
(1523990515.933763) slcan0 7E2#0221010000000000
(1523990515.937541) slcan0 7EC#27001321EE0900AC
(1523990515.951696) slcan0 7EA#10166101FFE00000
(1523990515.952255) slcan0 7E2#3010000000000000
(1523990515.958508) slcan0 7EC#280000000003E800
(1523990515.969031) slcan0 7EA#21092192AA05E602
(1523990515.969053) slcan0 7EC#102D6105FFFFFFFF
(1523990515.976941) slcan0 7EA#2200000000ED6D34
(1523990515.977492) slcan0 7E4#3010000000000000
(1523990515.983861) slcan0 7E2#0221020000000000
(1523990515.989168) slcan0 7EA#2306200000000000
(1523990515.989190) slcan0 7EC#2100000000000D0D
(1523990515.999170) slcan0 7EA#10176102FF800000
(1523990515.999207) slcan0 7EC#220D0D0D0D0D2648
(1523990516.008881) slcan0 7EC#2326480001500D0D
(1523990516.009435) slcan0 7E2#3010000000000000
(1523990516.019066) slcan0 7EC#2403E85003E8273F
(1523990516.028992) slcan0 7EA#2101000000008600
(1523990516.029014) slcan0 7EC#2500290000000000
(1523990516.033852) slcan0 7E5#0221010000000000
(1523990516.039143) slcan0 7EA#22557C76340000B8
(1523990516.039165) slcan0 7EC#2600000000000000
(1523990516.058826) slcan0 7EA#2342B73400000000
(1523990516.058847) slcan0 7ED#102C6101FFFFF800
(1523990516.083696) slcan0 7E3#0221010000000000
(1523990516.098160) slcan0 7EB#101E6101000003FF
(1523990516.133682) slcan0 7D5#0221010000000000
(1523990516.134052) slcan0 7E5#3010000000000000
(1523990516.134372) slcan0 7E3#3010000000000000
(1523990516.160087) slcan0 7EB#210838005C42A734
(1523990516.160107) slcan0 7ED#2100783202980410
(1523990516.160111) slcan0 7DD#101A6101FB180000
(1523990516.167436) slcan0 7EB#2352047234180000
(1523990516.167457) slcan0 7ED#2305274100000000
(1523990516.177367) slcan0 7EB#2400E8FF00000000
(1523990516.177392) slcan0 7ED#24002A0000720000
(1523990516.177889) slcan0 7D5#3010000000000000
(1523990516.183528) slcan0 7E4#0221010000000000
(1523990516.187160) slcan0 7ED#25000001F442AB03
(1523990516.198462) slcan0 7EC#103D6101FFFFFFFF
(1523990516.198482) slcan0 7ED#2636000000000000
(1523990516.220128) slcan0 7DD#21AB0DFFF4FCFC02
(1523990516.233881) slcan0 7E4#0221050000000000
(1523990516.234338) slcan0 7E4#3010000000000000
(1523990516.240129) slcan0 7DD#22010201FFFFFFFF
(1523990516.260262) slcan0 7EC#213E264826482000
(1523990516.260286) slcan0 7DD#23000003C7000100
(1523990516.266189) slcan0 7EC#22000D6F0D0D0D0D
(1523990516.276901) slcan0 7EC#230D0D0D000EB305
(1523990516.283561) slcan0 7E2#0221010000000000
(1523990516.286855) slcan0 7EC#24B3270000850000
(1523990516.298622) slcan0 7EA#10166101FFE00000
(1523990516.298645) slcan0 7EC#259D5600009DF900
(1523990516.306389) slcan0 7EC#260039E100003782
(1523990516.306914) slcan0 7E2#3010000000000000
(1523990516.317863) slcan0 7EA#21092192AC05E402
(1523990516.317889) slcan0 7EC#27001321EF0900A9
(1523990516.326846) slcan0 7EC#280000000003E800
(1523990516.326867) slcan0 7EA#2200000000B46D34
(1523990516.333774) slcan0 7E2#0221020000000000
(1523990516.337972) slcan0 7EA#2306200000000000
(1523990516.358467) slcan0 7EA#10176102FF800000
(1523990516.383861) slcan0 7E5#0221010000000000
(1523990516.397944) slcan0 7ED#102C6101FFFFF800
(1523990516.398499) slcan0 7E2#3010000000000000
(1523990516.398935) slcan0 7E5#3010000000000000
(1523990516.407472) slcan0 7EA#2101000000008600
(1523990516.407494) slcan0 7ED#210078260296040F
(1523990516.417798) slcan0 7EA#22547C62340000B6
(1523990516.417864) slcan0 7ED#2200147700340075
(1523990516.427194) slcan0 7EA#2341A03400000000
(1523990516.427217) slcan0 7ED#2305244100000000
(1523990516.433624) slcan0 7E3#0221010000000000
(1523990516.437432) slcan0 7ED#24002A0000720000
(1523990516.459037) slcan0 7EB#101E6101000003FF
(1523990516.459089) slcan0 7ED#25000001F4414C03
(1523990516.483912) slcan0 7D5#0221010000000000
(1523990516.510523) slcan0 7DD#101A6101FB180000
(1523990516.511108) slcan0 7E3#3010000000000000
(1523990516.526101) slcan0 7EB#2108380045419234
(1523990516.526635) slcan0 7D5#3010000000000000
(1523990516.533769) slcan0 7E4#0221010000000000
(1523990516.537763) slcan0 7EB#220000000A003502
(1523990516.558648) slcan0 7EB#2352045034180030
(1523990516.558669) slcan0 7EC#103D6101FFFFFFFF
(1523990516.570385) slcan0 7DD#21AA0DFFF4FCFC02
(1523990516.570968) slcan0 7E4#3010000000000000
(1523990516.583854) slcan0 7E4#0221050000000000
(1523990516.587110) slcan0 7EC#213E264826482000
(1523990516.590339) slcan0 7DD#22010202FFFFFFFF
(1523990516.598496) slcan0 7EC#22000D6F0D0D0D0D
(1523990516.606419) slcan0 7EC#230D0D0D000EB30D
(1523990516.610558) slcan0 7DD#23000003C7000100
(1523990516.617229) slcan0 7EC#24B3270000850000
(1523990516.626187) slcan0 7EC#259D5600009DF900
(1523990516.633562) slcan0 7E2#0221010000000000
(1523990516.637483) slcan0 7EC#260039E100003782
(1523990516.659434) slcan0 7EA#10166101FFE00000
(1523990516.659455) slcan0 7EC#27001321EF0900A6
(1523990516.659981) slcan0 7E2#3010000000000000
(1523990516.666891) slcan0 7EC#280000000003E800
(1523990516.679756) slcan0 7EA#21092192AA05EB02
(1523990516.679777) slcan0 7EC#102D6105FFFFFFFF
(1523990516.683790) slcan0 7E2#0221020000000000
(1523990516.684277) slcan0 7E4#3010000000000000
(1523990516.687582) slcan0 7EA#22000000007D6D34
(1523990516.698482) slcan0 7EA#10176102FF800000
(1523990516.698500) slcan0 7EC#2100000000000D0D
(1523990516.698946) slcan0 7E2#3010000000000000
(1523990516.706712) slcan0 7EC#220D0D0D0D0D2648
(1523990516.717735) slcan0 7EA#2101000000008600
(1523990516.717757) slcan0 7EC#2326480001500D0D
(1523990516.726625) slcan0 7EC#2403E85003E8273F
(1523990516.726648) slcan0 7EA#22527C4A34000044
(1523990516.733764) slcan0 7E5#0221010000000000
(1523990516.738395) slcan0 7EA#2340833400000000
(1523990516.738418) slcan0 7EC#2500290000000000
(1523990516.759039) slcan0 7EC#2600000000000000
(1523990516.759061) slcan0 7ED#102C6101FFFFF800
(1523990516.783869) slcan0 7E3#0221010000000000
(1523990516.798048) slcan0 7EB#101E6101000003FF
(1523990516.833655) slcan0 7D5#0221010000000000
(1523990516.834131) slcan0 7E5#3010000000000000
(1523990516.834424) slcan0 7E3#3010000000000000
(1523990516.860455) slcan0 7EB#21083800EB3F7134
(1523990516.860470) slcan0 7ED#21007820029A0410
(1523990516.860475) slcan0 7DD#101A6101FB180000
(1523990516.867188) slcan0 7EB#2352043C34000018
(1523990516.867202) slcan0 7ED#2305224100000000
(1523990516.877472) slcan0 7EB#2400E8FF00000000
(1523990516.877487) slcan0 7ED#24002B0000720000
(1523990516.877798) slcan0 7D5#3010000000000000
(1523990516.883825) slcan0 7E4#0221010000000000
(1523990516.887554) slcan0 7ED#25000001F4403603
(1523990516.898515) slcan0 7EC#103D6101FFFFFFFF
(1523990516.898533) slcan0 7ED#263F000000000000
(1523990516.920657) slcan0 7DD#21AA0DFFF4FCFC02
(1523990516.933697) slcan0 7E4#0221050000000000
(1523990516.934159) slcan0 7E4#3010000000000000
(1523990516.940790) slcan0 7DD#22010202FFFFFFFF
(1523990516.960539) slcan0 7EC#213E264826482000
(1523990516.960554) slcan0 7DD#23000003C7000100
(1523990516.966618) slcan0 7EC#22000D6F0D0D0D0D
(1523990516.977319) slcan0 7EC#230D0D0D000EB302
(1523990516.983878) slcan0 7E2#0221010000000000
(1523990516.987126) slcan0 7EC#24B2270000850000
(1523990516.998995) slcan0 7EA#10166101FFE00000
(1523990516.999016) slcan0 7EC#259D5600009DF900
(1523990517.006200) slcan0 7EC#260039E100003782
(1523990517.006785) slcan0 7E2#3010000000000000
(1523990517.017482) slcan0 7EA#21092192A705E402
(1523990517.017504) slcan0 7EC#27001321EF0900A2
(1523990517.026683) slcan0 7EC#280000000003E800
(1523990517.026704) slcan0 7EA#22000000004A6D34
(1523990517.033849) slcan0 7E2#0221020000000000
(1523990517.037261) slcan0 7EA#2306200000000000
(1523990517.058894) slcan0 7EA#10176102FF800000
(1523990517.083647) slcan0 7E5#0221010000000000
(1523990517.098142) slcan0 7ED#102C6101FFFFF800
(1523990517.098631) slcan0 7E2#3010000000000000
(1523990517.099065) slcan0 7E5#3010000000000000
(1523990517.107128) slcan0 7EA#2101000000008600
(1523990517.107149) slcan0 7ED#21007814029A0412
(1523990517.117571) slcan0 7EA#22517C3834000042
(1523990517.117597) slcan0 7ED#2200147700340075
(1523990517.127364) slcan0 7EA#233F6E3400000000
(1523990517.127384) slcan0 7ED#23051E4100000000
(1523990517.133726) slcan0 7E3#0221010000000000
(1523990517.137868) slcan0 7ED#24002B0000720000
(1523990517.159646) slcan0 7EB#101E6101000003FF
(1523990517.159667) slcan0 7ED#25000001F43ED003
(1523990517.183670) slcan0 7D5#0221010000000000
(1523990517.210662) slcan0 7DD#101A6101FB180000
(1523990517.211203) slcan0 7E3#3010000000000000
(1523990517.226502) slcan0 7EB#21083800E43E6334
(1523990517.227112) slcan0 7D5#3010000000000000
(1523990517.233928) slcan0 7E4#0221010000000000
(1523990517.237589) slcan0 7EB#220000000A003702
(1523990517.259518) slcan0 7EB#2352042934000018
(1523990517.259539) slcan0 7EC#103D6101FFFFFFFF
(1523990517.270731) slcan0 7DD#21AA0DFFF4FCFC02
(1523990517.271235) slcan0 7E4#3010000000000000
(1523990517.283762) slcan0 7E4#0221050000000000
(1523990517.286965) slcan0 7EC#213E264826482000
(1523990517.290733) slcan0 7DD#22010201FFFFFFFF
(1523990517.298363) slcan0 7EC#22000D6F0D0D0D0D
(1523990517.306444) slcan0 7EC#230D0D0D000EB30C
(1523990517.310854) slcan0 7DD#23000003C7000100
(1523990517.317407) slcan0 7EC#24B3270000840000
(1523990517.326526) slcan0 7EC#259D5600009DF900
(1523990517.333661) slcan0 7E2#0221010000000000
(1523990517.337586) slcan0 7EC#260039E100003782
(1523990517.358953) slcan0 7EA#10166101FFE00000
(1523990517.358974) slcan0 7EC#27001321F00900A0
(1523990517.359532) slcan0 7E2#3010000000000000
(1523990517.366954) slcan0 7EC#280000000003E800
(1523990517.377364) slcan0 7EA#21092192AA05EB02
(1523990517.380495) slcan0 7EC#102D6105FFFFFFFF
(1523990517.381005) slcan0 7E4#3010000000000000
(1523990517.383621) slcan0 7E2#0221020000000000
(1523990517.387243) slcan0 7EA#2200000000196D34
(1523990517.398812) slcan0 7EA#10176102FF800000
(1523990517.398832) slcan0 7EC#2100000000000D0D
(1523990517.399403) slcan0 7E2#3010000000000000
(1523990517.406505) slcan0 7EC#220D0D0D0D0D2648
(1523990517.417861) slcan0 7EA#2101000000008500
(1523990517.417899) slcan0 7EC#2326480001500D0D
(1523990517.426994) slcan0 7EC#2403E85003E8273F
(1523990517.427016) slcan0 7EA#224F7C1D340000D7
(1523990517.433950) slcan0 7E5#0221010000000000
(1523990517.437889) slcan0 7EA#233D583400000000
(1523990517.437912) slcan0 7EC#2500290000000000
(1523990517.459517) slcan0 7EC#2600000000000000
(1523990517.459538) slcan0 7ED#102C6101FFFFF800
(1523990517.483646) slcan0 7E3#0221010000000000
(1523990517.498252) slcan0 7EB#101E6101000003FF
(1523990517.533887) slcan0 7D5#0221010000000000
(1523990517.534362) slcan0 7E5#3010000000000000
(1523990517.534823) slcan0 7E3#3010000000000000
(1523990517.561120) slcan0 7EB#210838007E3D4834
(1523990517.561141) slcan0 7ED#2100780B02970410
(1523990517.561145) slcan0 7DD#101A6101FB180000
(1523990517.567373) slcan0 7EB#2353041A34000000
(1523990517.567394) slcan0 7ED#23051D4100000000
(1523990517.577764) slcan0 7EB#2400000000000000
(1523990517.577786) slcan0 7ED#24002B0000720000
(1523990517.578313) slcan0 7D5#3010000000000000
(1523990517.583765) slcan0 7E4#0221010000000000
(1523990517.587507) slcan0 7ED#25000001F43DC903
(1523990517.599490) slcan0 7EC#103D6101FFFFFFFF
(1523990517.599513) slcan0 7ED#263D000000000000
(1523990517.621170) slcan0 7DD#21AA0DFFF4FCFC02
(1523990517.633902) slcan0 7E4#0221050000000000
(1523990517.634378) slcan0 7E4#3010000000000000
(1523990517.641097) slcan0 7DD#22010201FFFFFFFF
(1523990517.661200) slcan0 7EC#213E264826482000
(1523990517.661223) slcan0 7DD#23000003C7000100
(1523990517.666705) slcan0 7EC#22000D6F0D0D0D0D
(1523990517.677583) slcan0 7EC#230D0D0D000EB31F
(1523990517.683845) slcan0 7E2#0221010000000000
(1523990517.687027) slcan0 7EC#24B3270000840000
(1523990517.698868) slcan0 7EA#10166101FFE00000
(1523990517.698907) slcan0 7EC#259D5600009DF900
(1523990517.706515) slcan0 7EC#260039E100003782
(1523990517.707022) slcan0 7E2#3010000000000000
(1523990517.717768) slcan0 7EA#21092192A705EB02
(1523990517.717790) slcan0 7EC#27001321F009009C
(1523990517.726938) slcan0 7EC#280000000003E800
(1523990517.726961) slcan0 7EA#2200000000E76C34
(1523990517.733680) slcan0 7E2#0221020000000000
(1523990517.737168) slcan0 7EA#2306200000000000
(1523990517.758920) slcan0 7EA#10176102FF800000
(1523990517.783944) slcan0 7E5#0221010000000000
(1523990517.798432) slcan0 7ED#102C6101FFFFF800
(1523990517.798926) slcan0 7E2#3010000000000000
(1523990517.799344) slcan0 7E5#3010000000000000
(1523990517.807145) slcan0 7ED#21007802029A0411
(1523990517.817653) slcan0 7EA#2101000000008500
(1523990517.817663) slcan0 7ED#2200147700340075
(1523990517.827230) slcan0 7EA#224E7C0E340000D8
(1523990517.827242) slcan0 7ED#23051A4100000000
(1523990517.833631) slcan0 7E3#0221010000000000
(1523990517.837673) slcan0 7EA#233C483400000000
(1523990517.837687) slcan0 7ED#24002A0000720000
(1523990517.860332) slcan0 7EB#101E6101000003FF
(1523990517.860356) slcan0 7ED#25000001F43C6C03
(1523990517.883636) slcan0 7D5#0221010000000000
(1523990517.911054) slcan0 7DD#101A6101FB180000
(1523990517.911570) slcan0 7E3#3010000000000000
(1523990517.926573) slcan0 7EB#210838006D3C3A34
(1523990517.927140) slcan0 7D5#3010000000000000
(1523990517.933897) slcan0 7E4#0221010000000000
(1523990517.937597) slcan0 7EB#220000000A003402
(1523990517.961301) slcan0 7EB#235404FC33D0FF00
(1523990517.961339) slcan0 7EC#103D6101FFFFFFFF
(1523990517.961345) slcan0 7DD#21A90DFFF4FCFC02
(1523990517.981386) slcan0 7DD#22010201FFFFFFFF
(1523990517.981902) slcan0 7E4#3010000000000000
(1523990517.983404) slcan0 7E4#0221050000000000
(1523990518.001415) slcan0 7DD#23000003C7000100
(1523990518.033405) slcan0 7E2#0221010000000000
(1523990518.059000) slcan0 7EA#10166101FFE00000
(1523990518.059347) slcan0 7E2#3010000000000000
(1523990518.077390) slcan0 7EA#21092192A705E602
(1523990518.083828) slcan0 7E2#0221020000000000
(1523990518.087025) slcan0 7EA#2200000000BA6C34
(1523990518.098389) slcan0 7EA#10176102FF800000
(1523990518.098838) slcan0 7E2#3010000000000000
(1523990518.117223) slcan0 7EA#2101000000008500
(1523990518.126442) slcan0 7EA#224C7CF233000073
(1523990518.133862) slcan0 7E5#0221010000000000
(1523990518.137548) slcan0 7EA#233B2D3400000000
(1523990518.159127) slcan0 7ED#102C6101FFFFF800
(1523990518.159668) slcan0 7E5#3010000000000000
(1523990518.167437) slcan0 7ED#210077F802990413
(1523990518.177440) slcan0 7ED#2200147700340075
(1523990518.183685) slcan0 7E3#0221010000000000
(1523990518.187429) slcan0 7ED#2305184100000000
(1523990518.199116) slcan0 7EB#101E6101000003FF
(1523990518.199139) slcan0 7ED#24002B0000720000
(1523990518.199592) slcan0 7E3#3010000000000000
(1523990518.207480) slcan0 7ED#25000001F43B5803
(1523990518.217678) slcan0 7EB#210838000B3B1F34
(1523990518.217702) slcan0 7ED#2637000000000000
(1523990518.226652) slcan0 7EB#220000000A003602
(1523990518.233512) slcan0 7D5#0221010000000000
(1523990518.237469) slcan0 7EB#235304DF33300030
(1523990518.261298) slcan0 7EB#24009FFF00000000
(1523990518.261318) slcan0 7DD#101A6101FB180000
(1523990518.283538) slcan0 7E4#0221010000000000
(1523990518.283915) slcan0 7D5#3010000000000000
(1523990518.298256) slcan0 7EC#103D6101FFFFFFFF
(1523990518.298755) slcan0 7E4#3010000000000000
(1523990518.311483) slcan0 7EC#213E264826482000
(1523990518.321734) slcan0 7EC#22000D6F0D0D0D0D
(1523990518.321755) slcan0 7DD#21A90DFFF4FCFC02
(1523990518.331516) slcan0 7EC#230D0D0D000EB302
(1523990518.333537) slcan0 7E4#0221050000000000
(1523990518.341948) slcan0 7EC#24B3270000840000
(1523990518.341972) slcan0 7DD#22010201FFFFFFFF
(1523990518.361364) slcan0 7EC#259D5600009DF900
(1523990518.361383) slcan0 7DD#23000003C7000100
(1523990518.366833) slcan0 7EC#260039E100003782
(1523990518.377510) slcan0 7EC#27001321F1090096
(1523990518.383708) slcan0 7E2#0221010000000000
(1523990518.387199) slcan0 7EC#280000000003E800
(1523990518.398446) slcan0 7EA#10166101FFE00000
(1523990518.401352) slcan0 7EC#102D6105FFFFFFFF
(1523990518.401880) slcan0 7E2#3010000000000000
(1523990518.402360) slcan0 7E4#3010000000000000
(1523990518.417803) slcan0 7EA#21092192AC05E902
(1523990518.417826) slcan0 7EC#2100000000000D0D
(1523990518.426841) slcan0 7EA#22000000008D6C34
(1523990518.426860) slcan0 7EC#220D0D0D0D0D2648
(1523990518.433852) slcan0 7E2#0221020000000000
(1523990518.437748) slcan0 7EA#2306200000000000
(1523990518.437767) slcan0 7EC#2326480001500D0D
(1523990518.459565) slcan0 7EA#10176102FF800000
(1523990518.459587) slcan0 7EC#2403E85003E8273F
(1523990518.466702) slcan0 7EC#2500290000000000
(1523990518.477461) slcan0 7EC#2600000000000000
(1523990518.477936) slcan0 7E2#3010000000000000
(1523990518.483895) slcan0 7E5#0221010000000000
(1523990518.487040) slcan0 7EA#2101000000008500
(1523990518.498923) slcan0 7EA#224B7CE233000069
(1523990518.498948) slcan0 7ED#102C6101FFFFF800
(1523990518.506552) slcan0 7EA#233A193400000000
(1523990518.533963) slcan0 7E3#0221010000000000
(1523990518.534433) slcan0 7E5#3010000000000000
(1523990518.559165) slcan0 7EB#101E6101000003FF
(1523990518.559182) slcan0 7ED#210077EC02970411
(1523990518.559598) slcan0 7E3#3010000000000000
(1523990518.567206) slcan0 7ED#2305164100000000
(1523990518.577705) slcan0 7EB#21083800073A1234
(1523990518.577726) slcan0 7ED#24002B0000720000
(1523990518.583687) slcan0 7D5#0221010000000000
(1523990518.587483) slcan0 7EB#220000000A003502
(1523990518.587505) slcan0 7ED#25000001F43A0103
(1523990518.599581) slcan0 7EB#235304D533300030
(1523990518.599602) slcan0 7ED#262E000000000000
(1523990518.606865) slcan0 7EB#24009FFF00000000
(1523990518.611726) slcan0 7DD#101A6101FB180000
(1523990518.633864) slcan0 7E4#0221010000000000
(1523990518.659266) slcan0 7EC#103D6101FFFFFFFF
(1523990518.659766) slcan0 7D5#3010000000000000
(1523990518.660150) slcan0 7E4#3010000000000000
(1523990518.671605) slcan0 7EC#213E264826482000
(1523990518.681567) slcan0 7EC#22000D6F0D0D0D0D
(1523990518.683464) slcan0 7E4#0221050000000000
(1523990518.691864) slcan0 7EC#230D0D0D000EB311
(1523990518.702329) slcan0 7EC#24B3270000830000
(1523990518.702351) slcan0 7DD#21A90DFFF4FCFC02
(1523990518.711892) slcan0 7EC#259D5600009DF900
(1523990518.722029) slcan0 7DD#22010201FFFFFFFF
(1523990518.722055) slcan0 7EC#260039E100003782
(1523990518.731758) slcan0 7EC#27001321F1090093
(1523990518.733793) slcan0 7E2#0221010000000000
(1523990518.742145) slcan0 7DD#23000003C7000100
(1523990518.742167) slcan0 7EC#280000000003E800
(1523990518.759423) slcan0 7EA#10166101FFE00000
(1523990518.759445) slcan0 7EC#102D6105FFFFFFFF
(1523990518.783776) slcan0 7E2#0221020000000000
(1523990518.798544) slcan0 7EA#10176102FF800000
(1523990518.799082) slcan0 7E2#3010000000000000
(1523990518.799514) slcan0 7E4#3010000000000000
(1523990518.799948) slcan0 7E2#3010000000000000
(1523990518.807184) slcan0 7EA#2101000000008500
(1523990518.817955) slcan0 7EA#22497CCD33000015
(1523990518.817979) slcan0 7EC#2100000000000D0D
(1523990518.827298) slcan0 7EA#2339073400000000
(1523990518.827322) slcan0 7EC#220D0D0D0D0D2648
(1523990518.833901) slcan0 7E5#0221010000000000
(1523990518.837376) slcan0 7EC#2326480001500D0D
(1523990518.860388) slcan0 7EC#2403E85003E8273F
(1523990518.860410) slcan0 7ED#102C6101FFFFF800
(1523990518.867071) slcan0 7EC#2500290000000000
(1523990518.877351) slcan0 7EC#2600000000000000
(1523990518.877876) slcan0 7E5#3010000000000000
(1523990518.883639) slcan0 7E3#0221010000000000
(1523990518.887199) slcan0 7ED#210077E702990412
(1523990518.899160) slcan0 7EB#101E6101000003FF
(1523990518.899183) slcan0 7ED#2200147700340075
(1523990518.899666) slcan0 7E3#3010000000000000
(1523990518.907207) slcan0 7EB#21083800AE38F733
(1523990518.907227) slcan0 7ED#2305154100000000
(1523990518.918090) slcan0 7EB#220000000A003602
(1523990518.918133) slcan0 7ED#24002B0000720000
(1523990518.927378) slcan0 7EB#235204B733000000
(1523990518.927402) slcan0 7ED#25000001F4390103
(1523990518.933889) slcan0 7D5#0221010000000000
(1523990518.938159) slcan0 7EB#2400000000000000
(1523990518.938180) slcan0 7ED#263C000000000000
(1523990518.961950) slcan0 7DD#101A6101FB180000
(1523990518.983640) slcan0 7E4#0221010000000000
(1523990518.998322) slcan0 7EC#103D6101FFFFFFFF
(1523990519.033677) slcan0 7E4#0221050000000000
(1523990519.034083) slcan0 7D5#3010000000000000
(1523990519.034504) slcan0 7E4#3010000000000000
(1523990519.058988) slcan0 7EC#213E264826482000
(1523990519.066948) slcan0 7EC#22000D6F0D0D0D0D
(1523990519.071679) slcan0 7DD#21A80DFFF4FCFC02
(1523990519.077507) slcan0 7EC#230D0D0D000EB306
(1523990519.083678) slcan0 7E2#0221010000000000
(1523990519.087112) slcan0 7EC#24B2270000840000
(1523990519.091678) slcan0 7DD#22010202FFFFFFFF
(1523990519.098972) slcan0 7EA#10166101FFE00000
(1523990519.098988) slcan0 7EC#259D5600009DF900
(1523990519.099279) slcan0 7E2#3010000000000000
(1523990519.107160) slcan0 7EA#21092192A705E402
(1523990519.107176) slcan0 7EC#260039E100003782
(1523990519.111736) slcan0 7DD#23000003C7000100
(1523990519.118292) slcan0 7EA#22000000002F6C34
(1523990519.118332) slcan0 7EC#27001321F1090090
(1523990519.127469) slcan0 7EA#2306200000000000
(1523990519.127492) slcan0 7EC#280000000003E800
(1523990519.133709) slcan0 7E2#0221020000000000
(1523990519.159396) slcan0 7EA#10176102FF800000
(1523990519.183587) slcan0 7E5#0221010000000000
(1523990519.198790) slcan0 7ED#102C6101FFFFF800
(1523990519.199249) slcan0 7E2#3010000000000000
(1523990519.199589) slcan0 7E5#3010000000000000
(1523990519.207516) slcan0 7EA#2101000000008400
(1523990519.207537) slcan0 7ED#210077DD02990412
(1523990519.218128) slcan0 7EA#22487BB4330000FB
(1523990519.218148) slcan0 7ED#2200147700340075
(1523990519.227570) slcan0 7EA#2337F03300000000
(1523990519.227591) slcan0 7ED#2305124100000000
(1523990519.233661) slcan0 7E3#0221010000000000
(1523990519.237823) slcan0 7ED#24002B0000720000
(1523990519.259541) slcan0 7EB#101E6101000003FF
(1523990519.259558) slcan0 7ED#25000001F437A003
(1523990519.283692) slcan0 7D5#0221010000000000
(1523990519.311799) slcan0 7DD#101A6101FB180000
(1523990519.312272) slcan0 7E3#3010000000000000
(1523990519.326446) slcan0 7EB#21083800A337E233
(1523990519.327029) slcan0 7D5#3010000000000000
(1523990519.333894) slcan0 7E4#0221010000000000
(1523990519.337404) slcan0 7EB#220000000A003502
(1523990519.362108) slcan0 7EB#235404A933180030
(1523990519.362144) slcan0 7EC#103D6101FFFFFFFF
(1523990519.362146) slcan0 7DD#21A80DFFF4FCFC02
(1523990519.381942) slcan0 7DD#22010201FFFFFFFF
(1523990519.382538) slcan0 7E4#3010000000000000
(1523990519.383348) slcan0 7E4#0221050000000000
(1523990519.402061) slcan0 7DD#23000003C7000100
(1523990519.433758) slcan0 7E2#0221010000000000
(1523990519.459384) slcan0 7EA#10166101FFE00000
(1523990519.459974) slcan0 7E2#3010000000000000
(1523990519.466725) slcan0 7EA#21092192AA05E402
(1523990519.477718) slcan0 7EA#2200000000036C34
(1523990519.483962) slcan0 7E2#0221020000000000
(1523990519.487218) slcan0 7EA#2306200000000000
(1523990519.498826) slcan0 7EA#10176102FF800000
(1523990519.499318) slcan0 7E2#3010000000000000
(1523990519.506433) slcan0 7EA#2101000000008400
(1523990519.517891) slcan0 7EA#22467B9F330000AD
(1523990519.526500) slcan0 7EA#2336D63300000000
(1523990519.533771) slcan0 7E5#0221010000000000
(1523990519.558855) slcan0 7ED#102C6101FFFFF800
(1523990519.559413) slcan0 7E5#3010000000000000
(1523990519.567183) slcan0 7ED#210077D7029A0411
(1523990519.577697) slcan0 7ED#2200147703E80075
(1523990519.583874) slcan0 7E3#0221010000000000
(1523990519.587460) slcan0 7ED#2305104100000000
(1523990519.599502) slcan0 7EB#101E6101000003FF
(1523990519.599521) slcan0 7ED#2400550223720000
(1523990519.599950) slcan0 7E3#3010000000000000
(1523990519.607763) slcan0 7EB#210838005436C033
(1523990519.607784) slcan0 7ED#25000001F4369C03
(1523990519.618463) slcan0 7EB#220000000A003602
(1523990519.618485) slcan0 7ED#263B000000000000
(1523990519.626688) slcan0 7EB#2351049033000018
(1523990519.633898) slcan0 7D5#0221010000000000
(1523990519.637447) slcan0 7EB#2400E8FF00000000
(1523990519.662019) slcan0 7DD#101A6101FB180000
(1523990519.683560) slcan0 7E4#0221010000000000
(1523990519.684000) slcan0 7D5#3010000000000000
(1523990519.698801) slcan0 7EC#103D6101FFFFFFFF
(1523990519.699341) slcan0 7E4#3010000000000000
(1523990519.712592) slcan0 7EC#213E264826482000
(1523990519.722887) slcan0 7DD#21A80DFFF4FCFC02
(1523990519.722908) slcan0 7EC#22000D6F0D0D0D0D
(1523990519.732609) slcan0 7EC#230D0D0D000EB30D
(1523990519.733495) slcan0 7E4#0221050000000000
(1523990519.742559) slcan0 7DD#22010201FFFFFFFF
(1523990519.742575) slcan0 7EC#24B3270000830000
(1523990519.758845) slcan0 7EC#259D5600009DF900
(1523990519.762321) slcan0 7DD#23000003C7000100
(1523990519.767859) slcan0 7EC#260039E100003782
(1523990519.777817) slcan0 7EC#27001321F209008A
(1523990519.783964) slcan0 7E2#0221010000000000
(1523990519.787901) slcan0 7EC#280000000003E800
(1523990519.798877) slcan0 7EA#10166101FFE00000
(1523990519.799454) slcan0 7E2#3010000000000000
(1523990519.803186) slcan0 7EC#102D6105FFFFFFFF
(1523990519.803776) slcan0 7E4#3010000000000000
(1523990519.807118) slcan0 7EA#21092192AC05E402
(1523990519.818222) slcan0 7EA#2200000000D36B34
(1523990519.818243) slcan0 7EC#2100000000000D0D
(1523990519.827868) slcan0 7EA#2306200000000000
(1523990519.827890) slcan0 7EC#220D0D0D0D0D2648
(1523990519.833954) slcan0 7E2#0221020000000000
(1523990519.837893) slcan0 7EC#2326480001500D0D
(1523990519.860651) slcan0 7EA#10176102FF800000
(1523990519.860673) slcan0 7EC#2403E85003E8273F
(1523990519.867793) slcan0 7EC#2500290000000000
(1523990519.868472) slcan0 7E2#3010000000000000
(1523990519.877822) slcan0 7EA#2101000000008400
(1523990519.877845) slcan0 7EC#2600000000000000
(1523990519.883737) slcan0 7E5#0221010000000000
(1523990519.887101) slcan0 7EA#22457B90330000AF
(1523990519.899559) slcan0 7EA#2335C63300000000
(1523990519.899580) slcan0 7ED#102C6101FFFFF800
(1523990519.933632) slcan0 7E3#0221010000000000
(1523990519.959037) slcan0 7EB#101E6101000003FF
(1523990519.959421) slcan0 7E5#3010000000000000
(1523990519.959809) slcan0 7E3#3010000000000000
(1523990519.967752) slcan0 7EB#210838004E35B333
(1523990519.967773) slcan0 7ED#210077CC02980411
(1523990519.977844) slcan0 7EB#220000000A003802
(1523990519.977867) slcan0 7ED#2200147704010075
(1523990519.983930) slcan0 7D5#0221010000000000
(1523990519.988085) slcan0 7EB#2351048633180030
(1523990519.988106) slcan0 7ED#23050E4100000000
(1523990519.999601) slcan0 7EB#2400B7FF00000000
(1523990519.999626) slcan0 7ED#24005503E8720000
(1523990520.007852) slcan0 7ED#25000001F4354003
(1523990520.012148) slcan0 7DD#101A6101FB180000
(1523990520.018026) slcan0 7ED#263E000000000000
(1523990520.033656) slcan0 7E4#0221010000000000
(1523990520.059533) slcan0 7EC#103D6101FFFFFFFF
(1523990520.060103) slcan0 7D5#3010000000000000
(1523990520.083546) slcan0 7E4#0221050000000000
(1523990520.083971) slcan0 7E4#3010000000000000
(1523990520.099137) slcan0 7EC#213E264826482000
(1523990520.102984) slcan0 7DD#21A80DFFF4FCFC02
(1523990520.108150) slcan0 7EC#22000D6F0D0D0D0D
(1523990520.118297) slcan0 7EC#230D0D0D000EB30B
(1523990520.122745) slcan0 7DD#22010201FFFFFFFF
(1523990520.128326) slcan0 7EC#24B3270000830000
(1523990520.133643) slcan0 7E2#0221010000000000
(1523990520.138419) slcan0 7EC#259D5600009DF900
(1523990520.143032) slcan0 7DD#23000003C7000100
(1523990520.160069) slcan0 7EA#10166101FFE00000
(1523990520.160092) slcan0 7EC#260039E100003782
(1523990520.160557) slcan0 7E2#3010000000000000
(1523990520.168401) slcan0 7EA#21092192A705E602
(1523990520.168424) slcan0 7EC#27001321F2090087
(1523990520.178083) slcan0 7EA#2200000000A66B34
(1523990520.178111) slcan0 7EC#280000000003E800
(1523990520.183629) slcan0 7E2#0221020000000000
(1523990520.187132) slcan0 7EA#2306200000000000
(1523990520.199166) slcan0 7EA#10176102FF800000
(1523990520.233753) slcan0 7E5#0221010000000000
(1523990520.234209) slcan0 7E2#3010000000000000
(1523990520.260052) slcan0 7EA#2101000000008400
(1523990520.260075) slcan0 7ED#102C6101FFFFF800
(1523990520.266483) slcan0 7EA#2334AC3300000000
(1523990520.267033) slcan0 7E5#3010000000000000
(1523990520.277862) slcan0 7ED#210077BF02980410
(1523990520.283658) slcan0 7E3#0221010000000000
(1523990520.288308) slcan0 7ED#2200147704000075
(1523990520.299479) slcan0 7EB#101E6101000003FF
(1523990520.299500) slcan0 7ED#23050C4100000000
(1523990520.300031) slcan0 7E3#3010000000000000
(1523990520.308399) slcan0 7EB#21083800FB339F33
(1523990520.308420) slcan0 7ED#24005503E8720000
(1523990520.319073) slcan0 7EB#220000000A003502
(1523990520.319095) slcan0 7ED#25000001F4343903
(1523990520.328127) slcan0 7EB#2353047833300018
(1523990520.328149) slcan0 7ED#263D000000000000
(1523990520.333859) slcan0 7D5#0221010000000000
(1523990520.337519) slcan0 7EB#2400B7FF00000000
(1523990520.362472) slcan0 7DD#101A6101FB180000
(1523990520.383753) slcan0 7E4#0221010000000000
(1523990520.398948) slcan0 7EC#103D6101FFFFFFFF
(1523990520.399473) slcan0 7D5#3010000000000000
(1523990520.399938) slcan0 7E4#3010000000000000
(1523990520.416569) slcan0 7EC#213E264826482000
(1523990520.425958) slcan0 7EC#22000D6F0D0D0D0D
(1523990520.433611) slcan0 7E4#0221050000000000
(1523990520.436811) slcan0 7EC#230D0D0D000EB304
(1523990520.442512) slcan0 7DD#21A70DFFF4FCFC02
(1523990520.459739) slcan0 7EC#24B3270000820000
(1523990520.462648) slcan0 7DD#22010202FFFFFFFF
(1523990520.468858) slcan0 7EC#259D5600009DF900
(1523990520.478783) slcan0 7EC#260039E100003782
(1523990520.482780) slcan0 7DD#23000003C7000100
(1523990520.483435) slcan0 7E2#0221010000000000
(1523990520.488604) slcan0 7EC#27001321F3090084
(1523990520.499435) slcan0 7EA#10166101FFE00000
(1523990520.499455) slcan0 7EC#280000000003E800
(1523990520.499969) slcan0 7E2#3010000000000000
(1523990520.506508) slcan0 7EA#21092192A505E402
(1523990520.517107) slcan0 7EC#102D6105FFFFFFFF
(1523990520.517128) slcan0 7EA#22000000007A6B34
(1523990520.517594) slcan0 7E4#3010000000000000
(1523990520.528766) slcan0 7EA#2306200000000000
(1523990520.528804) slcan0 7EC#2100000000000D0D
(1523990520.533593) slcan0 7E2#0221020000000000
(1523990520.538518) slcan0 7EC#220D0D0D0D0D2648
(1523990520.559674) slcan0 7EA#10176102FF800000
(1523990520.559694) slcan0 7EC#2326480001500D0D
(1523990520.560168) slcan0 7E2#3010000000000000
(1523990520.568563) slcan0 7EA#2101000000008400
(1523990520.568577) slcan0 7EC#2403E85003E8273F
