(1523989542.313088) slcan0 7E4#0221010000000000
(1523989542.363295) slcan0 7E4#0221020000000000
(1523989542.413592) slcan0 7E4#0221030000000000
(1523989542.463604) slcan0 7E4#0221040000000000
(1523989542.513576) slcan0 7E4#0221050000000000
(1523989542.563618) slcan0 7E2#0221010000000000
(1523989542.574927) slcan0 7EA#10166101FFE00000
(1523989542.575524) slcan0 7E2#3010000000000000
(1523989542.585103) slcan0 7EA#21092180A505E402
(1523989542.594980) slcan0 7EA#2200000000776330
(1523989542.605215) slcan0 7EA#2304200000000000
(1523989542.613252) slcan0 7E2#0221020000000000
(1523989542.624915) slcan0 7EA#10176102FF800000
(1523989542.625305) slcan0 7E2#3010000000000000
(1523989542.634890) slcan0 7EA#2101010000008C1B
(1523989542.644983) slcan0 7EA#22AC7697364B0A81
(1523989542.655117) slcan0 7EA#2386863600000000
(1523989542.663254) slcan0 7E5#0221010000000000
(1523989542.713399) slcan0 7E3#0221010000000000
(1523989542.763348) slcan0 7D5#0221010000000000
(1523989542.792985) slcan0 7DD#101A6101FB180000
(1523989542.793538) slcan0 7D5#3010000000000000
(1523989542.813604) slcan0 7E4#0221010000000000
(1523989542.832837) slcan0 7DD#219A0CFFF4FCFD02
(1523989542.853043) slcan0 7DD#22010202FFFFFFFF
(1523989542.863613) slcan0 7E4#0221050000000000
(1523989542.873026) slcan0 7DD#23000003C4000100
(1523989542.913445) slcan0 7E2#0221010000000000
(1523989542.925126) slcan0 7EA#10166101FFE00000
(1523989542.925649) slcan0 7E2#3010000000000000
(1523989542.935102) slcan0 7EA#21092181A705E402
(1523989542.945145) slcan0 7EA#2200000000576330
(1523989542.955157) slcan0 7EA#2304200000000000
(1523989542.963583) slcan0 7E2#0221020000000000
(1523989542.974964) slcan0 7EA#10176102FF800000
(1523989542.975465) slcan0 7E2#3010000000000000
(1523989542.984915) slcan0 7EA#2101010000008C1B
(1523989542.994857) slcan0 7EA#22AC7697364B0A81
(1523989543.005248) slcan0 7EA#2386863600000000
(1523989543.013366) slcan0 7E5#0221010000000000
(1523989543.063397) slcan0 7E3#0221010000000000
(1523989543.113468) slcan0 7D5#0221010000000000
(1523989543.142898) slcan0 7DD#101A6101FB180000
(1523989543.143435) slcan0 7D5#3010000000000000
(1523989543.163449) slcan0 7E4#0221010000000000
(1523989543.183060) slcan0 7DD#219A0CFFF4FCFD02
(1523989543.203276) slcan0 7DD#22010201FFFFFFFF
(1523989543.213596) slcan0 7E4#0221050000000000
(1523989543.222957) slcan0 7DD#23000003C4000100
(1523989543.263435) slcan0 7E2#0221010000000000
(1523989543.275185) slcan0 7EA#10166101FFE00000
(1523989543.275716) slcan0 7E2#3010000000000000
(1523989543.284904) slcan0 7EA#21092181A705E902
(1523989543.295096) slcan0 7EA#2200000000236330
(1523989543.305370) slcan0 7EA#2304200000000000
(1523989543.313559) slcan0 7E2#0221020000000000
(1523989543.324958) slcan0 7EA#10176102FF800000
(1523989543.325504) slcan0 7E2#3010000000000000
(1523989543.334940) slcan0 7EA#2101010000008C1B
(1523989543.345070) slcan0 7EA#22AC7697364B0A81
(1523989543.354926) slcan0 7EA#2386863600000000
(1523989543.363426) slcan0 7E5#0221010000000000
(1523989543.413426) slcan0 7E3#0221010000000000
(1523989543.463685) slcan0 7D5#0221010000000000
(1523989543.493222) slcan0 7DD#101A6101FB180000
(1523989543.493766) slcan0 7D5#3010000000000000
(1523989543.513422) slcan0 7E4#0221010000000000
(1523989543.533372) slcan0 7DD#219A0CFFF4FCFD02
(1523989543.553172) slcan0 7DD#22020202FFFFFFFF
(1523989543.563612) slcan0 7E4#0221050000000000
(1523989543.573392) slcan0 7DD#23000003C4000100
(1523989543.613372) slcan0 7E2#0221010000000000
(1523989543.625240) slcan0 7EA#10166101FFE00000
(1523989543.625568) slcan0 7E2#3010000000000000
(1523989543.634853) slcan0 7EA#21092181A205E102
(1523989543.644983) slcan0 7EA#2200000000FC6230
(1523989543.654958) slcan0 7EA#2304200000000000
(1523989543.663451) slcan0 7E2#0221020000000000
(1523989543.675132) slcan0 7EA#10176102FF800000
(1523989543.675601) slcan0 7E2#3010000000000000
(1523989543.684971) slcan0 7EA#2101010000008C1B
(1523989543.694969) slcan0 7EA#22AC7697364B0A81
(1523989543.705233) slcan0 7EA#2386863600000000
(1523989543.713606) slcan0 7E5#0221010000000000
(1523989543.763594) slcan0 7E3#0221010000000000
(1523989543.813475) slcan0 7D5#0221010000000000
(1523989543.843445) slcan0 7DD#101A6101FB180000
(1523989543.843905) slcan0 7D5#3010000000000000
(1523989543.863563) slcan0 7E4#0221010000000000
(1523989543.883317) slcan0 7DD#219A0CFFF4FCFD02
(1523989543.903830) slcan0 7DD#22010202FFFFFFFF
(1523989543.913355) slcan0 7E4#0221050000000000
(1523989543.923522) slcan0 7DD#23000003C4000100
(1523989543.962999) slcan0 7E2#0221010000000000
(1523989544.013597) slcan0 7E2#0221020000000000
(1523989544.022500) slcan0 7EA#10176102FF800000
(1523989544.023068) slcan0 7E2#3010000000000000
(1523989544.032435) slcan0 7EA#2100000000000000
(1523989544.042469) slcan0 7EA#2200000000000000
(1523989544.052470) slcan0 7EA#2300000000000000
(1523989544.063221) slcan0 7E5#0221010000000000
(1523989544.075886) slcan0 7ED#102C6101FFFFF800
(1523989544.076245) slcan0 7E5#3010000000000000
(1523989544.088871) slcan0 7ED#2101021A01330039
(1523989544.095900) slcan0 7ED#2200008B003301B8
(1523989544.107984) slcan0 7ED#2302134100000000
(1523989544.113451) slcan0 7E3#0221010000000000
(1523989544.116490) slcan0 7ED#2400000000600000
(1523989544.126668) slcan0 7ED#25000001F0014A02
(1523989544.126689) slcan0 7EB#101E6101000003FF
(1523989544.136324) slcan0 7ED#26E2000000000000
(1523989544.136825) slcan0 7E3#3010000000000000
(1523989544.146534) slcan0 7EB#210038013801CE2E
(1523989544.156478) slcan0 7EB#220000000A004602
(1523989544.163363) slcan0 7D5#0221010000000000
(1523989544.166886) slcan0 7EB#236204C22EC3FEDC
(1523989544.176789) slcan0 7EB#24FE620200000000
(1523989544.193494) slcan0 7DD#101A6101FB180000
(1523989544.193852) slcan0 7D5#3010000000000000
(1523989544.213307) slcan0 7E4#0221010000000000
(1523989544.224566) slcan0 7EC#103D6101FFFFFFFF
(1523989544.225140) slcan0 7E4#3010000000000000
(1523989544.233555) slcan0 7DD#21980DFFF4FCFD02
(1523989544.238435) slcan0 7EC#2140264826480000
(1523989544.248215) slcan0 7EC#22000D760D0D0D0D
(1523989544.253743) slcan0 7DD#22010201FFFFFFFF
(1523989544.258432) slcan0 7EC#23000000000DB302
(1523989544.263285) slcan0 7E4#0221050000000000
(1523989544.269507) slcan0 7EC#24B3270000770000
(1523989544.273675) slcan0 7DD#23000003C4000100
(1523989544.278519) slcan0 7EC#259D5500009DF000
(1523989544.289276) slcan0 7EC#260039E100003780
(1523989544.298279) slcan0 7EC#2700131E55080003
(1523989544.308360) slcan0 7EC#280000000003E800
(1523989544.313404) slcan0 7E2#0221010000000000
(1523989544.324073) slcan0 7EA#10166101FFE00000
(1523989544.324094) slcan0 7EC#102D6105FFFFFFFF
(1523989544.324595) slcan0 7E2#3010000000000000
(1523989544.324987) slcan0 7E4#3010000000000000
(1523989544.332686) slcan0 7EA#21090195AF05F302
(1523989544.338323) slcan0 7EC#2100000000000000
(1523989544.342475) slcan0 7EA#2200000000251C34
(1523989544.348347) slcan0 7EC#2200000000002648
(1523989544.352786) slcan0 7EA#2301200000000000
(1523989544.358368) slcan0 7EC#2326480001640D0D
(1523989544.363309) slcan0 7E2#0221020000000000
(1523989544.369615) slcan0 7EC#2403E85003E82741
(1523989544.372717) slcan0 7EA#10176102FF800000
(1523989544.373194) slcan0 7E2#3010000000000000
(1523989544.378387) slcan0 7EC#2500290000000000
(1523989544.389572) slcan0 7EA#2101000000007800
(1523989544.389593) slcan0 7EC#2600000000000000
(1523989544.392476) slcan0 7EA#220275C72E000051
(1523989544.402550) slcan0 7EA#2301D32E00000000
(1523989544.413294) slcan0 7E5#0221010000000000
(1523989544.426177) slcan0 7ED#102C6101FFFFF800
(1523989544.426660) slcan0 7E5#3010000000000000
(1523989544.436099) slcan0 7ED#21010266026103A1
(1523989544.446181) slcan0 7ED#22001073003301BD
(1523989544.456237) slcan0 7ED#2304924100000000
(1523989544.463340) slcan0 7E3#0221010000000000
(1523989544.466973) slcan0 7ED#24000C0000600000
(1523989544.477139) slcan0 7ED#25000001F4030D02
(1523989544.477161) slcan0 7EB#101E6101000003FF
(1523989544.489180) slcan0 7ED#26EC000000000000
(1523989544.489727) slcan0 7E3#3010000000000000
(1523989544.496878) slcan0 7EB#210838012935B22E
(1523989544.508400) slcan0 7EB#220000000A004702
(1523989544.513300) slcan0 7D5#0221010000000000
(1523989544.517063) slcan0 7EB#236004A52E180018
(1523989544.526892) slcan0 7EB#2400D0FF00000000
(1523989544.543853) slcan0 7DD#101A6101FB180000
(1523989544.544392) slcan0 7D5#3010000000000000
(1523989544.563484) slcan0 7E4#0221010000000000
(1523989544.578628) slcan0 7EC#103D6101FFFFFFFF
(1523989544.579214) slcan0 7E4#3010000000000000
(1523989544.583689) slcan0 7DD#21980DFFF4FCFD02
(1523989544.598753) slcan0 7EC#2140264826480000
(1523989544.603896) slcan0 7DD#22010202FFFFFFFF
(1523989544.608599) slcan0 7EC#22000D760D0D0D0D
(1523989544.613641) slcan0 7E4#0221050000000000
(1523989544.618716) slcan0 7EC#230D0D0D000DB302
(1523989544.623924) slcan0 7DD#23000003C4000100
(1523989544.628915) slcan0 7EC#24B3270000760000
(1523989544.638683) slcan0 7EC#259D5500009DF000
(1523989544.648665) slcan0 7EC#260039E100003780
(1523989544.658898) slcan0 7EC#2700131E55090088
(1523989544.663481) slcan0 7E2#0221010000000000
(1523989544.669983) slcan0 7EC#280000000003E800
(1523989544.672654) slcan0 7EA#10166101FFE00000
(1523989544.673175) slcan0 7E2#3010000000000000
(1523989544.689344) slcan0 7EA#21090195B105EE02
(1523989544.689365) slcan0 7EC#102D6105FFFFFFFF
(1523989544.692995) slcan0 7EA#2200000000943034
(1523989544.693570) slcan0 7E4#3010000000000000
(1523989544.704162) slcan0 7EA#2301200000000000
(1523989544.704183) slcan0 7EC#2100000000000D00
(1523989544.713294) slcan0 7E2#0221020000000000
(1523989544.716349) slcan0 7EC#2200000000002648
(1523989544.723924) slcan0 7EA#10176102FF800000
(1523989544.723946) slcan0 7EC#23264800014B0D0D
(1523989544.724494) slcan0 7E2#3010000000000000
(1523989544.734011) slcan0 7EA#2101000000007800
(1523989544.734034) slcan0 7EC#2403E85003E82741
(1523989544.743953) slcan0 7EA#22AC75B12E000084
(1523989544.743975) slcan0 7EC#2500290000000000
(1523989544.754064) slcan0 7EA#2386BB2E00000000
(1523989544.754086) slcan0 7EC#2600000000000000
(1523989544.763487) slcan0 7E5#0221010000000000
(1523989544.776240) slcan0 7ED#102C6101FFFFF800
(1523989544.813504) slcan0 7E3#0221010000000000
(1523989544.827460) slcan0 7EB#101E6101000003FF
(1523989544.827970) slcan0 7E5#3010000000000000
(1523989544.828403) slcan0 7E3#3010000000000000
(1523989544.837419) slcan0 7ED#21010262025C03B5
(1523989544.837440) slcan0 7EB#2108380178869E2E
(1523989544.847304) slcan0 7ED#22001073003301BD
(1523989544.847326) slcan0 7EB#220000000A004602
(1523989544.857367) slcan0 7ED#2304914100000000
(1523989544.857389) slcan0 7EB#2362049B2E180018
(1523989544.863569) slcan0 7D5#0221010000000000
(1523989544.867386) slcan0 7ED#2400210000600000
(1523989544.867408) slcan0 7EB#2400D0FF00000000
(1523989544.876127) slcan0 7ED#25000001F486EF02
(1523989544.889215) slcan0 7ED#26F3000000000000
(1523989544.894167) slcan0 7DD#101A6101FB180000
(1523989544.913646) slcan0 7E4#0221010000000000
(1523989544.923949) slcan0 7EC#103D6101FFFFFFFF
(1523989544.963434) slcan0 7E4#0221050000000000
(1523989544.963842) slcan0 7D5#3010000000000000
(1523989544.964261) slcan0 7E4#3010000000000000
(1523989544.978945) slcan0 7EC#2140264826480300
(1523989544.989079) slcan0 7EC#22000D760D0D0D0D
(1523989544.998976) slcan0 7EC#230D0D0D000DB302
(1523989545.004286) slcan0 7DD#21980DFFF4FCFD02
(1523989545.009012) slcan0 7EC#24B3270000760000
(1523989545.013377) slcan0 7E2#0221010000000000
(1523989545.018953) slcan0 7EC#259D5500009DF000
(1523989545.024488) slcan0 7EA#10166101FFE00000
(1523989545.024509) slcan0 7DD#22010201FFFFFFFF
(1523989545.025053) slcan0 7E2#3010000000000000
(1523989545.029234) slcan0 7EC#260039E100003780
(1523989545.032859) slcan0 7EA#21090159AC05F302
(1523989545.039165) slcan0 7EC#2700131E550D0158
(1523989545.044231) slcan0 7EA#2200000000EA3E34
(1523989545.044252) slcan0 7DD#23000003C4000100
(1523989545.049332) slcan0 7EC#280000000003E800
(1523989545.053023) slcan0 7EA#2304200000000000
(1523989545.063373) slcan0 7E2#0221020000000000
(1523989545.072798) slcan0 7EA#10176102FF800000
(1523989545.073239) slcan0 7E2#3010000000000000
(1523989545.089262) slcan0 7EA#2101010000007803
(1523989545.092975) slcan0 7EA#22AC75D82E5C018A
(1523989545.102898) slcan0 7EA#2386C22E00000000
(1523989545.113373) slcan0 7E5#0221010000000000
(1523989545.126276) slcan0 7ED#102C6101FFFFF800
(1523989545.126740) slcan0 7E5#3010000000000000
(1523989545.136470) slcan0 7ED#21010264025F03B7
(1523989545.146246) slcan0 7ED#22001073003301BD
(1523989545.156036) slcan0 7ED#2304944100000000
(1523989545.163337) slcan0 7E3#0221010000000000
(1523989545.166798) slcan0 7ED#2400220000600000
(1523989545.177555) slcan0 7ED#25000001F486EE02
(1523989545.177568) slcan0 7EB#101E6101000003FF
(1523989545.189278) slcan0 7ED#26F3000000000000
(1523989545.189740) slcan0 7E3#3010000000000000
(1523989545.197763) slcan0 7EB#210C38017286B92E
(1523989545.207700) slcan0 7EB#220000000A004D02
(1523989545.213395) slcan0 7D5#0221010000000000
(1523989545.217528) slcan0 7EB#236204C22E490030
(1523989545.227559) slcan0 7EB#240086FF00000000
(1523989545.244300) slcan0 7DD#101A6101FB180000
(1523989545.244823) slcan0 7D5#3010000000000000
(1523989545.263380) slcan0 7E4#0221010000000000
(1523989545.274279) slcan0 7EC#103D6101FFFFFFFF
(1523989545.274835) slcan0 7E4#3010000000000000
(1523989545.284339) slcan0 7DD#21980DFFF4FCFD02
(1523989545.289554) slcan0 7EC#2140264826480300
(1523989545.299520) slcan0 7EC#22000D760D0D0D0D
(1523989545.304202) slcan0 7DD#22010202FFFFFFFF
(1523989545.309620) slcan0 7EC#230D0D0D000DB302
(1523989545.313549) slcan0 7E4#0221050000000000
(1523989545.319457) slcan0 7EC#24B3270000760000
(1523989545.324378) slcan0 7DD#23000003C4000100
(1523989545.329327) slcan0 7EC#259D5500009DF000
(1523989545.339334) slcan0 7EC#260039E100003780
(1523989545.349452) slcan0 7EC#2700131E560D0158
(1523989545.359531) slcan0 7EC#280000000003E800
(1523989545.363416) slcan0 7E2#0221010000000000
(1523989545.374622) slcan0 7EA#10166101FFE00000
(1523989545.374648) slcan0 7EC#102D6105FFFFFFFF
(1523989545.375200) slcan0 7E2#3010000000000000
(1523989545.375647) slcan0 7E4#3010000000000000
(1523989545.382991) slcan0 7EA#21090159B405EE02
(1523989545.389767) slcan0 7EC#2100000000000D0D
(1523989545.392905) slcan0 7EA#2200000000114934
(1523989545.399512) slcan0 7EC#220D0D0D0D0D2648
(1523989545.402933) slcan0 7EA#2304200000000000
(1523989545.409503) slcan0 7EC#2326480001500D0D
(1523989545.413553) slcan0 7E2#0221020000000000
(1523989545.419632) slcan0 7EC#2403E85003E82741
(1523989545.424135) slcan0 7EA#10176102FF800000
(1523989545.424631) slcan0 7E2#3010000000000000
(1523989545.429688) slcan0 7EC#2500290000000000
(1523989545.432728) slcan0 7EA#210101000000780E
(1523989545.439489) slcan0 7EC#2600000000000000
(1523989545.442795) slcan0 7EA#22AC75102F90057D
(1523989545.453120) slcan0 7EA#2386EC2E00000000
(1523989545.463241) slcan0 7E5#0221010000000000
(1523989545.476137) slcan0 7ED#102C6101FFFFF800
(1523989545.476604) slcan0 7E5#3010000000000000
(1523989545.489457) slcan0 7ED#21010264026003B8
(1523989545.496276) slcan0 7ED#22001173003301BD
(1523989545.506933) slcan0 7ED#23049B4100000000
(1523989545.513527) slcan0 7E3#0221010000000000
(1523989545.516883) slcan0 7ED#2400230000600000
(1523989545.528148) slcan0 7ED#25000001F486EC02
(1523989545.528170) slcan0 7EB#101E6101000003FF
(1523989545.536619) slcan0 7ED#26F1000000000000
(1523989545.537126) slcan0 7E3#3010000000000000
(1523989545.547808) slcan0 7EB#210C38017886EF2E
(1523989545.557843) slcan0 7EB#220000000A004C02
(1523989545.563461) slcan0 7D5#0221010000000000
(1523989545.568079) slcan0 7EB#236004072F490030
(1523989545.578171) slcan0 7EB#240086FF00000000
(1523989545.594290) slcan0 7DD#101A6101FB180000
(1523989545.594783) slcan0 7D5#3010000000000000
(1523989545.613637) slcan0 7E4#0221010000000000
(1523989545.624897) slcan0 7EC#103D6101FFFFFFFF
(1523989545.625449) slcan0 7E4#3010000000000000
(1523989545.634510) slcan0 7DD#219A0DFFF4FCFD02
(1523989545.639828) slcan0 7EC#2140264826480300
(1523989545.649933) slcan0 7EC#22040D760D0D0D0D
(1523989545.654260) slcan0 7DD#22010202FFFFFFFF
(1523989545.659841) slcan0 7EC#230D0D0D000DB302
(1523989545.663441) slcan0 7E4#0221050000000000
(1523989545.670347) slcan0 7EC#24B3270000770000
(1523989545.674542) slcan0 7DD#23000003C4000100
(1523989545.679816) slcan0 7EC#259D5500009DF000
(1523989545.689720) slcan0 7EC#260039E100003780
(1523989545.699699) slcan0 7EC#2700131E560D0158
(1523989545.709993) slcan0 7EC#280000000003E800
(1523989545.713401) slcan0 7E2#0221010000000000
(1523989545.724976) slcan0 7EA#10166101FFE00000
(1523989545.724998) slcan0 7EC#102D6105FFFFFFFF
(1523989545.725483) slcan0 7E2#3010000000000000
(1523989545.725899) slcan0 7E4#3010000000000000
(1523989545.733029) slcan0 7EA#2109015AAF05F502
(1523989545.739851) slcan0 7EC#2100000000000D0D
(1523989545.742771) slcan0 7EA#2200000000825034
(1523989545.749888) slcan0 7EC#220D0D0D0D0D2648
(1523989545.753042) slcan0 7EA#2304200000000000
(1523989545.759775) slcan0 7EC#2326480001500D0D
(1523989545.763293) slcan0 7E2#0221020000000000
(1523989545.770062) slcan0 7EC#2403E85003E82741
(1523989545.772941) slcan0 7EA#10176102FF800000
(1523989545.773432) slcan0 7E2#3010000000000000
(1523989545.779837) slcan0 7EC#2500290000000000
(1523989545.782805) slcan0 7EA#2101010000007A12
(1523989545.789839) slcan0 7EC#2600000000000000
(1523989545.792845) slcan0 7EA#22AC75852F810682
(1523989545.802898) slcan0 7EA#23866E2F00000000
(1523989545.813424) slcan0 7E5#0221010000000000
(1523989545.826451) slcan0 7ED#102C6101FFFFF800
(1523989545.826863) slcan0 7E5#3010000000000000
(1523989545.836376) slcan0 7ED#21010268026303BB
(1523989545.846422) slcan0 7ED#22001173003301BC
(1523989545.856459) slcan0 7ED#2304A94100000000
(1523989545.863353) slcan0 7E3#0221010000000000
(1523989545.866944) slcan0 7ED#2400230000600000
(1523989545.870233) slcan0 7EB#101E6101000003FF
(1523989545.870752) slcan0 7E3#3010000000000000
(1523989545.878369) slcan0 7ED#25000001F486EA02
(1523989545.878391) slcan0 7EB#210C38017286842F
(1523989545.890559) slcan0 7EB#220000000A005302
(1523989545.890581) slcan0 7ED#26FF000000000000
(1523989545.898374) slcan0 7EB#235F04912FE8FF00
(1523989545.908305) slcan0 7EB#2400180000000000
(1523989545.913222) slcan0 7D5#0221010000000000
(1523989545.944469) slcan0 7DD#101A6101FB180000
(1523989545.963384) slcan0 7E4#0221010000000000
(1523989545.963779) slcan0 7D5#3010000000000000
(1523989545.974990) slcan0 7EC#103D6101FFFFFFFF
(1523989545.975402) slcan0 7E4#3010000000000000
(1523989545.990009) slcan0 7EC#2140264826480300
(1523989546.004648) slcan0 7EC#22060D760D0D0D0D
(1523989546.004669) slcan0 7DD#219C0DFFF4FCFD02
(1523989546.010296) slcan0 7EC#230D0D0D000DB30C
(1523989546.013563) slcan0 7E4#0221050000000000
(1523989546.021582) slcan0 7EC#24B3270000780000
(1523989546.024651) slcan0 7DD#22010201FFFFFFFF
(1523989546.030136) slcan0 7EC#259D5500009DF000
(1523989546.040372) slcan0 7EC#260039E100003780
(1523989546.044483) slcan0 7DD#23000003C4000100
(1523989546.050350) slcan0 7EC#2700131E560D0158
(1523989546.060217) slcan0 7EC#280000000003E800
(1523989546.063417) slcan0 7E2#0221010000000000
(1523989546.073076) slcan0 7EA#10166101FFE00000
(1523989546.073631) slcan0 7E2#3010000000000000
(1523989546.076725) slcan0 7EC#102D6105FFFFFFFF
(1523989546.077177) slcan0 7E4#3010000000000000
(1523989546.082801) slcan0 7EA#2109015AAC05F002
(1523989546.092811) slcan0 7EC#2100000000000D0D
(1523989546.092832) slcan0 7EA#22000000000B5634
(1523989546.103037) slcan0 7EC#220D0D0D0D0D2648
(1523989546.103058) slcan0 7EA#2304200000000000
(1523989546.110170) slcan0 7EC#2326480001500D0D
(1523989546.113261) slcan0 7E2#0221020000000000
(1523989546.122878) slcan0 7EC#2403E85003E82741
(1523989546.122904) slcan0 7EA#10176102FF800000
(1523989546.130220) slcan0 7EC#2500290000000000
(1523989546.140348) slcan0 7EC#2600000000000000
(1523989546.140894) slcan0 7E2#3010000000000000
(1523989546.153295) slcan0 7EA#2101010000007B15
(1523989546.162730) slcan0 7EA#22AC753530100888
(1523989546.163349) slcan0 7E5#0221010000000000
(1523989546.172812) slcan0 7EA#2386093000000000
(1523989546.176197) slcan0 7ED#102C6101FFFFF800
(1523989546.176630) slcan0 7E5#3010000000000000
(1523989546.190201) slcan0 7ED#2101026B026703BE
(1523989546.196193) slcan0 7ED#22001173003301BC
(1523989546.206469) slcan0 7ED#2304B54100000000
(1523989546.213428) slcan0 7E3#0221010000000000
(1523989546.218744) slcan0 7ED#2400230000600000
(1523989546.218765) slcan0 7EB#101E6101000003FF
(1523989546.226705) slcan0 7ED#25000001F486E502
(1523989546.227284) slcan0 7E3#3010000000000000
(1523989546.238615) slcan0 7ED#26F2000000000000
(1523989546.238636) slcan0 7EB#210C380172862E30
(1523989546.248755) slcan0 7EB#220000000A005102
(1523989546.258717) slcan0 7EB#2366043330300049
(1523989546.263440) slcan0 7D5#0221010000000000
(1523989546.270140) slcan0 7EB#240086FF00000000
(1523989546.294969) slcan0 7DD#101A6101FB180000
(1523989546.295448) slcan0 7D5#3010000000000000
(1523989546.313256) slcan0 7E4#0221010000000000
(1523989546.326508) slcan0 7EC#103D6101FFFFFFFF
(1523989546.326968) slcan0 7E4#3010000000000000
(1523989546.335224) slcan0 7DD#219D0DFFF4FCFD02
(1523989546.340589) slcan0 7EC#2140264826480300
(1523989546.350514) slcan0 7EC#22070D760D0D0D0D
(1523989546.355093) slcan0 7DD#22010201FFFFFFFF
(1523989546.360624) slcan0 7EC#230D0D0D000DB302
(1523989546.363222) slcan0 7E4#0221050000000000
(1523989546.370623) slcan0 7EC#24B3270000790000
(1523989546.375349) slcan0 7DD#23000003C4000100
(1523989546.380381) slcan0 7EC#259D5500009DF000
(1523989546.390430) slcan0 7EC#260039E100003780
(1523989546.402400) slcan0 7EC#2700131E570D0158
(1523989546.410445) slcan0 7EC#280000000003E800
(1523989546.413172) slcan0 7E2#0221010000000000
(1523989546.423017) slcan0 7EA#10166101FFE00000
(1523989546.423578) slcan0 7E2#3010000000000000
(1523989546.427152) slcan0 7EC#102D6105FFFFFFFF
(1523989546.427737) slcan0 7E4#3010000000000000
(1523989546.433064) slcan0 7EA#2109015AAF05EE02
(1523989546.442940) slcan0 7EC#2100000000000D0D
(1523989546.442961) slcan0 7EA#2200000000335A34
(1523989546.450660) slcan0 7EC#220D0D0D0D0D2648
(1523989546.453640) slcan0 7EA#2304200000000000
(1523989546.460391) slcan0 7EC#2326480001500D0D
(1523989546.463615) slcan0 7E2#0221020000000000
(1523989546.472861) slcan0 7EC#2403E85003E82741
(1523989546.472890) slcan0 7EA#10176102FF800000
(1523989546.482028) slcan0 7EC#2500290000000000
(1523989546.482537) slcan0 7E2#3010000000000000
(1523989546.492939) slcan0 7EC#2600000000000000
(1523989546.492961) slcan0 7EA#2101010000007C14
(1523989546.502903) slcan0 7EA#22AC75823002087C
(1523989546.512783) slcan0 7EA#23864B3000000000
(1523989546.513270) slcan0 7E5#0221010000000000
(1523989546.526484) slcan0 7ED#102C6101FFFFF800
(1523989546.526985) slcan0 7E5#3010000000000000
(1523989546.536566) slcan0 7ED#21010267026203BB
(1523989546.546487) slcan0 7ED#22001173003301BD
(1523989546.556283) slcan0 7ED#2304C14100000000
(1523989546.563350) slcan0 7E3#0221010000000000
(1523989546.566830) slcan0 7ED#2400230000600000
(1523989546.570156) slcan0 7EB#101E6101000003FF
(1523989546.570666) slcan0 7E3#3010000000000000
(1523989546.578759) slcan0 7ED#25000001F486EB02
(1523989546.578781) slcan0 7EB#210C380173865630
(1523989546.592455) slcan0 7EB#220000000A005502
(1523989546.592477) slcan0 7ED#26F3000000000000
(1523989546.598738) slcan0 7EB#235F045F30180030
(1523989546.608790) slcan0 7EB#2400B7FF00000000
(1523989546.613308) slcan0 7D5#0221010000000000
(1523989546.644779) slcan0 7DD#101A6101FB180000
(1523989546.663363) slcan0 7E4#0221010000000000
(1523989546.663738) slcan0 7D5#3010000000000000
(1523989546.676318) slcan0 7EC#103D6101FFFFFFFF
(1523989546.676827) slcan0 7E4#3010000000000000
(1523989546.692108) slcan0 7EC#2140264826480300
(1523989546.702319) slcan0 7EC#22070D760D0D0D0D
(1523989546.705023) slcan0 7DD#219E0DFFF4FCFD02
(1523989546.711503) slcan0 7EC#230D0D0D000DB302
(1523989546.713236) slcan0 7E4#0221050000000000
(1523989546.724855) slcan0 7EC#24B32700007A0000
(1523989546.724874) slcan0 7DD#22010202FFFFFFFF
(1523989546.731544) slcan0 7EC#259D5500009DF000
(1523989546.744935) slcan0 7EC#260039E100003780
(1523989546.744977) slcan0 7DD#23000003C4000100
(1523989546.753159) slcan0 7EC#2700131E570D0158
(1523989546.761912) slcan0 7EC#280000000003E800
(1523989546.763186) slcan0 7E2#0221010000000000
(1523989546.772899) slcan0 7EA#10166101FFE00000
(1523989546.776452) slcan0 7EC#102D6105FFFFFFFF
(1523989546.776982) slcan0 7E2#3010000000000000
(1523989546.777436) slcan0 7E4#3010000000000000
(1523989546.783073) slcan0 7EA#2109015AB105F002
(1523989546.792930) slcan0 7EC#2100000000000D0D
(1523989546.792952) slcan0 7EA#22000000006A5D34
(1523989546.803223) slcan0 7EC#220D0D0D0D0D2648
(1523989546.803243) slcan0 7EA#2304200000000000
(1523989546.811831) slcan0 7EC#2326480001500D0D
(1523989546.813185) slcan0 7E2#0221020000000000
(1523989546.823455) slcan0 7EA#10176102FF800000
(1523989546.823476) slcan0 7EC#2403E85003E82741
(1523989546.831791) slcan0 7EC#2500290000000000
(1523989546.832361) slcan0 7E2#3010000000000000
(1523989546.843207) slcan0 7EC#2600000000000000
(1523989546.843228) slcan0 7EA#2101010000007D16
(1523989546.853358) slcan0 7EA#22AC75F530740881
(1523989546.862931) slcan0 7EA#2386D23000000000
(1523989546.863417) slcan0 7E5#0221010000000000
(1523989546.876526) slcan0 7ED#102C6101FFFFF800
(1523989546.913466) slcan0 7E3#0221010000000000
(1523989546.913910) slcan0 7E5#3010000000000000
(1523989546.922404) slcan0 7EB#101E6101000003FF
(1523989546.922832) slcan0 7E3#3010000000000000
(1523989546.929030) slcan0 7ED#2101026B026603BD
(1523989546.929050) slcan0 7EB#210C38017186C330
(1523989546.939073) slcan0 7ED#22001173003301BD
(1523989546.939094) slcan0 7EB#220000000A005502
(1523989546.949265) slcan0 7ED#2304C94100000000
(1523989546.949292) slcan0 7EB#236204CC30000030
(1523989546.959264) slcan0 7ED#2400230000600000
(1523989546.959301) slcan0 7EB#2400D0FF00000000
(1523989546.963426) slcan0 7D5#0221010000000000
(1523989546.966912) slcan0 7ED#25000001F486EB03
(1523989546.976320) slcan0 7ED#2600000000000000
(1523989546.996924) slcan0 7DD#101A6101FB180000
(1523989547.013395) slcan0 7E4#0221010000000000
(1523989547.026558) slcan0 7EC#103D6101FFFFFFFF
(1523989547.063409) slcan0 7E4#0221050000000000
(1523989547.063771) slcan0 7D5#3010000000000000
(1523989547.064095) slcan0 7E4#3010000000000000
(1523989547.076321) slcan0 7EC#2140264826480300
(1523989547.092460) slcan0 7EC#22070D760D0D0D0D
(1523989547.102405) slcan0 7EC#230D0D0D000DB302
(1523989547.105343) slcan0 7DD#21A00DFFF4FCFD02
(1523989547.111754) slcan0 7EC#24B32700007C0000
(1523989547.113204) slcan0 7E2#0221010000000000
(1523989547.125018) slcan0 7EC#259D5500009DF000
(1523989547.125037) slcan0 7EA#10166101FFE00000
(1523989547.125041) slcan0 7DD#22010202FFFFFFFF
(1523989547.131766) slcan0 7EC#260039E100003780
(1523989547.132221) slcan0 7E2#3010000000000000
(1523989547.145180) slcan0 7EC#2700131E580D0158
(1523989547.145201) slcan0 7EA#2109015AAF05F002
(1523989547.145205) slcan0 7DD#23000003C4000100
(1523989547.153714) slcan0 7EA#2200000000EC5F34
(1523989547.153770) slcan0 7EC#280000000003E800
(1523989547.162931) slcan0 7EA#2304200000000000
(1523989547.163390) slcan0 7E2#0221020000000000
(1523989547.173083) slcan0 7EA#10176102FF800000
(1523989547.213568) slcan0 7E5#0221010000000000
(1523989547.226577) slcan0 7ED#102C6101FFFFF800
(1523989547.263395) slcan0 7E3#0221010000000000
(1523989547.263826) slcan0 7E2#3010000000000000
(1523989547.264238) slcan0 7E5#3010000000000000
(1523989547.272953) slcan0 7EB#101E6101000003FF
(1523989547.272976) slcan0 7EA#2101010000007E19
(1523989547.273446) slcan0 7E3#3010000000000000
(1523989547.279377) slcan0 7ED#2101026B026803C0
(1523989547.279395) slcan0 7EB#210C380069864A31
(1523989547.283024) slcan0 7EA#22AC756131CC097D
(1523989547.293520) slcan0 7EB#220000000A005702
(1523989547.293541) slcan0 7EA#2386333100000000
(1523989547.293544) slcan0 7ED#22001173003301BD
(1523989547.296606) slcan0 7ED#2304D44100000000
(1523989547.299336) slcan0 7EB#2360045531E8FFE8
(1523989547.309430) slcan0 7ED#2400240000600000
(1523989547.309451) slcan0 7EB#24FF300000000000
(1523989547.313353) slcan0 7D5#0221010000000000
(1523989547.316812) slcan0 7ED#25000001F486E703
(1523989547.326779) slcan0 7ED#2601000000000000
(1523989547.345164) slcan0 7DD#101A6101FB180000
(1523989547.363292) slcan0 7E4#0221010000000000
(1523989547.376423) slcan0 7EC#103D6101FFFFFFFF
(1523989547.413259) slcan0 7E4#0221050000000000
(1523989547.413659) slcan0 7D5#3010000000000000
(1523989547.414002) slcan0 7E4#3010000000000000
(1523989547.426593) slcan0 7EC#2140264826480300
(1523989547.436602) slcan0 7EC#22090D760D0D0D0D
(1523989547.446774) slcan0 7EC#230D0D0D000DB325
(1523989547.456680) slcan0 7DD#21A10DFFF4FCFD02
(1523989547.456702) slcan0 7EC#24B32700007C0000
(1523989547.463404) slcan0 7E2#0221010000000000
(1523989547.466910) slcan0 7EC#259D5500009DF000
(1523989547.476800) slcan0 7EA#10166101FFE00000
(1523989547.476821) slcan0 7DD#22010202FFFFFFFF
(1523989547.476824) slcan0 7EC#260039E100003780
(1523989547.477354) slcan0 7E2#3010000000000000
(1523989547.483039) slcan0 7EA#2109015AAC05EB02
(1523989547.493287) slcan0 7EC#2700131E580D0158
(1523989547.493306) slcan0 7EA#2200000000E26134
(1523989547.496845) slcan0 7DD#23000003C4000100
(1523989547.503815) slcan0 7EA#2304200000000000
(1523989547.503836) slcan0 7EC#280000000003E800
(1523989547.513407) slcan0 7E2#0221020000000000
(1523989547.522907) slcan0 7EA#10176102FF800000
(1523989547.563305) slcan0 7E5#0221010000000000
(1523989547.576542) slcan0 7ED#102C6101FFFFF800
(1523989547.577099) slcan0 7E2#3010000000000000
(1523989547.577523) slcan0 7E5#3010000000000000
(1523989547.583248) slcan0 7EA#210101000000801A
(1523989547.595182) slcan0 7EA#22AC75DB31A70A85
(1523989547.595205) slcan0 7ED#2101026B026503BC
(1523989547.595209) slcan0 7ED#22001173003301BD
(1523989547.602928) slcan0 7EA#2386AB3100000000
(1523989547.606936) slcan0 7ED#2304DB4100000000
(1523989547.613358) slcan0 7E3#0221010000000000
(1523989547.616419) slcan0 7ED#2400230000600000
(1523989547.625289) slcan0 7EB#101E6101000003FF
(1523989547.625304) slcan0 7ED#25000001F486E302
(1523989547.635106) slcan0 7ED#26F6000000000000
(1523989547.635560) slcan0 7E3#3010000000000000
(1523989547.649682) slcan0 7EB#210C38007086C431
(1523989547.659774) slcan0 7EB#220000000A005702
(1523989547.663332) slcan0 7D5#0221010000000000
(1523989547.669672) slcan0 7EB#236304AE31300030
(1523989547.679737) slcan0 7EB#24009FFF00000000
(1523989547.697733) slcan0 7DD#101A6101FB180000
(1523989547.698199) slcan0 7D5#3010000000000000
(1523989547.713364) slcan0 7E4#0221010000000000
(1523989547.726785) slcan0 7EC#103D6101FFFFFFFF
(1523989547.727269) slcan0 7E4#3010000000000000
(1523989547.737454) slcan0 7DD#21A10DFFF4FCFD02
(1523989547.742347) slcan0 7EC#2140264826480300
(1523989547.753225) slcan0 7EC#220A0D760D0D0D0D
(1523989547.757350) slcan0 7DD#22010202FFFFFFFF
(1523989547.761930) slcan0 7EC#230D0D0D000DB318
(1523989547.763244) slcan0 7E4#0221050000000000
(1523989547.772016) slcan0 7EC#24B32700007D0000
(1523989547.777375) slcan0 7DD#23000003C4000100
(1523989547.782021) slcan0 7EC#259D5500009DF000
(1523989547.793220) slcan0 7EC#260039E100003780
(1523989547.803239) slcan0 7EC#2700131E580D0158
(1523989547.811847) slcan0 7EC#280000000003E800
(1523989547.813221) slcan0 7E2#0221010000000000
(1523989547.822975) slcan0 7EA#10166101FFE00000
(1523989547.823410) slcan0 7E2#3010000000000000
(1523989547.826931) slcan0 7EC#102D6105FFFFFFFF
(1523989547.827422) slcan0 7E4#3010000000000000
(1523989547.832939) slcan0 7EA#2109015AAC05EE02
(1523989547.843087) slcan0 7EC#2100000000000D0D
(1523989547.843125) slcan0 7EA#2200000000776334
(1523989547.854004) slcan0 7EA#2304200000000000
(1523989547.854026) slcan0 7EC#220D0D0D0D0D2648
(1523989547.862037) slcan0 7EC#2326480001500D0D
(1523989547.863424) slcan0 7E2#0221020000000000
(1523989547.873008) slcan0 7EC#2403E85003E82741
(1523989547.873029) slcan0 7EA#10176102FF800000
(1523989547.882071) slcan0 7EC#2500290000000000
(1523989547.893228) slcan0 7EC#2600000000000000
(1523989547.893810) slcan0 7E2#3010000000000000
(1523989547.903120) slcan0 7EA#2101010000008019
(1523989547.912927) slcan0 7EA#22AC750032A50984
(1523989547.913397) slcan0 7E5#0221010000000000
(1523989547.922967) slcan0 7EA#2386D93100000000
(1523989547.926709) slcan0 7ED#102C6101FFFFF800
(1523989547.927145) slcan0 7E5#3010000000000000
(1523989547.935193) slcan0 7ED#2101026B026603BE
(1523989547.945153) slcan0 7ED#22001173003301BC
(1523989547.955183) slcan0 7ED#2304E54100000000
(1523989547.963316) slcan0 7E3#0221010000000000
(1523989547.966402) slcan0 7ED#2400230000600000
(1523989547.969999) slcan0 7EB#101E6101000003FF
(1523989547.970431) slcan0 7E3#3010000000000000
(1523989547.975249) slcan0 7ED#25000001F486E403
(1523989547.979958) slcan0 7EB#210C38006B86D231
(1523989547.985240) slcan0 7ED#2600000000000000
(1523989547.993512) slcan0 7EB#220000000A005802
(1523989548.003352) slcan0 7EB#235F04CB31180018
(1523989548.010029) slcan0 7EB#2400D0FF00000000
(1523989548.013232) slcan0 7D5#0221010000000000
(1523989548.047332) slcan0 7DD#101A6101FB180000
(1523989548.047824) slcan0 7D5#3010000000000000
(1523989548.063365) slcan0 7E4#0221010000000000
(1523989548.077195) slcan0 7EC#103D6101FFFFFFFF
(1523989548.077654) slcan0 7E4#3010000000000000
(1523989548.087354) slcan0 7DD#21A30DFFF4FCFD02
(1523989548.093189) slcan0 7EC#2140264826480300
(1523989548.103111) slcan0 7EC#22090D760D0D0D0D
(1523989548.107664) slcan0 7DD#22010202FFFFFFFF
(1523989548.112077) slcan0 7EC#230D0D0D000DB30F
(1523989548.113202) slcan0 7E4#0221050000000000
(1523989548.122540) slcan0 7EC#24B32700007E0000
(1523989548.127382) slcan0 7DD#23000003C4000100
(1523989548.132118) slcan0 7EC#259D5500009DF000
(1523989548.142961) slcan0 7EC#260039E100003780
(1523989548.153536) slcan0 7EC#2700131E590D0158
(1523989548.162468) slcan0 7EC#280000000003E800
(1523989548.163302) slcan0 7E2#0221010000000000
(1523989548.173008) slcan0 7EA#10166101FFE00000
(1523989548.173504) slcan0 7E2#3010000000000000
(1523989548.177435) slcan0 7EC#102D6105FFFFFFFF
(1523989548.177983) slcan0 7E4#3010000000000000
(1523989548.183160) slcan0 7EA#2109015AB105F302
(1523989548.193621) slcan0 7EA#2200000000D46434
(1523989548.193640) slcan0 7EC#2100000000000D0D
(1523989548.203549) slcan0 7EA#2304200000000000
(1523989548.203569) slcan0 7EC#220D0D0D0D0D2648
(1523989548.212479) slcan0 7EC#2326480001500D0D
(1523989548.213226) slcan0 7E2#0221020000000000
(1523989548.224537) slcan0 7EA#10176102FF800000
(1523989548.224558) slcan0 7EC#2403E85003E82741
(1523989548.232295) slcan0 7EC#2500290000000000
(1523989548.232921) slcan0 7E2#3010000000000000
(1523989548.243505) slcan0 7EA#210101000000811B
(1523989548.243528) slcan0 7EC#2600000000000000
(1523989548.253859) slcan0 7EA#22AC755E32120A88
(1523989548.263031) slcan0 7EA#23863E3200000000
(1523989548.263569) slcan0 7E5#0221010000000000
(1523989548.275329) slcan0 7ED#102C6101FFFFF800
(1523989548.313360) slcan0 7E3#0221010000000000
(1523989548.313804) slcan0 7E5#3010000000000000
(1523989548.320407) slcan0 7EB#101E6101000003FF
(1523989548.320959) slcan0 7E3#3010000000000000
(1523989548.326828) slcan0 7ED#2101026E026A03C2
(1523989548.330249) slcan0 7EB#210C380071861C32
(1523989548.335217) slcan0 7ED#22001173003301BC
(1523989548.340271) slcan0 7EB#220000000A005902
(1523989548.345203) slcan0 7ED#2304EC4100000000
(1523989548.350330) slcan0 7EB#2362043332180018
(1523989548.355193) slcan0 7ED#2400240000600000
(1523989548.360375) slcan0 7EB#2400D0FF00000000
(1523989548.363287) slcan0 7D5#0221010000000000
(1523989548.366357) slcan0 7ED#25000001F486DF03
(1523989548.375227) slcan0 7ED#2600000000000000
(1523989548.397920) slcan0 7DD#101A6101FB180000
(1523989548.398498) slcan0 7D5#3010000000000000
(1523989548.413381) slcan0 7E4#0221010000000000
(1523989548.427469) slcan0 7EC#103D6101FFFFFFFF
(1523989548.428071) slcan0 7E4#3010000000000000
(1523989548.437608) slcan0 7DD#21A40DFFF4FCFD02
(1523989548.443336) slcan0 7EC#2140264826480300
(1523989548.453966) slcan0 7EC#22090D750D0D0D0D
(1523989548.457436) slcan0 7DD#22010202FFFFFFFF
(1523989548.462945) slcan0 7EC#230D0D0D000DB326
(1523989548.463543) slcan0 7E4#0221050000000000
(1523989548.472557) slcan0 7EC#24B32700007F0000
(1523989548.477622) slcan0 7DD#23000003C4000100
(1523989548.483013) slcan0 7EC#259D5500009DF000
(1523989548.493230) slcan0 7EC#260039E100003780
(1523989548.503122) slcan0 7EC#2700131E590D0158
(1523989548.512741) slcan0 7EC#280000000003E800
(1523989548.513255) slcan0 7E2#0221010000000000
(1523989548.523451) slcan0 7EA#10166101FFE00000
(1523989548.523969) slcan0 7E2#3010000000000000
(1523989548.527496) slcan0 7EC#102D6105FFFFFFFF
(1523989548.527938) slcan0 7E4#3010000000000000
(1523989548.532927) slcan0 7EA#2109015AAF05EE02
(1523989548.543965) slcan0 7EA#2200000000F86534
(1523989548.543990) slcan0 7EC#2100000000000D0D
(1523989548.554306) slcan0 7EA#2304200000000000
(1523989548.554326) slcan0 7EC#220D0D0D0D0D2648
(1523989548.562937) slcan0 7EC#23264800014B0D0D
(1523989548.563334) slcan0 7E2#0221020000000000
(1523989548.573027) slcan0 7EC#2403E85003E82741
(1523989548.573050) slcan0 7EA#10176102FF800000
(1523989548.583039) slcan0 7EC#2500290000000000
(1523989548.593376) slcan0 7EC#2600000000000000
(1523989548.593899) slcan0 7E2#3010000000000000
(1523989548.603064) slcan0 7EA#210101000000821D
(1523989548.612956) slcan0 7EA#22AC75D432A60B84
(1523989548.613280) slcan0 7E5#0221010000000000
(1523989548.625277) slcan0 7EA#2386A23200000000
(1523989548.625295) slcan0 7ED#102C6101FFFFF800
(1523989548.663364) slcan0 7E3#0221010000000000
(1523989548.672768) slcan0 7EB#101E6101000003FF
(1523989548.673188) slcan0 7E5#3010000000000000
(1523989548.673575) slcan0 7E3#3010000000000000
(1523989548.680556) slcan0 7EB#210C38007186AB32
(1523989548.685170) slcan0 7ED#2101026C026503BE
(1523989548.695262) slcan0 7EB#220000000A005902
(1523989548.695283) slcan0 7ED#22001173003301BC
(1523989548.703170) slcan0 7EB#235F049A32180030
(1523989548.707197) slcan0 7ED#2304F54100000000
(1523989548.713394) slcan0 7D5#0221010000000000
(1523989548.716438) slcan0 7EB#2400B7FF00000000
(1523989548.716455) slcan0 7ED#2400230000600000
(1523989548.725178) slcan0 7ED#25000001F486DF02
(1523989548.735162) slcan0 7ED#26FB000000000000
(1523989548.747007) slcan0 7DD#101A6101FB180000
(1523989548.763431) slcan0 7E4#0221010000000000
(1523989548.763838) slcan0 7D5#3010000000000000
(1523989548.777905) slcan0 7EC#103D6101FFFFFFFF
(1523989548.778458) slcan0 7E4#3010000000000000
(1523989548.793296) slcan0 7EC#2140264826480300
(1523989548.803111) slcan0 7EC#220B0D750D0D0D0D
(1523989548.807230) slcan0 7DD#21A50DFFF4FCFD02
(1523989548.813033) slcan0 7EC#230D0D0D000DB326
(1523989548.813570) slcan0 7E4#0221050000000000
(1523989548.823158) slcan0 7EC#24B3270000800000
(1523989548.827028) slcan0 7DD#22010202FFFFFFFF
(1523989548.832852) slcan0 7EC#259D5500009DF000
(1523989548.843310) slcan0 7EC#260039E100003780
(1523989548.847064) slcan0 7DD#23000003C4000100
(1523989548.854233) slcan0 7EC#2700131E590D0158
(1523989548.863231) slcan0 7EC#280000000003E800
(1523989548.863499) slcan0 7E2#0221010000000000
(1523989548.873078) slcan0 7EA#10166101FFE00000
(1523989548.873604) slcan0 7E2#3010000000000000
(1523989548.878068) slcan0 7EC#102D6105FFFFFFFF
(1523989548.878637) slcan0 7E4#3010000000000000
(1523989548.883104) slcan0 7EA#2109015AAF05EE02
(1523989548.893731) slcan0 7EA#2200000000ED6634
(1523989548.893744) slcan0 7EC#2100000000000D0D
(1523989548.903650) slcan0 7EA#2304200000000000
(1523989548.903673) slcan0 7EC#220D0D0D0D0D2648
(1523989548.912947) slcan0 7EC#2326480001500D0D
(1523989548.913422) slcan0 7E2#0221020000000000
(1523989548.923749) slcan0 7EA#10176102FF800000
(1523989548.923770) slcan0 7EC#2403E85003E82741
(1523989548.932953) slcan0 7EC#2500290000000000
(1523989548.933452) slcan0 7E2#3010000000000000
(1523989548.943776) slcan0 7EA#210101000000831B
(1523989548.943796) slcan0 7EC#2600000000000000
(1523989548.953977) slcan0 7EA#22AC761533490B82
(1523989548.963163) slcan0 7EA#2386DD3200000000
(1523989548.963588) slcan0 7E5#0221010000000000
(1523989548.975355) slcan0 7ED#102C6101FFFFF800
(1523989549.013652) slcan0 7E3#0221010000000000
(1523989549.014095) slcan0 7E5#3010000000000000
(1523989549.025179) slcan0 7EB#101E6101000003FF
(1523989549.025198) slcan0 7ED#2101026C026903C2
(1523989549.025732) slcan0 7E3#3010000000000000
(1523989549.035347) slcan0 7EB#210C380075861733
(1523989549.035369) slcan0 7ED#22001273003301BD
(1523989549.045185) slcan0 7EB#220000000A005802
(1523989549.045212) slcan0 7ED#2304FD4100000000
(1523989549.055269) slcan0 7EB#2360040133300049
(1523989549.055288) slcan0 7ED#2400240000600000
(1523989549.063353) slcan0 7D5#0221010000000000
(1523989549.066375) slcan0 7EB#240086FF00000000
(1523989549.066391) slcan0 7ED#25000001F486DE02
(1523989549.075289) slcan0 7ED#26F2000000000000
(1523989549.097117) slcan0 7DD#101A6101FB180000
(1523989549.113321) slcan0 7E4#0221010000000000
(1523989549.123157) slcan0 7EC#103D6101FFFFFFFF
(1523989549.163260) slcan0 7E4#0221050000000000
(1523989549.163685) slcan0 7D5#3010000000000000
(1523989549.165056) slcan0 7E4#3010000000000000
(1523989549.178283) slcan0 7EC#2140264826480300
(1523989549.193318) slcan0 7EC#220B0D750D0D0D0D
(1523989549.203392) slcan0 7EC#230D0D0D000DB326
(1523989549.207052) slcan0 7DD#21A60DFFF4FCFD02
(1523989549.213239) slcan0 7EC#24B3270000810000
(1523989549.213620) slcan0 7E2#0221010000000000
(1523989549.227043) slcan0 7EA#10166101FFE00000
(1523989549.227060) slcan0 7EC#259D5500009DF000
(1523989549.227063) slcan0 7DD#22010202FFFFFFFF
(1523989549.227563) slcan0 7E2#3010000000000000
(1523989549.233483) slcan0 7EA#2109015AB105EE02
(1523989549.233504) slcan0 7EC#260039E100003780
(1523989549.243751) slcan0 7EA#2200000000D46734
(1523989549.243773) slcan0 7EC#2700131E5A0D0158
(1523989549.247184) slcan0 7DD#23000003C4000100
(1523989549.254886) slcan0 7EA#2304200000000000
(1523989549.254908) slcan0 7EC#280000000003E800
(1523989549.263366) slcan0 7E2#0221020000000000
(1523989549.273016) slcan0 7EA#10176102FF800000
(1523989549.313368) slcan0 7E5#0221010000000000
(1523989549.325315) slcan0 7ED#102C6101FFFFF800
(1523989549.363555) slcan0 7E3#0221010000000000
(1523989549.363956) slcan0 7E2#3010000000000000
(1523989549.364280) slcan0 7E5#3010000000000000
(1523989549.375135) slcan0 7EB#101E6101000003FF
(1523989549.375149) slcan0 7EA#210101000000831D
(1523989549.375154) slcan0 7ED#21010270026B03C2
(1523989549.375493) slcan0 7E3#3010000000000000
(1523989549.385216) slcan0 7EA#22AC764133CF0A80
(1523989549.385238) slcan0 7EB#210C38006D861733
(1523989549.385243) slcan0 7ED#22001173003301BC
(1523989549.395404) slcan0 7EA#2386253300000000
(1523989549.395425) slcan0 7EB#220000000A005B02
(1523989549.395430) slcan0 7ED#2305064100000000
(1523989549.405727) slcan0 7EB#2362041033000018
(1523989549.405749) slcan0 7ED#2400240000600000
(1523989549.413416) slcan0 7D5#0221010000000000
(1523989549.416466) slcan0 7EB#2400E8FF00000000
(1523989549.416485) slcan0 7ED#25000001F486E103
(1523989549.425249) slcan0 7ED#2605000000000000
(1523989549.447258) slcan0 7DD#101A6101FB180000
(1523989549.463355) slcan0 7E4#0221010000000000
(1523989549.473645) slcan0 7EC#103D6101FFFFFFFF
(1523989549.513566) slcan0 7E4#0221050000000000
(1523989549.563558) slcan0 7E2#0221010000000000
(1523989549.573318) slcan0 7EA#10166101FFE00000
(1523989549.613396) slcan0 7E2#0221020000000000
(1523989549.613818) slcan0 7D5#3010000000000000
(1523989549.614227) slcan0 7E4#3010000000000000
(1523989549.614512) slcan0 7E2#3010000000000000
(1523989549.623379) slcan0 7EA#2109015AAC05F302
(1523989549.633029) slcan0 7EA#2200000000B06834
(1523989549.643314) slcan0 7EA#2304200000000000
(1523989549.663372) slcan0 7E5#0221010000000000
(1523989549.675330) slcan0 7ED#102C6101FFFFF800
(1523989549.675913) slcan0 7E5#3010000000000000
(1523989549.685467) slcan0 7ED#21010273026D03C6
(1523989549.695467) slcan0 7ED#22001273003301BD
(1523989549.705347) slcan0 7ED#23050C4100000000
(1523989549.713434) slcan0 7E3#0221010000000000
(1523989549.716469) slcan0 7ED#2400240000600000
(1523989549.725376) slcan0 7EB#101E6101000003FF
(1523989549.725396) slcan0 7ED#25000001F486E003
(1523989549.725870) slcan0 7E3#3010000000000000
(1523989549.735360) slcan0 7EB#210C38006F866833
(1523989549.735383) slcan0 7ED#260A000000000000
(1523989549.743312) slcan0 7EB#220000000A005902
(1523989549.753839) slcan0 7EB#2360047833000018
(1523989549.763216) slcan0 7EB#2400E8FF00000000
(1523989549.763428) slcan0 7D5#0221010000000000
(1523989549.796874) slcan0 7DD#101A6101FB180000
(1523989549.813285) slcan0 7E4#0221010000000000
(1523989549.813803) slcan0 7D5#3010000000000000
(1523989549.823913) slcan0 7EC#103D6101FFFFFFFF
(1523989549.824142) slcan0 7E4#3010000000000000
(1523989549.834015) slcan0 7EC#2140264826480300
(1523989549.844060) slcan0 7EC#220B0D750D0D0D0D
(1523989549.853825) slcan0 7EC#230D0D0D000DB326
(1523989549.856955) slcan0 7DD#21A80DFFF4FCFD02
(1523989549.863405) slcan0 7E4#0221050000000000
(1523989549.866556) slcan0 7EC#24B3270000820000
(1523989549.874178) slcan0 7EC#259D5500009DF000
(1523989549.877111) slcan0 7DD#22010201FFFFFFFF
(1523989549.884179) slcan0 7EC#260039E100003780
(1523989549.893955) slcan0 7EC#2700131E5A0D0158
(1523989549.896953) slcan0 7DD#23000003C4000100
(1523989549.904025) slcan0 7EC#280000000003E800
(1523989549.913579) slcan0 7E2#0221010000000000
(1523989549.919066) slcan0 7EC#102D6105FFFFFFFF
(1523989549.919614) slcan0 7E4#3010000000000000
(1523989549.923206) slcan0 7EA#10166101FFE00000
(1523989549.923670) slcan0 7E2#3010000000000000
(1523989549.933975) slcan0 7EA#2109015AB405F302
(1523989549.933997) slcan0 7EC#2100000000000D0D
(1523989549.944138) slcan0 7EA#22000000006D6934
(1523989549.944158) slcan0 7EC#220D0D0D0D0D2648
(1523989549.954183) slcan0 7EA#2304200000000000
(1523989549.954202) slcan0 7EC#2326480001500D0D
(1523989549.963381) slcan0 7E2#0221020000000000
(1523989549.966487) slcan0 7EC#2403E85003E82741
(1523989549.974049) slcan0 7EA#10176102FF800000
(1523989549.974071) slcan0 7EC#2500290000000000
(1523989549.984009) slcan0 7EC#2600000000000000
(1523989550.013536) slcan0 7E5#0221010000000000
(1523989550.014084) slcan0 7E2#3010000000000000
(1523989550.025445) slcan0 7EA#210101000000851D
(1523989550.025467) slcan0 7ED#102C6101FFFFF800
(1523989550.033286) slcan0 7EA#22AC76FD330C0C81
(1523989550.043331) slcan0 7EA#2386C43300000000
(1523989550.043921) slcan0 7E5#3010000000000000
(1523989550.055224) slcan0 7ED#2101026F026A03C3
(1523989550.063344) slcan0 7E3#0221010000000000
(1523989550.066427) slcan0 7ED#22001273003301BD
(1523989550.071942) slcan0 7EB#101E6101000003FF
(1523989550.072353) slcan0 7E3#3010000000000000
(1523989550.075717) slcan0 7ED#2305154100000000
(1523989550.085243) slcan0 7EB#210C38007486F033
(1523989550.085265) slcan0 7ED#2400240000600000
(1523989550.095486) slcan0 7EB#220000000A005802
(1523989550.095508) slcan0 7ED#25000001F486E202
(1523989550.105600) slcan0 7EB#236304EE33180000
(1523989550.105621) slcan0 7ED#26FE000000000000
(1523989550.111967) slcan0 7EB#2400E8FF00000000
(1523989550.113182) slcan0 7D5#0221010000000000
(1523989550.146941) slcan0 7DD#101A6101FB180000
(1523989550.163517) slcan0 7E4#0221010000000000
(1523989550.174157) slcan0 7EC#103D6101FFFFFFFF
(1523989550.174496) slcan0 7D5#3010000000000000
(1523989550.174858) slcan0 7E4#3010000000000000
(1523989550.193872) slcan0 7EC#2140264826480300
(1523989550.199184) slcan0 7EC#220C0D750D0D0D0D
(1523989550.209345) slcan0 7EC#230D0D0D000DB326
(1523989550.213587) slcan0 7E4#0221050000000000
(1523989550.219394) slcan0 7DD#21A90DFFF4FCFD02
(1523989550.219414) slcan0 7EC#24B3270000830000
(1523989550.229253) slcan0 7EC#259D5500009DF000
(1523989550.239342) slcan0 7DD#22010201FFFFFFFF
(1523989550.239362) slcan0 7EC#260039E100003780
(1523989550.249545) slcan0 7EC#2700131E5B0D0158
(1523989550.259270) slcan0 7DD#23000003C4000100
(1523989550.259293) slcan0 7EC#280000000003E800
(1523989550.263479) slcan0 7E2#0221010000000000
(1523989550.274336) slcan0 7EA#10166101FFE00000
(1523989550.274356) slcan0 7EC#102D6105FFFFFFFF
(1523989550.313432) slcan0 7E2#0221020000000000
(1523989550.323420) slcan0 7EA#10176102FF800000
(1523989550.323959) slcan0 7E2#3010000000000000
(1523989550.324462) slcan0 7E4#3010000000000000
(1523989550.324811) slcan0 7E2#3010000000000000
(1523989550.334366) slcan0 7EA#210101000000861D
(1523989550.334390) slcan0 7EC#2100000000000D0D
(1523989550.344345) slcan0 7EA#22AC763E34510B89
(1523989550.344381) slcan0 7EC#220D0D0D0D0D2648
(1523989550.354650) slcan0 7EA#2386133400000000
(1523989550.354673) slcan0 7EC#2326480001500D0D
(1523989550.363573) slcan0 7E5#0221010000000000
(1523989550.366637) slcan0 7EC#2403E85003E82741
(1523989550.375291) slcan0 7EC#2500290000000000
(1523989550.375318) slcan0 7ED#102C6101FFFFF800
(1523989550.384459) slcan0 7EC#2600000000000000
(1523989550.413456) slcan0 7E3#0221010000000000
(1523989550.422286) slcan0 7EB#101E6101000003FF
(1523989550.422848) slcan0 7E5#3010000000000000
(1523989550.435238) slcan0 7ED#21010271026C03C4
(1523989550.435699) slcan0 7E3#3010000000000000
(1523989550.442166) slcan0 7EB#210C380075863434
(1523989550.445208) slcan0 7ED#22001273003301BC
(1523989550.455245) slcan0 7EB#220000000A005E02
(1523989550.455266) slcan0 7ED#23051B4100000000
(1523989550.463383) slcan0 7D5#0221010000000000
(1523989550.466683) slcan0 7EB#2360041F34300000
(1523989550.466704) slcan0 7ED#2400240000600000
(1523989550.472440) slcan0 7EB#2400D0FF00000000
(1523989550.475394) slcan0 7ED#25000001F486E103
(1523989550.485281) slcan0 7ED#2608000000000000
(1523989550.496997) slcan0 7DD#101A6101FB180000
(1523989550.513415) slcan0 7E4#0221010000000000
(1523989550.513844) slcan0 7D5#3010000000000000
(1523989550.524614) slcan0 7EC#103D6101FFFFFFFF
(1523989550.525116) slcan0 7E4#3010000000000000
(1523989550.539728) slcan0 7EC#2140264826480300
(1523989550.549834) slcan0 7EC#220C0D750D0D0D0D
(1523989550.559572) slcan0 7DD#21A90DFFF4FCFD02
(1523989550.559602) slcan0 7EC#230D0D0D000DB326
(1523989550.563365) slcan0 7E4#0221050000000000
(1523989550.569677) slcan0 7EC#24B3270000840000
(1523989550.579721) slcan0 7DD#22010202FFFFFFFF
(1523989550.579742) slcan0 7EC#259D5500009DF000
(1523989550.599619) slcan0 7EC#260039E100003780
(1523989550.599639) slcan0 7DD#23000003C4000100
(1523989550.599644) slcan0 7EC#2700131E5B0D0158
(1523989550.609637) slcan0 7EC#280000000003E800
(1523989550.613458) slcan0 7E2#0221010000000000
(1523989550.624771) slcan0 7EA#10166101FFE00000
(1523989550.624793) slcan0 7EC#102D6105FFFFFFFF
(1523989550.663580) slcan0 7E2#0221020000000000
(1523989550.673285) slcan0 7EA#10176102FF800000
(1523989550.673851) slcan0 7E2#3010000000000000
(1523989550.674333) slcan0 7E4#3010000000000000
(1523989550.674676) slcan0 7E2#3010000000000000
(1523989550.684723) slcan0 7EA#2101010000008720
(1523989550.684743) slcan0 7EC#2100000000000D0D
(1523989550.694908) slcan0 7EA#22AC769334340C85
(1523989550.694947) slcan0 7EC#220D0D0D0D0D2648
(1523989550.704745) slcan0 7EA#23867C3400000000
(1523989550.704767) slcan0 7EC#2326480001500D0D
(1523989550.713420) slcan0 7E5#0221010000000000
(1523989550.716481) slcan0 7EC#2403E85003E82741
(1523989550.725379) slcan0 7EC#2500290000000000
(1523989550.725399) slcan0 7ED#102C6101FFFFF800
(1523989550.734905) slcan0 7EC#2600000000000000
(1523989550.763458) slcan0 7E3#0221010000000000
(1523989550.772541) slcan0 7EB#101E6101000003FF
(1523989550.773085) slcan0 7E5#3010000000000000
(1523989550.785216) slcan0 7ED#21010271026D03C7
(1523989550.785747) slcan0 7E3#3010000000000000
(1523989550.795233) slcan0 7ED#22001273003301BD
(1523989550.802721) slcan0 7EB#210C38006F865534
(1523989550.805367) slcan0 7ED#2305254100000000
(1523989550.813504) slcan0 7D5#0221010000000000
(1523989550.816574) slcan0 7EB#220000000A005C02
(1523989550.816591) slcan0 7ED#2400240000600000
(1523989550.825231) slcan0 7EB#2360044B34000000
(1523989550.825251) slcan0 7ED#25000001F486E602
(1523989550.837146) slcan0 7EB#2400000000000000
(1523989550.837169) slcan0 7ED#26FA000000000000
(1523989550.837173) slcan0 7DD#101A6101FB180000
(1523989550.863398) slcan0 7E4#0221010000000000
(1523989550.874949) slcan0 7EC#103D6101FFFFFFFF
(1523989550.913387) slcan0 7E4#0221050000000000
(1523989550.963320) slcan0 7E2#0221010000000000
(1523989550.963784) slcan0 7D5#3010000000000000
(1523989550.964129) slcan0 7E4#3010000000000000
(1523989550.973313) slcan0 7EA#10166101FFE00000
(1523989550.973709) slcan0 7E2#3010000000000000
(1523989550.983712) slcan0 7EA#2109015AB405F002
(1523989550.994709) slcan0 7EA#22000000008A6B34
(1523989551.003857) slcan0 7EA#2304200000000000
(1523989551.013352) slcan0 7E2#0221020000000000
(1523989551.023750) slcan0 7EA#10176102FF800000
(1523989551.024202) slcan0 7E2#3010000000000000
(1523989551.033424) slcan0 7EA#2101010000008821
(1523989551.043564) slcan0 7EA#22AC76F034AF0C81
(1523989551.054090) slcan0 7EA#2386D03400000000
(1523989551.063265) slcan0 7E5#0221010000000000
(1523989551.076893) slcan0 7ED#102C6101FFFFF800
(1523989551.077410) slcan0 7E5#3010000000000000
(1523989551.085294) slcan0 7ED#21010270026B03C4
(1523989551.095533) slcan0 7ED#22001273003301BC
(1523989551.105363) slcan0 7ED#23052A4100000000
(1523989551.113421) slcan0 7E3#0221010000000000
(1523989551.116462) slcan0 7ED#2400240000600000
(1523989551.125250) slcan0 7EB#101E6101000003FF
(1523989551.125270) slcan0 7ED#25000001F486E303
(1523989551.125805) slcan0 7E3#3010000000000000
(1523989551.135287) slcan0 7EB#210C38007486A734
(1523989551.135303) slcan0 7ED#2609000000000000
(1523989551.142779) slcan0 7EB#220000000A005E02
(1523989551.153968) slcan0 7EB#2360049F34300018
(1523989551.162845) slcan0 7EB#2400B7FF00000000
(1523989551.163388) slcan0 7D5#0221010000000000
(1523989551.197282) slcan0 7DD#101A6101FB180000
(1523989551.197807) slcan0 7D5#3010000000000000
(1523989551.213451) slcan0 7E4#0221010000000000
(1523989551.225285) slcan0 7EC#103D6101FFFFFFFF
(1523989551.225826) slcan0 7E4#3010000000000000
(1523989551.237340) slcan0 7DD#21AC0DFFF4FCFD02
(1523989551.240261) slcan0 7EC#2140264826480300
(1523989551.250263) slcan0 7EC#220B0D750D0D0D0D
(1523989551.257329) slcan0 7DD#22010202FFFFFFFF
(1523989551.260286) slcan0 7EC#230D0D0D000DB302
(1523989551.263350) slcan0 7E4#0221020000000000
(1523989551.270303) slcan0 7EC#24B3270000850000
(1523989551.277353) slcan0 7DD#23000003C4000100
(1523989551.280320) slcan0 7EC#259D5500009DF000
(1523989551.294986) slcan0 7EC#260039E100003780
(1523989551.300623) slcan0 7EC#2700131E5C0D0158
(1523989551.310375) slcan0 7EC#280000000003E800
(1523989551.313262) slcan0 7E4#0221030000000000
(1523989551.325359) slcan0 7EC#10266103FFFFFFFF
(1523989551.325867) slcan0 7E4#3010000000000000
(1523989551.335390) slcan0 7EC#21B3B3B3B3B3B3B3
(1523989551.345616) slcan0 7EC#22B3B3B3B3B3B3B3
(1523989551.355571) slcan0 7EC#23B3B3B3B3B3B3B3
(1523989551.363255) slcan0 7E4#0221040000000000
(1523989551.366307) slcan0 7EC#24B3B3B3B3B3B3B3
(1523989551.375391) slcan0 7EC#25B3B3B3B3000000
(1523989551.395119) slcan0 7EC#10266104FFFFFFFF
(1523989551.395635) slcan0 7E4#3010000000000000
(1523989551.405439) slcan0 7EC#21B3B3B3B3B3B3B3
(1523989551.413398) slcan0 7E4#0221050000000000
(1523989551.416472) slcan0 7EC#22B3B3B3B3B3B3B3
(1523989551.425415) slcan0 7EC#23B3B3B3B3B3B3B3
(1523989551.435384) slcan0 7EC#24B3B3B3B3B3B3B3
(1523989551.445464) slcan0 7EC#25B3B3B3B3000000
(1523989551.460497) slcan0 7EC#102D6105FFFFFFFF
(1523989551.460989) slcan0 7E4#3010000000000000
(1523989551.463265) slcan0 7E2#0221010000000000
(1523989551.470478) slcan0 7EC#2100000000000D0D
(1523989551.473845) slcan0 7EA#10166101FFE00000
(1523989551.474441) slcan0 7E2#3010000000000000
(1523989551.480520) slcan0 7EC#220D0D0D0D0D2648
(1523989551.483858) slcan0 7EA#2109015AAC05EE02
(1523989551.495666) slcan0 7EA#2200000000796C34
(1523989551.495687) slcan0 7EC#2326480001500D0D
(1523989551.505693) slcan0 7EA#2304200000000000
(1523989551.505715) slcan0 7EC#2403E85003E82741
(1523989551.513386) slcan0 7E2#0221020000000000
(1523989551.516455) slcan0 7EC#2500290000000000
(1523989551.525624) slcan0 7EA#10176102FF800000
(1523989551.525643) slcan0 7EC#2600000000000000
(1523989551.563444) slcan0 7E5#0221010000000000
(1523989551.563914) slcan0 7E2#3010000000000000
(1523989551.575396) slcan0 7EA#2101010000008921
(1523989551.575424) slcan0 7ED#102C6101FFFFF800
(1523989551.583137) slcan0 7EA#22AC766535C70C84
(1523989551.583838) slcan0 7E5#3010000000000000
(1523989551.595746) slcan0 7EA#2386383500000000
(1523989551.595780) slcan0 7ED#21010273026D03C5
(1523989551.605381) slcan0 7ED#22001273003301BD
(1523989551.613388) slcan0 7E3#0221010000000000
(1523989551.616436) slcan0 7ED#2305364100000000
(1523989551.625259) slcan0 7EB#101E6101000003FF
(1523989551.625279) slcan0 7ED#2400240000600000
(1523989551.625774) slcan0 7E3#3010000000000000
(1523989551.635270) slcan0 7EB#210C380076861335
(1523989551.635289) slcan0 7ED#25000001F486E102
(1523989551.645437) slcan0 7EB#220000000A005C02
(1523989551.645457) slcan0 7ED#26FA000000000000
(1523989551.653184) slcan0 7EB#235F040B35490030
(1523989551.663253) slcan0 7EB#240086FF00000000
(1523989551.663389) slcan0 7D5#0221010000000000
(1523989551.687739) slcan0 7DD#101A6101FB180000
(1523989551.713460) slcan0 7E4#0221010000000000
(1523989551.725755) slcan0 7EC#103D6101FFFFFFFF
(1523989551.726196) slcan0 7D5#3010000000000000
(1523989551.726546) slcan0 7E4#3010000000000000
(1523989551.742156) slcan0 7EC#2140264826480300
(1523989551.750723) slcan0 7EC#220C0D750D0D0D0D
(1523989551.760948) slcan0 7EC#230D0D0D000DB302
(1523989551.763316) slcan0 7E4#0221050000000000
(1523989551.768000) slcan0 7DD#21AD0DFFF4FCFD02
(1523989551.770776) slcan0 7EC#24B3270000860000
(1523989551.782064) slcan0 7EC#259D5500009DF000
(1523989551.787755) slcan0 7DD#22010202FFFFFFFF
(1523989551.795525) slcan0 7EC#260039E100003780
(1523989551.802099) slcan0 7EC#2700131E5C0D0158
(1523989551.807543) slcan0 7DD#23000003C4000100
(1523989551.812012) slcan0 7EC#280000000003E800
(1523989551.813212) slcan0 7E2#0221010000000000
(1523989551.823265) slcan0 7EA#10166101FFE00000
(1523989551.823766) slcan0 7E2#3010000000000000
(1523989551.827255) slcan0 7EC#102D6105FFFFFFFF
(1523989551.827679) slcan0 7E4#3010000000000000
(1523989551.833264) slcan0 7EA#2109015AAC05F002
(1523989551.843182) slcan0 7EC#2100000000000D0D
(1523989551.843208) slcan0 7EA#2200000000176D34
(1523989551.854158) slcan0 7EA#2304200000000000
(1523989551.854178) slcan0 7EC#220D0D0D0D0D2648
(1523989551.862180) slcan0 7EC#23264800014B0D0D
(1523989551.863396) slcan0 7E2#0221020000000000
(1523989551.873174) slcan0 7EC#2403E85003E82741
(1523989551.873199) slcan0 7EA#10176102FF800000
(1523989551.882183) slcan0 7EC#2500290000000000
(1523989551.895695) slcan0 7EC#2600000000000000
(1523989551.896216) slcan0 7E2#3010000000000000
(1523989551.903509) slcan0 7EA#210101000000891E
(1523989551.913109) slcan0 7EA#22AC769935DD0B8C
(1523989551.913335) slcan0 7E5#0221010000000000
(1523989551.925351) slcan0 7EA#23866B3500000000
(1523989551.925374) slcan0 7ED#102C6101FFFFF800
(1523989551.963346) slcan0 7E3#0221010000000000
(1523989551.973580) slcan0 7EB#101E6101000003FF
(1523989551.974042) slcan0 7E5#3010000000000000
(1523989551.974474) slcan0 7E3#3010000000000000
(1523989551.985246) slcan0 7EB#210C380070868635
(1523989551.985269) slcan0 7ED#21010273026D03C6
(1523989551.997146) slcan0 7EB#220000000A005D02
(1523989551.997169) slcan0 7ED#22001273003301BD
(1523989552.005541) slcan0 7EB#2362048135000000
(1523989552.005562) slcan0 7ED#23053F4100000000
(1523989552.013384) slcan0 7D5#0221010000000000
(1523989552.016451) slcan0 7EB#2400000000000000
(1523989552.016478) slcan0 7ED#2400240000600000
(1523989552.025193) slcan0 7ED#25000001F486E303
(1523989552.037917) slcan0 7ED#2606000000000000
(1523989552.037939) slcan0 7DD#101A6101FB180000
(1523989552.063312) slcan0 7E4#0221010000000000
(1523989552.077964) slcan0 7EC#103D6101FFFFFFFF
(1523989552.113401) slcan0 7E4#0221050000000000
(1523989552.163441) slcan0 7E2#0221010000000000
(1523989552.163803) slcan0 7D5#3010000000000000
(1523989552.164089) slcan0 7E4#3010000000000000
(1523989552.173213) slcan0 7EA#10166101FFE00000
(1523989552.173704) slcan0 7E2#3010000000000000
(1523989552.183184) slcan0 7EA#2109015AAF05F002
(1523989552.197996) slcan0 7EA#2200000000BB6D34
(1523989552.198017) slcan0 7DD#21AE0DFFF4FCFD02
(1523989552.203418) slcan0 7EA#2304200000000000
(1523989552.213389) slcan0 7E2#0221020000000000
(1523989552.218215) slcan0 7DD#22010202FFFFFFFF
(1523989552.224777) slcan0 7EA#10176102FF800000
(1523989552.225314) slcan0 7E2#3010000000000000
(1523989552.233424) slcan0 7EA#2101010000008A1E
(1523989552.238233) slcan0 7DD#23000003C4000100
(1523989552.243096) slcan0 7EA#22AC76D3358B0B7E
(1523989552.253217) slcan0 7EA#2386B63500000000
(1523989552.263469) slcan0 7E5#0221010000000000
(1523989552.275493) slcan0 7ED#102C6101FFFFF800
(1523989552.276055) slcan0 7E5#3010000000000000
(1523989552.285255) slcan0 7ED#21010275026F03C6
(1523989552.297191) slcan0 7ED#22001273003301BC
(1523989552.305422) slcan0 7ED#2305444100000000
(1523989552.313618) slcan0 7E3#0221010000000000
(1523989552.316625) slcan0 7ED#2400240000600000
(1523989552.325253) slcan0 7EB#101E6101000003FF
(1523989552.325274) slcan0 7ED#25000001F486E603
(1523989552.325765) slcan0 7E3#3010000000000000
(1523989552.335282) slcan0 7EB#210C38006586F335
(1523989552.335302) slcan0 7ED#2603000000000000
(1523989552.343944) slcan0 7EB#220000000A005D02
(1523989552.353854) slcan0 7EB#236304C135000018
(1523989552.363405) slcan0 7D5#0221010000000000
(1523989552.366481) slcan0 7EB#2400E8FF00000000
(1523989552.387933) slcan0 7DD#101A6101FB180000
(1523989552.388378) slcan0 7D5#3010000000000000
(1523989552.413589) slcan0 7E4#0221010000000000
(1523989552.428010) slcan0 7EC#103D6101FFFFFFFF
(1523989552.428033) slcan0 7DD#21AF0DFFF4FCFD02
(1523989552.428681) slcan0 7E4#3010000000000000
(1523989552.442232) slcan0 7EC#2140264826480300
(1523989552.448293) slcan0 7DD#22010202FFFFFFFF
(1523989552.453454) slcan0 7EC#220D0D750D0D0D0D
(1523989552.462201) slcan0 7EC#230D0D0D000DB302
(1523989552.463183) slcan0 7E4#0221050000000000
(1523989552.468270) slcan0 7DD#23000003C4000100
(1523989552.472185) slcan0 7EC#24B3270000870000
(1523989552.482439) slcan0 7EC#259D5500009DF000
(1523989552.497907) slcan0 7EC#260039E100003780
(1523989552.507888) slcan0 7EC#2700131E5D0D0158
(1523989552.513327) slcan0 7E2#0221010000000000
(1523989552.517262) slcan0 7EC#280000000003E800
(1523989552.523374) slcan0 7EA#10166101FFE00000
(1523989552.523926) slcan0 7E2#3010000000000000
(1523989552.533197) slcan0 7EC#102D6105FFFFFFFF
(1523989552.533212) slcan0 7EA#2109015AAC05F302
(1523989552.533640) slcan0 7E4#3010000000000000
(1523989552.543183) slcan0 7EA#2200000000696E34
(1523989552.547526) slcan0 7EC#2100000000000D0D
(1523989552.553255) slcan0 7EA#2304200000000000
(1523989552.557516) slcan0 7EC#220D0D0D0D0D2648
(1523989552.563209) slcan0 7E2#0221020000000000
(1523989552.567921) slcan0 7EC#2326480001500D0D
(1523989552.573230) slcan0 7EA#10176102FF800000
(1523989552.573732) slcan0 7E2#3010000000000000
(1523989552.577247) slcan0 7EC#2403E85003E82741
(1523989552.583211) slcan0 7EA#2101010000008B21
(1523989552.587529) slcan0 7EC#2500290000000000
(1523989552.598177) slcan0 7EA#22AC764B36D30C87
(1523989552.598193) slcan0 7EC#2600000000000000
(1523989552.603472) slcan0 7EA#23862D3600000000
(1523989552.613461) slcan0 7E5#0221010000000000
(1523989552.625424) slcan0 7ED#102C6101FFFFF800
(1523989552.625930) slcan0 7E5#3010000000000000
(1523989552.635429) slcan0 7ED#21010271026D03C6
(1523989552.645305) slcan0 7ED#22001273003301BD
(1523989552.655273) slcan0 7ED#23054F4100000000
(1523989552.663346) slcan0 7E3#0221010000000000
(1523989552.666600) slcan0 7ED#2400240000600000
(1523989552.675624) slcan0 7EB#101E6101000003FF
(1523989552.675644) slcan0 7ED#25000001F486E703
(1523989552.676111) slcan0 7E3#3010000000000000
(1523989552.685439) slcan0 7EB#210C38007086FA35
(1523989552.685458) slcan0 7ED#2607000000000000
(1523989552.697902) slcan0 7EB#220000000A005B02
(1523989552.704472) slcan0 7EB#236204ED35300030
(1523989552.713464) slcan0 7D5#0221010000000000
(1523989552.716678) slcan0 7EB#24009FFF00000000
(1523989552.738257) slcan0 7DD#101A6101FB180000
(1523989552.738811) slcan0 7D5#3010000000000000
(1523989552.763478) slcan0 7E4#0221010000000000
(1523989552.778852) slcan0 7EC#103D6101FFFFFFFF
(1523989552.778873) slcan0 7DD#21B00DFFF4FCFD02
(1523989552.779481) slcan0 7E4#3010000000000000
(1523989552.798750) slcan0 7EC#2140264826480300
(1523989552.798769) slcan0 7DD#22010201FFFFFFFF
(1523989552.807561) slcan0 7EC#220C0D750D0D0D0D
(1523989552.813573) slcan0 7E4#0221050000000000
(1523989552.818925) slcan0 7EC#230D0D0D000DB33A
(1523989552.818945) slcan0 7DD#23000003C4000100
(1523989552.827511) slcan0 7EC#24B3270000880000
(1523989552.837509) slcan0 7EC#259D5500009DF000
(1523989552.847570) slcan0 7EC#260039E100003780
(1523989552.858086) slcan0 7EC#2700131E5D0D0158
(1523989552.863300) slcan0 7E2#0221010000000000
(1523989552.867827) slcan0 7EC#280000000003E800
(1523989552.873239) slcan0 7EA#10166101FFE00000
(1523989552.873741) slcan0 7E2#3010000000000000
(1523989552.883201) slcan0 7EC#102D6105FFFFFFFF
(1523989552.883222) slcan0 7EA#2109015AAF05F502
(1523989552.883691) slcan0 7E4#3010000000000000
(1523989552.898471) slcan0 7EA#2200000000086F34
(1523989552.898493) slcan0 7EC#2100000000000D0D
(1523989552.903422) slcan0 7EA#2304200000000000
(1523989552.907809) slcan0 7EC#220D0D0D0D0D2648
(1523989552.913373) slcan0 7E2#0221020000000000
(1523989552.917274) slcan0 7EC#2326480001500D0D
(1523989552.923513) slcan0 7EA#10176102FF800000
(1523989552.924012) slcan0 7E2#3010000000000000
(1523989552.927609) slcan0 7EC#2403E85003E82741
(1523989552.933412) slcan0 7EA#2101010000008C20
(1523989552.937759) slcan0 7EC#2500290000000000
(1523989552.943137) slcan0 7EA#22AC769A36E80C7A
(1523989552.947602) slcan0 7EC#2600000000000000
(1523989552.953282) slcan0 7EA#23866F3600000000
(1523989552.963265) slcan0 7E5#0221010000000000
(1523989552.975530) slcan0 7ED#102C6101FFFFF800
(1523989552.976025) slcan0 7E5#3010000000000000
(1523989552.985241) slcan0 7ED#21010270026B03C3
(1523989552.998210) slcan0 7ED#22001173003301BD
(1523989553.005643) slcan0 7ED#2305544100000000
(1523989553.013738) slcan0 7E3#0221010000000000
(1523989553.016723) slcan0 7ED#2400240000600000
(1523989553.025484) slcan0 7EB#101E6101000003FF
(1523989553.025504) slcan0 7ED#25000001F486E703
(1523989553.025975) slcan0 7E3#3010000000000000
(1523989553.035399) slcan0 7EB#210C380072865236
(1523989553.035412) slcan0 7ED#2600000000000000
(1523989553.044639) slcan0 7EB#220000000A005B02
(1523989553.054401) slcan0 7EB#235F043C36B7FF49
(1523989553.063387) slcan0 7D5#0221010000000000
(1523989553.066400) slcan0 7EB#2400000000000000
(1523989553.088283) slcan0 7DD#101A6101FB180000
(1523989553.088797) slcan0 7D5#3010000000000000
(1523989553.113341) slcan0 7E4#0221010000000000
(1523989553.128187) slcan0 7EC#103D6101FFFFFFFF
(1523989553.128210) slcan0 7DD#21B10DFFF4FCFD02
(1523989553.128753) slcan0 7E4#3010000000000000
(1523989553.142207) slcan0 7EC#2140264826480300
(1523989553.148285) slcan0 7DD#22010202FFFFFFFF
(1523989553.153265) slcan0 7EC#220C0D750D0D0D0D
(1523989553.162230) slcan0 7EC#230D0D0D000DB326
(1523989553.163189) slcan0 7E4#0221050000000000
(1523989553.168546) slcan0 7DD#23000003C4000100
(1523989553.172287) slcan0 7EC#24B3270000890000
(1523989553.182264) slcan0 7EC#259D5500009DF000
(1523989553.198351) slcan0 7EC#260039E100003780
(1523989553.207616) slcan0 7EC#2700131E5E0D0158
(1523989553.213368) slcan0 7E2#0221010000000000
(1523989553.217318) slcan0 7EC#280000000003E800
(1523989553.224132) slcan0 7EA#10166101FFE00000
(1523989553.224689) slcan0 7E2#3010000000000000
(1523989553.233219) slcan0 7EC#102D6105FFFFFFFF
(1523989553.233240) slcan0 7EA#2109015AAC05F002
(1523989553.233790) slcan0 7E4#3010000000000000
(1523989553.243388) slcan0 7EA#2200000000A36F34
(1523989553.247745) slcan0 7EC#2100000000000D0D
(1523989553.253521) slcan0 7EA#2304200000000000
(1523989553.257854) slcan0 7EC#220D0D0D0D0D2648
(1523989553.263448) slcan0 7E2#0221020000000000
(1523989553.267627) slcan0 7EC#2326480001500D0D
(1523989553.273310) slcan0 7EA#10176102FF800000
(1523989553.273841) slcan0 7E2#3010000000000000
(1523989553.277484) slcan0 7EC#2403E85003E82741
(1523989553.283268) slcan0 7EA#2101010000008C1E
(1523989553.287635) slcan0 7EC#2500290000000000
(1523989553.298876) slcan0 7EA#22AC77BB36A50B7F
(1523989553.298896) slcan0 7EC#2600000000000000
(1523989553.303534) slcan0 7EA#23869B3600000000
(1523989553.313487) slcan0 7E5#0221010000000000
(1523989553.325477) slcan0 7ED#102C6101FFFFF800
(1523989553.325793) slcan0 7E5#3010000000000000
(1523989553.335556) slcan0 7ED#21010272026D03C5
(1523989553.345452) slcan0 7ED#22001273003301BD
(1523989553.355479) slcan0 7ED#23055D4100000000
(1523989553.363492) slcan0 7E3#0221010000000000
(1523989553.366568) slcan0 7ED#2400240000600000
(1523989553.375738) slcan0 7EB#101E6101000003FF
(1523989553.375752) slcan0 7ED#25000001F486E002
(1523989553.376151) slcan0 7E3#3010000000000000
(1523989553.385657) slcan0 7EB#210C38007686D936
(1523989553.385676) slcan0 7ED#26F7000000000000
(1523989553.398765) slcan0 7EB#220000000A005D02
(1523989553.404808) slcan0 7EB#236204D536000018
(1523989553.413288) slcan0 7D5#0221010000000000
(1523989553.416292) slcan0 7EB#2400E8FF00000000
(1523989553.438410) slcan0 7DD#101A6101FB180000
(1523989553.438910) slcan0 7D5#3010000000000000
(1523989553.463414) slcan0 7E4#0221010000000000
(1523989553.478537) slcan0 7EC#103D6101FFFFFFFF
(1523989553.478558) slcan0 7DD#21B20DFFF4FCFD02
(1523989553.479096) slcan0 7E4#3010000000000000
(1523989553.499088) slcan0 7DD#22010201FFFFFFFF
(1523989553.499108) slcan0 7EC#2140264826480300
(1523989553.508055) slcan0 7EC#220E0D750D0D0D0D
(1523989553.513248) slcan0 7E4#0221050000000000
(1523989553.518724) slcan0 7EC#230D0D0D000DB303
(1523989553.518740) slcan0 7DD#23000003C4000100
(1523989553.527694) slcan0 7EC#24B32700008A0000
(1523989553.537786) slcan0 7EC#259D5500009DF000
(1523989553.547646) slcan0 7EC#260039E100003780
(1523989553.557711) slcan0 7EC#2700131E5E0D0158
(1523989553.563438) slcan0 7E2#0221010000000000
(1523989553.567997) slcan0 7EC#280000000003E800
(1523989553.573282) slcan0 7EA#10166101FFE00000
(1523989553.573770) slcan0 7E2#3010000000000000
(1523989553.583419) slcan0 7EC#102D6105FFFFFFFF
(1523989553.583440) slcan0 7EA#2109015AAC05F302
(1523989553.583926) slcan0 7E4#3010000000000000
(1523989553.598999) slcan0 7EA#2200000000487034
(1523989553.599019) slcan0 7EC#2100000000000D0D
(1523989553.603478) slcan0 7EA#2304200000000000
(1523989553.607715) slcan0 7EC#220D0D0D0D0D2648
(1523989553.613258) slcan0 7E2#0221020000000000
(1523989553.617741) slcan0 7EC#2326480001500D0D
(1523989553.623450) slcan0 7EA#10176102FF800000
(1523989553.623830) slcan0 7E2#3010000000000000
(1523989553.627722) slcan0 7EC#2403E85003E82741
(1523989553.633232) slcan0 7EA#2101010000008D20
(1523989553.637676) slcan0 7EC#2500290000000000
(1523989553.643214) slcan0 7EA#22AC770B37E70B8B
(1523989553.647685) slcan0 7EC#2600000000000000
(1523989553.653320) slcan0 7EA#2386F43600000000
(1523989553.663411) slcan0 7E5#0221010000000000
(1523989553.675802) slcan0 7ED#102C6101FFFFF800
(1523989553.676317) slcan0 7E5#3010000000000000
(1523989553.685779) slcan0 7ED#21010272026D03C7
(1523989553.698512) slcan0 7ED#22001273003301BD
(1523989553.708146) slcan0 7ED#2305634100000000
(1523989553.713533) slcan0 7E3#0221010000000000
(1523989553.716778) slcan0 7ED#2400240000600000
(1523989553.727902) slcan0 7EB#101E6101000003FF
(1523989553.727923) slcan0 7ED#25000001F486E703
(1523989553.728467) slcan0 7E3#3010000000000000
(1523989553.736085) slcan0 7EB#210C380076860F37
(1523989553.736106) slcan0 7ED#2600000000000000
(1523989553.745159) slcan0 7EB#220000000A005C02
(1523989553.755291) slcan0 7EB#236004ED36610030
(1523989553.763468) slcan0 7D5#0221010000000000
(1523989553.766563) slcan0 7EB#24006EFF00000000
(1523989553.788674) slcan0 7DD#101A6101FB180000
(1523989553.789167) slcan0 7D5#3010000000000000
(1523989553.813522) slcan0 7E4#0221010000000000
(1523989553.828659) slcan0 7EC#103D6101FFFFFFFF
(1523989553.828683) slcan0 7DD#21B30DFFF4FCFD02
(1523989553.829158) slcan0 7E4#3010000000000000
(1523989553.843102) slcan0 7EC#2140264826480300
(1523989553.848714) slcan0 7DD#22010202FFFFFFFF
(1523989553.853320) slcan0 7EC#220E0D750D0D0D0D
(1523989553.862964) slcan0 7EC#230D0D0D000DB302
(1523989553.863356) slcan0 7E4#0221050000000000
(1523989553.868988) slcan0 7DD#23000003C4000100
(1523989553.872874) slcan0 7EC#24B32700008B0000
(1523989553.882966) slcan0 7EC#259D5500009DF000
(1523989553.898586) slcan0 7EC#260039E100003780
(1523989553.908025) slcan0 7EC#2700131E5E0D0158
(1523989553.913578) slcan0 7E2#0221010000000000
(1523989553.918001) slcan0 7EC#280000000003E800
(1523989553.923296) slcan0 7EA#10166101FFE00000
(1523989553.923664) slcan0 7E2#3010000000000000
(1523989553.933337) slcan0 7EC#102D6105FFFFFFFF
(1523989553.933352) slcan0 7EA#2109015AAC05F502
(1523989553.933738) slcan0 7E4#3010000000000000
(1523989553.943336) slcan0 7EA#2200000000E87034
(1523989553.947948) slcan0 7EC#2100000000000D0D
(1523989553.953319) slcan0 7EA#2304200000000000
(1523989553.957942) slcan0 7EC#220D0D0D0D0D2648
(1523989553.963270) slcan0 7E2#0221020000000000
(1523989553.967945) slcan0 7EC#2326480001500D0D
(1523989553.973451) slcan0 7EA#10176102FF800000
(1523989553.973939) slcan0 7E2#3010000000000000
(1523989553.977961) slcan0 7EC#2403E85003E82741
(1523989553.983237) slcan0 7EA#2101010000008E21
(1523989553.988000) slcan0 7EC#2500290000000000
(1523989553.998985) slcan0 7EA#22AC778037170D87
(1523989553.999007) slcan0 7EC#2600000000000000
(1523989554.003400) slcan0 7EA#2386583700000000
(1523989554.013385) slcan0 7E5#0221010000000000
(1523989554.027798) slcan0 7ED#102C6101FFFFF800
(1523989554.028289) slcan0 7E5#3010000000000000
(1523989554.035311) slcan0 7ED#21010270026B03C4
(1523989554.045264) slcan0 7ED#22001273003301BD
(1523989554.055462) slcan0 7ED#23056C4100000000
(1523989554.063417) slcan0 7E3#0221010000000000
(1523989554.066679) slcan0 7ED#2400240000600000
(1523989554.077873) slcan0 7ED#25000001F486E102
(1523989554.077896) slcan0 7EB#101E6101000003FF
(1523989554.085307) slcan0 7ED#26FC000000000000
(1523989554.085783) slcan0 7E3#3010000000000000
(1523989554.098581) slcan0 7EB#210C380070863137
(1523989554.105495) slcan0 7EB#220000000A005C02
(1523989554.113255) slcan0 7D5#0221010000000000
(1523989554.116251) slcan0 7EB#2360041437490049
(1523989554.125527) slcan0 7EB#24006EFF00000000
(1523989554.138805) slcan0 7DD#101A6101FB180000
(1523989554.139288) slcan0 7D5#3010000000000000
(1523989554.163225) slcan0 7E4#0221010000000000
(1523989554.173170) slcan0 7EC#103D6101FFFFFFFF
(1523989554.173745) slcan0 7E4#3010000000000000
(1523989554.178920) slcan0 7DD#21B40DFFF4FCFD02
(1523989554.188215) slcan0 7EC#2140264826480300
(1523989554.199024) slcan0 7EC#220C0D750D0D0D0D
(1523989554.199046) slcan0 7DD#22010202FFFFFFFF
(1523989554.208341) slcan0 7EC#230D0D0D000DB302
(1523989554.213516) slcan0 7E4#0221050000000000
(1523989554.219393) slcan0 7EC#24B32700008B0000
(1523989554.219415) slcan0 7DD#23000003C4000100
(1523989554.228518) slcan0 7EC#259D5500009DF000
(1523989554.238213) slcan0 7EC#260039E100003780
(1523989554.248273) slcan0 7EC#2700131E5F0D0158
(1523989554.258406) slcan0 7EC#280000000003E800
(1523989554.263502) slcan0 7E2#0221010000000000
(1523989554.273899) slcan0 7EC#102D6105FFFFFFFF
(1523989554.273921) slcan0 7EA#10166101FFE00000
(1523989554.274517) slcan0 7E4#3010000000000000
(1523989554.274967) slcan0 7E2#3010000000000000
(1523989554.283457) slcan0 7EA#2109015AAF05F002
(1523989554.288299) slcan0 7EC#2100000000000D0D
(1523989554.299190) slcan0 7EA#2200000000827134
(1523989554.299212) slcan0 7EC#220D0D0D0D0D2648
(1523989554.303478) slcan0 7EA#2304200000000000
(1523989554.308646) slcan0 7EC#2326480001550D0D
(1523989554.313382) slcan0 7E2#0221020000000000
(1523989554.318332) slcan0 7EC#2403E85003E82741
(1523989554.323335) slcan0 7EA#10176102FF800000
(1523989554.323866) slcan0 7E2#3010000000000000
(1523989554.328629) slcan0 7EC#2500290000000000
(1523989554.333264) slcan0 7EA#2101010000008E1E
(1523989554.338384) slcan0 7EC#2600000000000000
(1523989554.343268) slcan0 7EA#22AC77BE375B0C80
(1523989554.353343) slcan0 7EA#23868D3700000000
(1523989554.363232) slcan0 7E5#0221010000000000
(1523989554.375477) slcan0 7ED#102C6101FFFFF800
(1523989554.376002) slcan0 7E5#3010000000000000
(1523989554.385253) slcan0 7ED#2101026F026A03C4
(1523989554.398654) slcan0 7ED#22001173003301BD
(1523989554.405513) slcan0 7ED#2305724100000000
(1523989554.413516) slcan0 7E3#0221010000000000
(1523989554.416786) slcan0 7ED#2400240000600000
(1523989554.425969) slcan0 7ED#25000001F486DE03
(1523989554.425994) slcan0 7EB#101E6101000003FF
(1523989554.435551) slcan0 7ED#2606000000000000
(1523989554.436112) slcan0 7E3#3010000000000000
(1523989554.445742) slcan0 7EB#210C380072869037
(1523989554.455711) slcan0 7EB#220000000A005E02
(1523989554.463394) slcan0 7D5#0221010000000000
(1523989554.466478) slcan0 7EB#2362047C37180018
(1523989554.475791) slcan0 7EB#2400D0FF00000000
(1523989554.488951) slcan0 7DD#101A6101FB180000
(1523989554.489333) slcan0 7D5#3010000000000000
(1523989554.513299) slcan0 7E4#0221010000000000
(1523989554.523577) slcan0 7EC#103D6101FFFFFFFF
(1523989554.524127) slcan0 7E4#3010000000000000
(1523989554.529166) slcan0 7DD#21B50DFFF4FCFD02
(1523989554.538709) slcan0 7EC#2140264826480300
(1523989554.549310) slcan0 7EC#220C0D750D0D0D0D
(1523989554.549331) slcan0 7DD#22010202FFFFFFFF
(1523989554.558737) slcan0 7EC#230D0D0D000DB34E
(1523989554.563464) slcan0 7E4#0221050000000000
(1523989554.570658) slcan0 7DD#23000003C4000100
(1523989554.570680) slcan0 7EC#24B30A00008C0000
(1523989554.578592) slcan0 7EC#259D5500009DF000
(1523989554.588820) slcan0 7EC#260039E100003780
(1523989554.598581) slcan0 7EC#2700131E5F0D0158
(1523989554.608649) slcan0 7EC#280000000003E800
(1523989554.613363) slcan0 7E2#0221010000000000
(1523989554.624083) slcan0 7EA#10166101FFE00000
(1523989554.624104) slcan0 7EC#102D6105FFFFFFFF
(1523989554.624602) slcan0 7E2#3010000000000000
(1523989554.625075) slcan0 7E4#3010000000000000
(1523989554.633567) slcan0 7EA#2109015AB105F002
(1523989554.638644) slcan0 7EC#2100000000000D0D
(1523989554.643575) slcan0 7EA#22000000001D7234
(1523989554.648923) slcan0 7EC#220D0D0D0D0D2648
(1523989554.653593) slcan0 7EA#2304200000000000
(1523989554.658985) slcan0 7EC#2326480001500D0D
(1523989554.663468) slcan0 7E2#0221020000000000
(1523989554.670201) slcan0 7EC#2403E85003E82741
(1523989554.673330) slcan0 7EA#10176102FF800000
(1523989554.673718) slcan0 7E2#3010000000000000
(1523989554.678708) slcan0 7EC#2500290000000000
(1523989554.683324) slcan0 7EA#2101010000008F1F
(1523989554.688726) slcan0 7EC#2600000000000000
(1523989554.698745) slcan0 7EA#22AC77DA37D30B7C
(1523989554.703450) slcan0 7EA#2386C13700000000
(1523989554.713253) slcan0 7E5#0221010000000000
(1523989554.725398) slcan0 7ED#102C6101FFFFF800
(1523989554.726021) slcan0 7E5#3010000000000000
(1523989554.735435) slcan0 7ED#2101026E026903C3
(1523989554.745624) slcan0 7ED#22001173003301BD
(1523989554.755418) slcan0 7ED#23057B4100000000
(1523989554.763475) slcan0 7E3#0221010000000000
(1523989554.766540) slcan0 7ED#2400240000600000
(1523989554.776157) slcan0 7ED#25000001F486DE03
(1523989554.776179) slcan0 7EB#101E6101000003FF
(1523989554.785417) slcan0 7ED#2602000000000000
(1523989554.785979) slcan0 7E3#3010000000000000
(1523989554.798910) slcan0 7EB#210C38007086EF37
(1523989554.806231) slcan0 7EB#220000000A005D02
(1523989554.813431) slcan0 7D5#0221010000000000
(1523989554.816507) slcan0 7EB#236204CF37000000
(1523989554.826027) slcan0 7EB#2400000000000000
(1523989554.839180) slcan0 7DD#101A6101FB180000
(1523989554.839659) slcan0 7D5#3010000000000000
(1523989554.863352) slcan0 7E4#0221010000000000
(1523989554.873981) slcan0 7EC#103D6101FFFFFFFF
(1523989554.874259) slcan0 7E4#3010000000000000
(1523989554.879172) slcan0 7DD#21B60DFFF4FCFD02
(1523989554.884139) slcan0 7EC#2140264826480300
(1523989554.899502) slcan0 7EC#220E0D750D0D0D0D
(1523989554.899514) slcan0 7DD#22010202FFFFFFFF
(1523989554.904468) slcan0 7EC#230D0D0D000DB304
(1523989554.913418) slcan0 7E4#0221050000000000
(1523989554.916733) slcan0 7EC#24B32700008D0000
(1523989554.919606) slcan0 7DD#23000003C4000100
(1523989554.924228) slcan0 7EC#259D5500009DF000
(1523989554.933913) slcan0 7EC#260039E100003780
(1523989554.943930) slcan0 7EC#2700131E5F0D0158
(1523989554.953955) slcan0 7EC#280000000003E800
(1523989554.963336) slcan0 7E2#0221010000000000
(1523989554.970469) slcan0 7EC#102D6105FFFFFFFF
(1523989554.970976) slcan0 7E4#3010000000000000
(1523989554.974215) slcan0 7EA#10166101FFE00000
(1523989554.974757) slcan0 7E2#3010000000000000
(1523989554.984168) slcan0 7EA#2109015AB105F302
(1523989554.984190) slcan0 7EC#2100000000000D0D
(1523989554.999119) slcan0 7EA#2200000000BF7234
(1523989554.999139) slcan0 7EC#220D0D0D0D0D2648
(1523989555.003736) slcan0 7EA#2304200000000000
(1523989555.009222) slcan0 7EC#2326480001550D0D
(1523989555.013435) slcan0 7E2#0221020000000000
(1523989555.018943) slcan0 7EC#2403E85003E82741
(1523989555.023650) slcan0 7EA#10176102FF800000
(1523989555.028971) slcan0 7EC#2500290000000000
(1523989555.029626) slcan0 7E2#3010000000000000
(1523989555.038995) slcan0 7EC#2600000000000000
(1523989555.043227) slcan0 7EA#2101010000009021
(1523989555.053269) slcan0 7EA#22AC774C38AA0C7C
(1523989555.063022) slcan0 7E5#0221010000000000
(1523989555.066014) slcan0 7EA#2386393800000000
(1523989555.075296) slcan0 7ED#102C6101FFFFF800
(1523989555.075608) slcan0 7E5#3010000000000000
(1523989555.085200) slcan0 7ED#21010277026F03C5
(1523989555.098754) slcan0 7ED#22001273003301BD
(1523989555.105591) slcan0 7ED#2305814100000000
(1523989555.113429) slcan0 7E3#0221010000000000
(1523989555.116659) slcan0 7ED#2400240000600000
(1523989555.125466) slcan0 7ED#25000001F486DD03
(1523989555.128762) slcan0 7EB#101E6101000003FF
(1523989555.129327) slcan0 7E3#3010000000000000
(1523989555.135284) slcan0 7ED#2612000000000000
(1523989555.138469) slcan0 7EB#210C38006F863338
(1523989555.148579) slcan0 7EB#220000000A005D02
(1523989555.158367) slcan0 7EB#2360041438300030
(1523989555.163550) slcan0 7D5#0221010000000000
(1523989555.170570) slcan0 7EB#24009FFF00000000
(1523989555.189343) slcan0 7DD#101A6101FB180000
(1523989555.189845) slcan0 7D5#3010000000000000
(1523989555.213594) slcan0 7E4#0221010000000000
(1523989555.224596) slcan0 7EC#103D6101FFFFFFFF
(1523989555.225194) slcan0 7E4#3010000000000000
(1523989555.229643) slcan0 7DD#21B70DFFF4FCFD02
(1523989555.239186) slcan0 7EC#2140264826480300
(1523989555.249945) slcan0 7EC#220E0D750D0D0D0D
(1523989555.249967) slcan0 7DD#22010202FFFFFFFF
(1523989555.259394) slcan0 7EC#230D0D0D000DB302
(1523989555.263396) slcan0 7E4#0221050000000000
(1523989555.270591) slcan0 7DD#23000003C4000100
(1523989555.270612) slcan0 7EC#24B32700008D0000
(1523989555.279292) slcan0 7EC#259D5500009DF000
(1523989555.289343) slcan0 7EC#260039E100003780
(1523989555.299317) slcan0 7EC#2700131E600D0158
(1523989555.309595) slcan0 7EC#280000000003E800
(1523989555.313463) slcan0 7E2#0221010000000000
(1523989555.324373) slcan0 7EA#10166101FFE00000
(1523989555.324393) slcan0 7EC#102D6105FFFFFFFF
(1523989555.324998) slcan0 7E2#3010000000000000
(1523989555.325403) slcan0 7E4#3010000000000000
(1523989555.333587) slcan0 7EA#2109015AB105F502
(1523989555.339654) slcan0 7EC#2100000000000D0D
(1523989555.343612) slcan0 7EA#2200000000527334
(1523989555.349608) slcan0 7EC#220D0D0D0D0D2648
(1523989555.353691) slcan0 7EA#2304200000000000
(1523989555.359374) slcan0 7EC#2326480001500D0D
(1523989555.363355) slcan0 7E2#0221020000000000
(1523989555.370378) slcan0 7EC#2403E85003E82741
(1523989555.373402) slcan0 7EA#10176102FF800000
(1523989555.373952) slcan0 7E2#3010000000000000
(1523989555.379519) slcan0 7EC#2500290000000000
(1523989555.383526) slcan0 7EA#210101000000911E
(1523989555.389705) slcan0 7EC#2600000000000000
(1523989555.399098) slcan0 7EA#22AC779538910C87
(1523989555.403605) slcan0 7EA#23866F3800000000
(1523989555.413318) slcan0 7E5#0221010000000000
(1523989555.425621) slcan0 7ED#102C6101FFFFF800
(1523989555.426226) slcan0 7E5#3010000000000000
(1523989555.435252) slcan0 7ED#21010271026D03C6
(1523989555.445281) slcan0 7ED#22001273003301BD
(1523989555.455532) slcan0 7ED#2305894100000000
(1523989555.463383) slcan0 7E3#0221010000000000
(1523989555.466675) slcan0 7ED#2400240000600000
(1523989555.475370) slcan0 7ED#25000001F486E403
(1523989555.478583) slcan0 7EB#101E6101000003FF
(1523989555.479056) slcan0 7E3#3010000000000000
(1523989555.485553) slcan0 7ED#2606000000000000
(1523989555.488657) slcan0 7EB#210C38006E864738
(1523989555.499258) slcan0 7EB#220000000A005C02
(1523989555.508926) slcan0 7EB#2360043738180000
(1523989555.513373) slcan0 7D5#0221010000000000
(1523989555.518512) slcan0 7EB#2400E8FF00000000
(1523989555.539515) slcan0 7DD#101A6101FB180000
(1523989555.539942) slcan0 7D5#3010000000000000
(1523989555.563444) slcan0 7E4#0221010000000000
(1523989555.580164) slcan0 7DD#21B80DFFF4FCFD02
(1523989555.580185) slcan0 7EC#103D6101FFFFFFFF
(1523989555.599822) slcan0 7DD#22010202FFFFFFFF
(1523989555.600384) slcan0 7E4#3010000000000000
(1523989555.613662) slcan0 7E4#0221050000000000
(1523989555.616886) slcan0 7EC#2140264826480300
(1523989555.619797) slcan0 7DD#23000003C4000100
(1523989555.624847) slcan0 7EC#220C0D750D0D0D0D
(1523989555.634912) slcan0 7EC#230D0D0D000DB302
(1523989555.644907) slcan0 7EC#24B32700008E0000
(1523989555.654683) slcan0 7EC#259D5500009DF000
(1523989555.663451) slcan0 7E2#0221010000000000
(1523989555.666502) slcan0 7EC#260039E100003780
(1523989555.674933) slcan0 7EA#10166101FFE00000
(1523989555.674971) slcan0 7EC#2700131E600D0158
(1523989555.675467) slcan0 7E2#3010000000000000
(1523989555.684928) slcan0 7EA#2109015AAF05F302
(1523989555.684949) slcan0 7EC#280000000003E800
(1523989555.700100) slcan0 7EA#2200000000EE7334
(1523989555.700122) slcan0 7EC#102D6105FFFFFFFF
(1523989555.703822) slcan0 7EA#2304200000000000
(1523989555.713593) slcan0 7E2#0221020000000000
(1523989555.714044) slcan0 7E4#3010000000000000
(1523989555.724756) slcan0 7EA#10176102FF800000
(1523989555.724774) slcan0 7EC#2100000000000D0D
(1523989555.725219) slcan0 7E2#3010000000000000
(1523989555.734773) slcan0 7EA#210101000000911E
(1523989555.734798) slcan0 7EC#220D0D0D0D0D2648
(1523989555.745009) slcan0 7EA#22AC77D038CD0B7A
(1523989555.745030) slcan0 7EC#23264800014B0D0D
(1523989555.754914) slcan0 7EA#2386B73800000000
(1523989555.754935) slcan0 7EC#2403E85003E82741
(1523989555.763575) slcan0 7E5#0221010000000000
(1523989555.766630) slcan0 7EC#2500290000000000
(1523989555.775378) slcan0 7EC#2600000000000000
(1523989555.775392) slcan0 7ED#102C6101FFFFF800
(1523989555.813558) slcan0 7E3#0221010000000000
(1523989555.828714) slcan0 7EB#101E6101000003FF
(1523989555.863510) slcan0 7D5#0221010000000000
(1523989555.863860) slcan0 7E5#3010000000000000
(1523989555.864177) slcan0 7E3#3010000000000000
(1523989555.875406) slcan0 7ED#21010271026A03C4
(1523989555.878451) slcan0 7EB#210C38007086CE38
(1523989555.885538) slcan0 7ED#22001273003301BD
(1523989555.890032) slcan0 7EB#220000000A005D02
(1523989555.890053) slcan0 7DD#101A6101FB180000
(1523989555.900053) slcan0 7EB#236004B238180018
(1523989555.900067) slcan0 7ED#2305904100000000
(1523989555.900494) slcan0 7D5#3010000000000000
(1523989555.905570) slcan0 7ED#2400240000600000
(1523989555.909380) slcan0 7EB#2400D0FF00000000
(1523989555.913554) slcan0 7E4#0221010000000000
(1523989555.916631) slcan0 7ED#25000001F486E703
(1523989555.925398) slcan0 7EC#103D6101FFFFFFFF
(1523989555.925419) slcan0 7ED#2602000000000000
(1523989555.925940) slcan0 7E4#3010000000000000
(1523989555.940181) slcan0 7DD#21B80DFFF4FCFD02
(1523989555.940202) slcan0 7EC#2140264826480300
(1523989555.950230) slcan0 7EC#220D0D750D0D0D0D
(1523989555.960491) slcan0 7DD#22010202FFFFFFFF
(1523989555.960512) slcan0 7EC#230D0D0D000DB302
(1523989555.963467) slcan0 7E4#0221050000000000
(1523989555.970322) slcan0 7EC#24B32700008F0000
(1523989555.980223) slcan0 7DD#23000003C4000100
(1523989555.980244) slcan0 7EC#259D5500009DF000
(1523989555.990147) slcan0 7EC#260039E100003780
(1523989556.000835) slcan0 7EC#2700131E600D0158
(1523989556.010241) slcan0 7EC#280000000003E800
(1523989556.013362) slcan0 7E2#0221010000000000
(1523989556.025313) slcan0 7EA#10166101FFE00000
(1523989556.025335) slcan0 7EC#102D6105FFFFFFFF
(1523989556.063604) slcan0 7E2#0221020000000000
(1523989556.064106) slcan0 7E2#3010000000000000
(1523989556.064536) slcan0 7E4#3010000000000000
(1523989556.073359) slcan0 7EA#21090159AF05EE02
(1523989556.080318) slcan0 7EC#2100000000000D0D
(1523989556.083638) slcan0 7EA#2200000000907434
(1523989556.090087) slcan0 7EC#220D0D0D0D0D2648
(1523989556.093655) slcan0 7EA#2304200000000000
(1523989556.100937) slcan0 7EC#2326480001500D0D
(1523989556.110160) slcan0 7EC#2403E85003E82741
(1523989556.113380) slcan0 7E5#0221010000000000
(1523989556.125561) slcan0 7EC#2500290000000000
(1523989556.125583) slcan0 7ED#102C6101FFFFF800
(1523989556.130449) slcan0 7EC#2600000000000000
(1523989556.130948) slcan0 7E5#3010000000000000
(1523989556.145225) slcan0 7ED#2101026D026A03C2
(1523989556.155465) slcan0 7ED#22001173003301BD
(1523989556.163582) slcan0 7E3#0221010000000000
(1523989556.166907) slcan0 7ED#2305984100000000
(1523989556.175414) slcan0 7ED#2400240000600000
(1523989556.178740) slcan0 7EB#101E6101000003FF
(1523989556.179211) slcan0 7E3#3010000000000000
(1523989556.185503) slcan0 7ED#25000001F486E303
(1523989556.188962) slcan0 7EB#210C380062862039
(1523989556.201177) slcan0 7EB#220000000A005C02
(1523989556.201199) slcan0 7ED#2603000000000000
(1523989556.208974) slcan0 7EB#236004E838300030
(1523989556.213321) slcan0 7D5#0221010000000000
(1523989556.218739) slcan0 7EB#24009FFF00000000
(1523989556.239906) slcan0 7DD#101A6101FB180000
(1523989556.240342) slcan0 7D5#3010000000000000
(1523989556.263471) slcan0 7E4#0221010000000000
(1523989556.280640) slcan0 7DD#21B90DFFF4FCFD02
(1523989556.280662) slcan0 7EC#103D6101FFFFFFFF
(1523989556.300158) slcan0 7DD#22010202FFFFFFFF
(1523989556.300638) slcan0 7E4#3010000000000000
(1523989556.313578) slcan0 7E4#0221050000000000
(1523989556.316883) slcan0 7EC#2140264826480300
(1523989556.320432) slcan0 7DD#23000003C4000100
(1523989556.325345) slcan0 7EC#22100D750D0D0D0D
(1523989556.335604) slcan0 7EC#230D0D0D000DB30D
(1523989556.345395) slcan0 7EC#24B3270000900000
(1523989556.355388) slcan0 7EC#259D5500009DF000
(1523989556.363479) slcan0 7E2#0221010000000000
(1523989556.366787) slcan0 7EC#260039E100003780
(1523989556.375416) slcan0 7EA#10166101FFE00000
(1523989556.375431) slcan0 7EC#2700131E610D0158
(1523989556.375750) slcan0 7E2#3010000000000000
(1523989556.385721) slcan0 7EA#21090159B105F302
(1523989556.385743) slcan0 7EC#280000000003E800
(1523989556.393624) slcan0 7EA#2200000000227534
(1523989556.403437) slcan0 7EC#102D6105FFFFFFFF
(1523989556.403459) slcan0 7EA#2304200000000000
(1523989556.413596) slcan0 7E2#0221020000000000
(1523989556.414056) slcan0 7E4#3010000000000000
(1523989556.425722) slcan0 7EA#10176102FF800000
(1523989556.425745) slcan0 7EC#2100000000000D0D
(1523989556.426300) slcan0 7E2#3010000000000000
(1523989556.435429) slcan0 7EA#2101010000009325
(1523989556.435444) slcan0 7EC#220D0D0D0D0D2648
(1523989556.445714) slcan0 7EA#22AC7778393C0E81
(1523989556.445738) slcan0 7EC#2326480001500D0D
(1523989556.455496) slcan0 7EA#2386503900000000
(1523989556.455515) slcan0 7EC#2403E85003E82741
(1523989556.463304) slcan0 7E5#0221010000000000
(1523989556.466341) slcan0 7EC#2500290000000000
(1523989556.475786) slcan0 7ED#102C6101FFFFF800
(1523989556.475800) slcan0 7EC#2600000000000000
(1523989556.513561) slcan0 7E3#0221010000000000
(1523989556.528998) slcan0 7EB#101E6101000003FF
(1523989556.529542) slcan0 7E5#3010000000000000
(1523989556.535520) slcan0 7ED#21010270026903C3
(1523989556.536035) slcan0 7E3#3010000000000000
(1523989556.545523) slcan0 7ED#22001173003301BD
(1523989556.548990) slcan0 7EB#210C380069862D39
(1523989556.555471) slcan0 7ED#23059D4100000000
(1523989556.558523) slcan0 7EB#220000000A005D02
(1523989556.563536) slcan0 7D5#0221010000000000
(1523989556.566738) slcan0 7ED#2400240000600000
(1523989556.570478) slcan0 7EB#2360042339300030
(1523989556.575507) slcan0 7ED#25000001F486E103
(1523989556.578563) slcan0 7EB#24009FFF00000000
(1523989556.585589) slcan0 7ED#2604000000000000
(1523989556.590095) slcan0 7DD#101A6101FB180000
(1523989556.590548) slcan0 7D5#3010000000000000
(1523989556.613363) slcan0 7E4#0221010000000000
(1523989556.625860) slcan0 7EC#103D6101FFFFFFFF
(1523989556.626376) slcan0 7E4#3010000000000000
(1523989556.630331) slcan0 7DD#21BA0DFFF4FCFD02
(1523989556.640895) slcan0 7EC#2140264826480300
(1523989556.650948) slcan0 7DD#22010201FFFFFFFF
(1523989556.650970) slcan0 7EC#220F0D750D0D0D0D
(1523989556.660943) slcan0 7EC#230D0D0D000DB311
(1523989556.663403) slcan0 7E4#0221050000000000
(1523989556.670938) slcan0 7DD#23000003C4000100
(1523989556.670958) slcan0 7EC#24B3270000900000
(1523989556.680965) slcan0 7EC#259D5500009DF000
(1523989556.690692) slcan0 7EC#260039E100003780
(1523989556.702684) slcan0 7EC#2700131E610D0158
(1523989556.710808) slcan0 7EC#280000000003E800
(1523989556.713287) slcan0 7E2#0221010000000000
(1523989556.726022) slcan0 7EA#10166101FFE00000
(1523989556.726059) slcan0 7EC#102D6105FFFFFFFF
(1523989556.726489) slcan0 7E2#3010000000000000
(1523989556.726835) slcan0 7E4#3010000000000000
(1523989556.733456) slcan0 7EA#21090159B105F302
(1523989556.743613) slcan0 7EC#2100000000000D0D
(1523989556.743636) slcan0 7EA#2200000000A37534
(1523989556.753759) slcan0 7EC#220D0D0D0D0D2648
(1523989556.753780) slcan0 7EA#2304140000000000
(1523989556.761037) slcan0 7EC#2326480001500D0D
(1523989556.763322) slcan0 7E2#0221020000000000
(1523989556.773769) slcan0 7EC#2403E85003E82741
(1523989556.773790) slcan0 7EA#10176102FF800000
(1523989556.781007) slcan0 7EC#2500290000000000
(1523989556.791070) slcan0 7EC#2600000000000000
(1523989556.791608) slcan0 7E2#3010000000000000
(1523989556.803574) slcan0 7EA#2101010000009336
(1523989556.813402) slcan0 7E5#0221010000000000
(1523989556.813420) slcan0 7EA#22AC779039161577
(1523989556.825666) slcan0 7EA#2386493900000000
(1523989556.825686) slcan0 7ED#102C6101FFFFF800
(1523989556.863647) slcan0 7E3#0221010000000000
(1523989556.877904) slcan0 7EB#101E6101000003FF
(1523989556.878366) slcan0 7E5#3010000000000000
(1523989556.878764) slcan0 7E3#3010000000000000
(1523989556.885281) slcan0 7ED#2101026C026703C2
(1523989556.888822) slcan0 7EB#210C38006C864239
(1523989556.905682) slcan0 7EB#220000000A006302
(1523989556.905702) slcan0 7ED#22001173003301BC
(1523989556.905705) slcan0 7ED#23059C4100000000
(1523989556.909260) slcan0 7EB#2360042D39490030
(1523989556.913574) slcan0 7D5#0221010000000000
(1523989556.918145) slcan0 7ED#2400240000600000
(1523989556.918167) slcan0 7EB#240086FF00000000
(1523989556.925416) slcan0 7ED#25000001F486D602
(1523989556.935567) slcan0 7ED#26F9000000000000
(1523989556.940347) slcan0 7DD#101A6101FB180000
(1523989556.963426) slcan0 7E4#0221010000000000
(1523989556.976211) slcan0 7EC#103D6101FFFFFFFF
(1523989556.976777) slcan0 7D5#3010000000000000
(1523989556.977173) slcan0 7E4#3010000000000000
(1523989556.991030) slcan0 7EC#2140264826480300
(1523989557.003189) slcan0 7EC#22150D740D0D0D0D
(1523989557.010983) slcan0 7EC#230D0D0D000DB307
(1523989557.013263) slcan0 7E4#0221050000000000
(1523989557.020492) slcan0 7DD#21BA0DFFF4FCFD02
(1523989557.024109) slcan0 7EC#24B3270000900000
(1523989557.031042) slcan0 7EC#259D5500009DF000
(1523989557.041398) slcan0 7DD#22010202FFFFFFFF
(1523989557.041419) slcan0 7EC#260039E100003780
(1523989557.051308) slcan0 7EC#2700131E610D0158
(1523989557.061420) slcan0 7DD#23000003C4000100
(1523989557.061444) slcan0 7EC#280000000003E800
(1523989557.063274) slcan0 7E2#0221010000000000
(1523989557.076244) slcan0 7EA#10166101FFE00000
(1523989557.076266) slcan0 7EC#102D6105FFFFFFFF
(1523989557.113551) slcan0 7E2#0221020000000000
(1523989557.114045) slcan0 7E2#3010000000000000
(1523989557.114374) slcan0 7E4#3010000000000000
(1523989557.126171) slcan0 7EA#21090259B105F002
(1523989557.126185) slcan0 7EC#2100000000000D0D
(1523989557.136086) slcan0 7EA#2200000000F47534
(1523989557.136105) slcan0 7EC#220D0D0D0D0D2648
(1523989557.146189) slcan0 7EA#2304080000000000
(1523989557.146209) slcan0 7EC#2326480001500D0D
(1523989557.156146) slcan0 7EC#2403E85003E82741
(1523989557.163590) slcan0 7E5#0221010000000000
(1523989557.166827) slcan0 7EC#2500290000000000
(1523989557.176542) slcan0 7ED#102C6101FFFFF800
(1523989557.176564) slcan0 7EC#2600000000000000
(1523989557.213572) slcan0 7E3#0221010000000000
(1523989557.228177) slcan0 7EB#101E6101000003FF
(1523989557.228716) slcan0 7E5#3010000000000000
(1523989557.235419) slcan0 7ED#2101026C026803C0
(1523989557.235964) slcan0 7E3#3010000000000000
(1523989557.245517) slcan0 7ED#22001173003301BD
(1523989557.248370) slcan0 7EB#210C38006986C838
(1523989557.255321) slcan0 7ED#2305974100000000
(1523989557.258435) slcan0 7EB#220000000A006402
(1523989557.263500) slcan0 7D5#0221010000000000
(1523989557.268490) slcan0 7ED#2400240000600000
(1523989557.268512) slcan0 7EB#236004C538490061
(1523989557.275443) slcan0 7ED#25000001F486E003
(1523989557.278421) slcan0 7EB#240056FF00000000
(1523989557.285315) slcan0 7ED#2607000000000000
(1523989557.290791) slcan0 7DD#101A6101FB180000
(1523989557.313381) slcan0 7E4#0221010000000000
(1523989557.313846) slcan0 7D5#3010000000000000
(1523989557.326356) slcan0 7EC#103D6101FFFFFFFF
(1523989557.326723) slcan0 7E4#3010000000000000
(1523989557.336494) slcan0 7EC#2140264826480300
(1523989557.346304) slcan0 7EC#22140D750D0D0D0D
(1523989557.350776) slcan0 7DD#21B60DFFF4FEFD02
(1523989557.356513) slcan0 7EC#230D0D0D000DB302
(1523989557.363563) slcan0 7E4#0221050000000000
(1523989557.366956) slcan0 7EC#24B32700008F0000
(1523989557.371073) slcan0 7DD#225D0251FFFFFFFF
(1523989557.376660) slcan0 7EC#259D5500009DF000
(1523989557.386516) slcan0 7EC#260039E100003780
(1523989557.390754) slcan0 7DD#23000003C4000100
(1523989557.403870) slcan0 7EC#2700131E620D0158
(1523989557.412507) slcan0 7EC#280000000003E800
(1523989557.413314) slcan0 7E2#0221010000000000
(1523989557.426408) slcan0 7EA#10166101FFE00000
(1523989557.426430) slcan0 7EC#102D6105FFFFFFFF
(1523989557.426869) slcan0 7E2#3010000000000000
(1523989557.427266) slcan0 7E4#3010000000000000
(1523989557.433692) slcan0 7EA#21090259B105F302
(1523989557.443664) slcan0 7EC#2100000000000D0D
(1523989557.443685) slcan0 7EA#22000000000F7634
(1523989557.454113) slcan0 7EC#220D0D0D0D0D2648
(1523989557.454148) slcan0 7EA#2304080000000000
(1523989557.462548) slcan0 7EC#2326480001500D0D
(1523989557.463165) slcan0 7E2#0221020000000000
(1523989557.473553) slcan0 7EC#2403E85003E82741
(1523989557.473575) slcan0 7EA#10176102FF800000
(1523989557.482401) slcan0 7EC#2500290000000000
(1523989557.492778) slcan0 7EC#2600000000000000
(1523989557.493284) slcan0 7E2#3010000000000000
(1523989557.503840) slcan0 7EA#210101000000932B
(1523989557.513474) slcan0 7EA#22AC77403972107C
(1523989557.513601) slcan0 7E5#0221010000000000
(1523989557.525672) slcan0 7EA#2386093900000000
(1523989557.525693) slcan0 7ED#102C6101FFFFF800
(1523989557.563502) slcan0 7E3#0221010000000000
(1523989557.578527) slcan0 7EB#101E6101000003FF
(1523989557.579068) slcan0 7E5#3010000000000000
(1523989557.579460) slcan0 7E3#3010000000000000
(1523989557.585293) slcan0 7ED#2101026F026B03C4
(1523989557.588475) slcan0 7EB#210C38006D86FE38
(1523989557.605501) slcan0 7EB#220000000A006002
(1523989557.605523) slcan0 7ED#22001173003301BD
(1523989557.605527) slcan0 7ED#2305934100000000
(1523989557.608727) slcan0 7EB#236004CA38180018
(1523989557.613410) slcan0 7D5#0221010000000000
(1523989557.618494) slcan0 7ED#2400240000600000
(1523989557.618515) slcan0 7EB#2400D0FF00000000
(1523989557.625552) slcan0 7ED#25000001F486DB02
(1523989557.635497) slcan0 7ED#26FF000000000000
(1523989557.640909) slcan0 7DD#101A6101FB180000
(1523989557.663357) slcan0 7E4#0221010000000000
(1523989557.678260) slcan0 7EC#103D6101FFFFFFFF
(1523989557.678846) slcan0 7D5#3010000000000000
