(1523990002.836915) slcan0 7E4#0221010000000000
(1523990002.848193) slcan0 7EC#103D6101FFFFFFFF
(1523990002.848504) slcan0 7E4#3010000000000000
(1523990002.863398) slcan0 7EC#213E264826480300
(1523990002.873779) slcan0 7EC#22080D6E0D0D0D0D
(1523990002.883889) slcan0 7EC#230D0D0D000DB326
(1523990002.886875) slcan0 7E4#0221020000000000
(1523990002.893194) slcan0 7EC#24B2270000920000
(1523990002.903417) slcan0 7EC#259D5600009DF800
(1523990002.913459) slcan0 7EC#260039E100003782
(1523990002.923805) slcan0 7EC#2700131FEE0D0157
(1523990002.933691) slcan0 7EC#280000000003E800
(1523990002.937006) slcan0 7E4#0221030000000000
(1523990002.948200) slcan0 7EC#10266103FFFFFFFF
(1523990002.948694) slcan0 7E4#3010000000000000
(1523990002.963163) slcan0 7EC#21B3B3B3B3B3B3B2
(1523990002.974245) slcan0 7EC#22B3B3B3B3B3B3B3
(1523990002.983690) slcan0 7EC#23B3B3B3B3B3B3B3
(1523990002.987204) slcan0 7E4#0221040000000000
(1523990002.993451) slcan0 7EC#24B3B3B3B3B3B3B3
(1523990003.003460) slcan0 7EC#25B3B3B3B3000000
(1523990003.018242) slcan0 7EC#10266104FFFFFFFF
(1523990003.018865) slcan0 7E4#3010000000000000
(1523990003.033772) slcan0 7EC#21B3B3B3B3B3B3B3
(1523990003.037081) slcan0 7E4#0221050000000000
(1523990003.043396) slcan0 7EC#22B3B3B3B3B3B3B3
(1523990003.053527) slcan0 7EC#23B3B3B3B3B3B3B3
(1523990003.063528) slcan0 7EC#24B3B3B3B3B3B3B3
(1523990003.074094) slcan0 7EC#25B3B3B3B3000000
(1523990003.087240) slcan0 7E2#0221010000000000
(1523990003.090557) slcan0 7EC#102D6105FFFFFFFF
(1523990003.091080) slcan0 7E4#3010000000000000
(1523990003.094768) slcan0 7EA#10166101FFE00000
(1523990003.095318) slcan0 7E2#3010000000000000
(1523990003.104972) slcan0 7EC#2100000000000D0D
(1523990003.104993) slcan0 7EA#2109215AAF05E902
(1523990003.114827) slcan0 7EC#220D0D0D0D0D2648
(1523990003.114847) slcan0 7EA#22000000003E7834
(1523990003.125021) slcan0 7EC#2326480001550D0D
(1523990003.125041) slcan0 7EA#2304200000000000
(1523990003.133843) slcan0 7EC#2403E85003E8273F
(1523990003.137211) slcan0 7E2#0221020000000000
(1523990003.144871) slcan0 7EC#2500290000000000
(1523990003.144895) slcan0 7EA#10176102FF800000
(1523990003.153610) slcan0 7EC#2600000000000000
(1523990003.187049) slcan0 7E5#0221010000000000
(1523990003.201224) slcan0 7ED#102C6101FFFFF800
(1523990003.201757) slcan0 7E2#3010000000000000
(1523990003.214574) slcan0 7EA#2101010000009513
(1523990003.214978) slcan0 7E5#3010000000000000
(1523990003.224611) slcan0 7ED#2101029A02920409
(1523990003.224629) slcan0 7EA#22AC7C0E3A210766
(1523990003.234675) slcan0 7ED#22001574003401BD
(1523990003.234697) slcan0 7EA#23861C3A00000000
(1523990003.236999) slcan0 7E3#0221010000000000
(1523990003.241196) slcan0 7ED#2305B04100000000
(1523990003.251345) slcan0 7ED#2400260000600000
(1523990003.251363) slcan0 7EB#101E6101000003FF
(1523990003.260858) slcan0 7ED#25000001F4867E03
(1523990003.270943) slcan0 7ED#262F000000000000
(1523990003.271408) slcan0 7E3#3010000000000000
(1523990003.281327) slcan0 7EB#210C38004C86283A
(1523990003.286966) slcan0 7D5#0221010000000000
(1523990003.291038) slcan0 7EB#220000000A004502
(1523990003.301169) slcan0 7EB#235904ED39E8FF18
(1523990003.312253) slcan0 7EB#2400000000000000
(1523990003.317273) slcan0 7DD#101A6101FB180000
(1523990003.317755) slcan0 7D5#3010000000000000
(1523990003.337071) slcan0 7E4#0221010000000000
(1523990003.348637) slcan0 7EC#103D6101FFFFFFFF
(1523990003.349219) slcan0 7E4#3010000000000000
(1523990003.356827) slcan0 7DD#21BC0DFFF4FCFD02
(1523990003.363867) slcan0 7EC#213E264826480300
(1523990003.376845) slcan0 7EC#22070D6E0D0D0D0D
(1523990003.376869) slcan0 7DD#22010202FFFFFFFF
(1523990003.384014) slcan0 7EC#230D0D0D000DB31A
(1523990003.387191) slcan0 7E4#0221050000000000
(1523990003.393909) slcan0 7EC#24B2270000920000
(1523990003.397405) slcan0 7DD#23000003C5000100
(1523990003.403620) slcan0 7EC#259D5600009DF800
(1523990003.413647) slcan0 7EC#260039E100003782
(1523990003.423685) slcan0 7EC#2700131FEE0D0157
(1523990003.433952) slcan0 7EC#280000000003E800
(1523990003.436973) slcan0 7E2#0221010000000000
(1523990003.444982) slcan0 7EA#10166101FFE00000
(1523990003.445525) slcan0 7E2#3010000000000000
(1523990003.449019) slcan0 7EC#102D6105FFFFFFFF
(1523990003.449491) slcan0 7E4#3010000000000000
(1523990003.454714) slcan0 7EA#2109215AAA05E602
(1523990003.464878) slcan0 7EC#2100000000000D0D
(1523990003.464898) slcan0 7EA#22000000003D7834
(1523990003.474777) slcan0 7EC#220D0D0D0D0D2648
(1523990003.474801) slcan0 7EA#2304200000000000
(1523990003.484574) slcan0 7EC#2326480001500D0D
(1523990003.487138) slcan0 7E2#0221020000000000
(1523990003.494838) slcan0 7EC#2403E85003E8273F
(1523990003.494858) slcan0 7EA#10176102FF800000
(1523990003.504047) slcan0 7EC#2500290000000000
(1523990003.513799) slcan0 7EC#2600000000000000
(1523990003.514333) slcan0 7E2#3010000000000000
(1523990003.524736) slcan0 7EA#2101010000009410
(1523990003.534838) slcan0 7EA#22AC7CF639AC065C
(1523990003.537010) slcan0 7E5#0221010000000000
(1523990003.544898) slcan0 7EA#2386FE3900000000
(1523990003.551071) slcan0 7ED#102C6101FFFFF800
(1523990003.551520) slcan0 7E5#3010000000000000
(1523990003.560822) slcan0 7ED#210102980293040A
(1523990003.570896) slcan0 7ED#22001574003401BD
(1523990003.580842) slcan0 7ED#2305B04100000000
(1523990003.587081) slcan0 7E3#0221010000000000
(1523990003.591072) slcan0 7ED#2400260000600000
(1523990003.601666) slcan0 7ED#25000001F4868103
(1523990003.601690) slcan0 7EB#101E6101000003FF
(1523990003.611194) slcan0 7ED#2636000000000000
(1523990003.611717) slcan0 7E3#3010000000000000
(1523990003.623573) slcan0 7EB#210C38004E86F939
(1523990003.633616) slcan0 7EB#220000000A004602
(1523990003.637014) slcan0 7D5#0221010000000000
(1523990003.641406) slcan0 7EB#235904C039D0FF18
(1523990003.651345) slcan0 7EB#2400180000000000
(1523990003.667432) slcan0 7DD#101A6101FB180000
(1523990003.667892) slcan0 7D5#3010000000000000
(1523990003.687026) slcan0 7E4#0221010000000000
(1523990003.699097) slcan0 7EC#103D6101FFFFFFFF
(1523990003.699628) slcan0 7E4#3010000000000000
(1523990003.707121) slcan0 7DD#21BC0DFFF4FCFD02
(1523990003.714204) slcan0 7EC#213E264826480300
(1523990003.723992) slcan0 7EC#22060D6E0D0D0D0D
(1523990003.727037) slcan0 7DD#22010202FFFFFFFF
(1523990003.733994) slcan0 7EC#230D0D0D000DB304
(1523990003.737000) slcan0 7E4#0221050000000000
(1523990003.744294) slcan0 7EC#24B2270000920000
(1523990003.747038) slcan0 7DD#23000003C5000100
(1523990003.754275) slcan0 7EC#259D5600009DF800
(1523990003.763965) slcan0 7EC#260039E100003782
(1523990003.776846) slcan0 7EC#2700131FEF0D0157
(1523990003.784131) slcan0 7EC#280000000003E800
(1523990003.786993) slcan0 7E2#0221010000000000
(1523990003.794636) slcan0 7EA#10166101FFE00000
(1523990003.795125) slcan0 7E2#3010000000000000
(1523990003.799355) slcan0 7EC#102D6105FFFFFFFF
(1523990003.799910) slcan0 7E4#3010000000000000
(1523990003.804724) slcan0 7EA#2109215AAA05E402
(1523990003.814711) slcan0 7EC#2100000000000D0D
(1523990003.814731) slcan0 7EA#2200000000467834
(1523990003.824929) slcan0 7EC#220D0D0D0D0D2648
(1523990003.824948) slcan0 7EA#2304200000000000
(1523990003.834074) slcan0 7EC#2326480001550D0D
(1523990003.837167) slcan0 7E2#0221020000000000
(1523990003.844629) slcan0 7EC#2403E85003E8273F
(1523990003.844644) slcan0 7EA#10176102FF800000
(1523990003.854065) slcan0 7EC#2500290000000000
(1523990003.864190) slcan0 7EC#2600000000000000
(1523990003.864591) slcan0 7E2#3010000000000000
(1523990003.874805) slcan0 7EA#2101010000009410
(1523990003.884874) slcan0 7EA#22AC7CE8393A0666
(1523990003.886917) slcan0 7E5#0221010000000000
(1523990003.894644) slcan0 7EA#2386FD3900000000
(1523990003.900981) slcan0 7ED#102C6101FFFFF800
(1523990003.901446) slcan0 7E5#3010000000000000
(1523990003.911256) slcan0 7ED#21010296028F0405
(1523990003.923777) slcan0 7ED#22001474003401BD
(1523990003.934039) slcan0 7ED#2305AF4100000000
(1523990003.937166) slcan0 7E3#0221010000000000
(1523990003.941759) slcan0 7ED#2400250000600000
(1523990003.941788) slcan0 7EB#101E6101000003FF
(1523990003.951150) slcan0 7ED#25000001F4867E03
(1523990003.951697) slcan0 7E3#3010000000000000
(1523990003.961874) slcan0 7ED#262D000000000000
(1523990003.961894) slcan0 7EB#210C38004E86D739
(1523990003.975169) slcan0 7EB#220000000A004702
(1523990003.981672) slcan0 7EB#235904A839000049
(1523990003.987317) slcan0 7D5#0221010000000000
(1523990003.991878) slcan0 7EB#2400B7FF00000000
(1523990004.017366) slcan0 7DD#101A6101FB180000
(1523990004.017847) slcan0 7D5#3010000000000000
(1523990004.036969) slcan0 7E4#0221010000000000
(1523990004.049302) slcan0 7EC#103D6101FFFFFFFF
(1523990004.049716) slcan0 7E4#3010000000000000
(1523990004.059240) slcan0 7DD#21BC0DFFF4FCFD02
(1523990004.059259) slcan0 7EC#213E264826480300
(1523990004.069272) slcan0 7EC#22050D6E0D0D0D0D
(1523990004.079268) slcan0 7DD#22010201FFFFFFFF
(1523990004.079293) slcan0 7EC#230D0D0D000DB325
(1523990004.087012) slcan0 7E4#0221050000000000
(1523990004.090059) slcan0 7EC#24B2270000910000
(1523990004.099547) slcan0 7DD#23000003C5000100
(1523990004.099567) slcan0 7EC#259D5600009DF800
(1523990004.109812) slcan0 7EC#260039E100003782
(1523990004.119420) slcan0 7EC#2700131FEF0D0157
(1523990004.134191) slcan0 7EC#280000000003E800
(1523990004.137152) slcan0 7E2#0221010000000000
(1523990004.145134) slcan0 7EC#102D6105FFFFFFFF
(1523990004.145154) slcan0 7EA#10166101FFE00000
(1523990004.187185) slcan0 7E2#0221020000000000
(1523990004.187569) slcan0 7E4#3010000000000000
(1523990004.189810) slcan0 7E2#3010000000000000
(1523990004.195446) slcan0 7EA#10176102FF800000
(1523990004.196097) slcan0 7E2#3010000000000000
(1523990004.199633) slcan0 7EC#2100000000000D0D
(1523990004.204925) slcan0 7EA#2101010000009413
(1523990004.209668) slcan0 7EC#220D0D0D0D0D2648
(1523990004.214709) slcan0 7EA#22AC7CF639F40664
(1523990004.219488) slcan0 7EC#2326480001500D0D
(1523990004.224926) slcan0 7EA#2386073A00000000
(1523990004.234414) slcan0 7EC#2403E85003E8273F
(1523990004.237159) slcan0 7E5#0221010000000000
(1523990004.240405) slcan0 7EC#2500290000000000
(1523990004.251071) slcan0 7EC#2600000000000000
(1523990004.251091) slcan0 7ED#102C6101FFFFF800
(1523990004.287069) slcan0 7E3#0221010000000000
(1523990004.287481) slcan0 7E5#3010000000000000
(1523990004.292072) slcan0 7EB#101E6101000003FF
(1523990004.292469) slcan0 7E3#3010000000000000
(1523990004.301994) slcan0 7ED#2101029602900408
(1523990004.302009) slcan0 7EB#210C38004B860D3A
(1523990004.312015) slcan0 7ED#22001574003401BD
(1523990004.312035) slcan0 7EB#220000000A004602
(1523990004.324151) slcan0 7ED#2305AE4100000000
(1523990004.324171) slcan0 7EB#235904D439180049
(1523990004.335084) slcan0 7EB#24009FFF00000000
(1523990004.335116) slcan0 7ED#2400260000600000
(1523990004.336887) slcan0 7D5#0221010000000000
(1523990004.341117) slcan0 7ED#25000001F4867E03
(1523990004.350974) slcan0 7ED#262C000000000000
(1523990004.367445) slcan0 7DD#101A6101FB180000
(1523990004.387051) slcan0 7E4#0221010000000000
(1523990004.399946) slcan0 7EC#103D6101FFFFFFFF
(1523990004.437313) slcan0 7E4#0221050000000000
(1523990004.437759) slcan0 7D5#3010000000000000
(1523990004.438045) slcan0 7E4#3010000000000000
(1523990004.449769) slcan0 7EC#213E264826480300
(1523990004.459695) slcan0 7EC#22070D6E0D0D0D0D
(1523990004.469696) slcan0 7EC#230D0D0D000DB33A
(1523990004.479895) slcan0 7DD#21BC0DFFF4FCFD02
(1523990004.479921) slcan0 7EC#24B2270000910000
(1523990004.487287) slcan0 7E2#0221010000000000
(1523990004.490529) slcan0 7EC#259D5600009DF800
(1523990004.499910) slcan0 7EA#10166101FFE00000
(1523990004.499929) slcan0 7DD#22010202FFFFFFFF
(1523990004.499933) slcan0 7EC#260039E100003782
(1523990004.500428) slcan0 7E2#3010000000000000
(1523990004.510056) slcan0 7EC#2700131FEF0D0157
(1523990004.514653) slcan0 7EA#2109215AA705E602
(1523990004.520024) slcan0 7DD#23000003C5000100
(1523990004.520045) slcan0 7EC#280000000003E800
(1523990004.524943) slcan0 7EA#2200000000387834
(1523990004.534829) slcan0 7EA#2304200000000000
(1523990004.536859) slcan0 7E2#0221020000000000
(1523990004.545028) slcan0 7EA#10176102FF800000
(1523990004.587320) slcan0 7E5#0221010000000000
(1523990004.587781) slcan0 7E2#3010000000000000
(1523990004.594951) slcan0 7EA#2101010000009413
(1523990004.601189) slcan0 7ED#102C6101FFFFF800
(1523990004.601714) slcan0 7E5#3010000000000000
(1523990004.605399) slcan0 7EA#22AC7CFD396F075C
(1523990004.611152) slcan0 7ED#2101029A02940409
(1523990004.614949) slcan0 7EA#2386043A00000000
(1523990004.621928) slcan0 7ED#22001574003401BD
(1523990004.634828) slcan0 7ED#2305AE4100000000
(1523990004.637021) slcan0 7E3#0221010000000000
(1523990004.642488) slcan0 7ED#2400260000600000
(1523990004.642508) slcan0 7EB#101E6101000003FF
(1523990004.650869) slcan0 7ED#25000001F4867F03
(1523990004.651395) slcan0 7E3#3010000000000000
(1523990004.662338) slcan0 7ED#2630000000000000
(1523990004.662357) slcan0 7EB#210C38004B861A3A
(1523990004.675075) slcan0 7EB#220000000A004502
(1523990004.682513) slcan0 7EB#235904D439180049
(1523990004.687066) slcan0 7D5#0221010000000000
(1523990004.692523) slcan0 7EB#24009FFF00000000
(1523990004.717715) slcan0 7DD#101A6101FB180000
(1523990004.718294) slcan0 7D5#3010000000000000
(1523990004.737210) slcan0 7E4#0221010000000000
(1523990004.750307) slcan0 7EC#103D6101FFFFFFFF
(1523990004.750810) slcan0 7E4#3010000000000000
(1523990004.757506) slcan0 7DD#21BC0DFFF4FCFD02
(1523990004.764997) slcan0 7EC#213E264826480300
(1523990004.777598) slcan0 7DD#22010202FFFFFFFF
(1523990004.777621) slcan0 7EC#22080D6E0D0D0D0D
(1523990004.785276) slcan0 7EC#230D0D0D000DB318
(1523990004.786843) slcan0 7E4#0221050000000000
(1523990004.797449) slcan0 7EC#24B2270000920000
(1523990004.797473) slcan0 7DD#23000003C5000100
(1523990004.805323) slcan0 7EC#259D5600009DF800
(1523990004.815361) slcan0 7EC#260039E100003782
(1523990004.825075) slcan0 7EC#2700131FF00D0157
(1523990004.835261) slcan0 7EC#280000000003E800
(1523990004.836886) slcan0 7E2#0221010000000000
(1523990004.844993) slcan0 7EA#10166101FFE00000
(1523990004.845466) slcan0 7E2#3010000000000000
(1523990004.850411) slcan0 7EC#102D6105FFFFFFFF
(1523990004.850940) slcan0 7E4#3010000000000000
(1523990004.854967) slcan0 7EA#2109215AAC05E902
(1523990004.865405) slcan0 7EA#2200000000387834
(1523990004.865426) slcan0 7EC#2100000000000D0D
(1523990004.875659) slcan0 7EA#2304200000000000
(1523990004.875694) slcan0 7EC#220D0D0D0D0D2648
(1523990004.885585) slcan0 7EC#2326480001500D0D
(1523990004.886884) slcan0 7E2#0221020000000000
(1523990004.895314) slcan0 7EA#10176102FF800000
(1523990004.895334) slcan0 7EC#2403E85003E8273F
(1523990004.905337) slcan0 7EC#2500290000000000
(1523990004.905828) slcan0 7E2#3010000000000000
(1523990004.915402) slcan0 7EA#2101010000009410
(1523990004.915424) slcan0 7EC#2600000000000000
(1523990004.924876) slcan0 7EA#22AC7CE73948065C
(1523990004.935273) slcan0 7EA#2386FC3900000000
(1523990004.936832) slcan0 7E5#0221010000000000
(1523990004.950958) slcan0 7ED#102C6101FFFFF800
(1523990004.987066) slcan0 7E3#0221010000000000
(1523990004.987457) slcan0 7E5#3010000000000000
(1523990004.994065) slcan0 7EB#101E6101000003FF
(1523990004.994524) slcan0 7E3#3010000000000000
(1523990005.001160) slcan0 7ED#2101029702910406
(1523990005.004243) slcan0 7EB#210C38004986F939
(1523990005.010992) slcan0 7ED#22001574003401BD
(1523990005.014062) slcan0 7EB#220000000A004602
(1523990005.024020) slcan0 7ED#2305B04100000000
(1523990005.024038) slcan0 7EB#235804B739300049
(1523990005.036789) slcan0 7EB#240086FF00000000
(1523990005.036827) slcan0 7ED#2400260000600000
(1523990005.037313) slcan0 7D5#0221010000000000
(1523990005.040906) slcan0 7ED#25000001F4868003
(1523990005.050891) slcan0 7ED#2634000000000000
(1523990005.067775) slcan0 7DD#101A6101FB180000
(1523990005.087058) slcan0 7E4#0221010000000000
(1523990005.087459) slcan0 7D5#3010000000000000
(1523990005.100657) slcan0 7EC#103D6101FFFFFFFF
(1523990005.101248) slcan0 7E4#3010000000000000
(1523990005.115565) slcan0 7EC#213E264826480300
(1523990005.127539) slcan0 7EC#22060D6E0D0D0D0D
(1523990005.127559) slcan0 7DD#21BC0DFFF4FCFD02
(1523990005.135571) slcan0 7EC#230D0D0D000DB323
(1523990005.136916) slcan0 7E4#0221050000000000
(1523990005.147606) slcan0 7EC#24B2270000920000
(1523990005.147642) slcan0 7DD#22010201FFFFFFFF
(1523990005.155635) slcan0 7EC#259D5600009DF800
(1523990005.168015) slcan0 7EC#260039E100003782
(1523990005.168039) slcan0 7DD#23000003C5000100
(1523990005.175525) slcan0 7EC#2700131FF00D0157
(1523990005.187023) slcan0 7EC#280000000003E800
(1523990005.187089) slcan0 7E2#0221010000000000
(1523990005.194880) slcan0 7EA#10166101FFE00000
(1523990005.200954) slcan0 7EC#102D6105FFFFFFFF
(1523990005.237314) slcan0 7E2#0221020000000000
(1523990005.237732) slcan0 7E2#3010000000000000
(1523990005.238149) slcan0 7E4#3010000000000000
(1523990005.244669) slcan0 7EA#2109215AA505E402
(1523990005.251038) slcan0 7EC#2100000000000D0D
(1523990005.254900) slcan0 7EA#2200000000457834
(1523990005.260929) slcan0 7EC#220D0D0D0D0D2648
(1523990005.264976) slcan0 7EA#2304200000000000
(1523990005.271108) slcan0 7EC#2326480001500D0D
(1523990005.280697) slcan0 7EC#2403E85003E8273F
(1523990005.287279) slcan0 7E5#0221010000000000
(1523990005.291163) slcan0 7EC#2500290000000000
(1523990005.301331) slcan0 7EC#2600000000000000
(1523990005.301351) slcan0 7ED#102C6101FFFFF800
(1523990005.337262) slcan0 7E3#0221010000000000
(1523990005.337713) slcan0 7E5#3010000000000000
(1523990005.344415) slcan0 7EB#101E6101000003FF
(1523990005.344926) slcan0 7E3#3010000000000000
(1523990005.351169) slcan0 7ED#2101029802920408
(1523990005.354067) slcan0 7EB#210C38004E86F239
(1523990005.361110) slcan0 7ED#22001574003401BD
(1523990005.364130) slcan0 7EB#220000000A004702
(1523990005.371126) slcan0 7ED#2305B04100000000
(1523990005.375288) slcan0 7EB#235904C039E8FF00
(1523990005.381110) slcan0 7ED#2400260000600000
(1523990005.384345) slcan0 7EB#2400180000000000
(1523990005.386798) slcan0 7D5#0221010000000000
(1523990005.390851) slcan0 7ED#25000001F4867D03
(1523990005.400861) slcan0 7ED#2638000000000000
(1523990005.417787) slcan0 7DD#101A6101FB180000
(1523990005.418277) slcan0 7D5#3010000000000000
(1523990005.437244) slcan0 7E4#0221010000000000
(1523990005.450903) slcan0 7EC#103D6101FFFFFFFF
(1523990005.451349) slcan0 7E4#3010000000000000
(1523990005.457582) slcan0 7DD#21BC0DFFF4FCFD02
(1523990005.467165) slcan0 7EC#213E264826480300
(1523990005.477433) slcan0 7EC#22060D6E0D0D0D0D
(1523990005.477453) slcan0 7DD#22010202FFFFFFFF
(1523990005.487066) slcan0 7E4#0221050000000000
(1523990005.490175) slcan0 7EC#230D0D0D000DB302
(1523990005.498286) slcan0 7DD#23000003C5000100
(1523990005.498307) slcan0 7EC#24B2270000920000
(1523990005.507262) slcan0 7EC#259D5600009DF800
(1523990005.516614) slcan0 7EC#260039E100003782
(1523990005.526972) slcan0 7EC#2700131FF00D0157
(1523990005.536880) slcan0 7EC#280000000003E800
(1523990005.536938) slcan0 7E2#0221010000000000
(1523990005.544765) slcan0 7EA#10166101FFE00000
(1523990005.551135) slcan0 7EC#102D6105FFFFFFFF
(1523990005.551697) slcan0 7E2#3010000000000000
(1523990005.552081) slcan0 7E4#3010000000000000
(1523990005.566976) slcan0 7EA#2109215AAC05E602
(1523990005.566996) slcan0 7EC#2100000000000D0D
(1523990005.576936) slcan0 7EA#2200000000487834
(1523990005.576956) slcan0 7EC#220D0D0D0D0D2648
(1523990005.584949) slcan0 7EA#2304200000000000
(1523990005.586990) slcan0 7E2#0221020000000000
(1523990005.590164) slcan0 7EC#2326480001500D0D
(1523990005.595008) slcan0 7EA#10176102FF800000
(1523990005.598037) slcan0 7EC#2403E85003E8273F
(1523990005.598526) slcan0 7E2#3010000000000000
(1523990005.607126) slcan0 7EA#2101010000009513
(1523990005.607160) slcan0 7EC#2500290000000000
(1523990005.616724) slcan0 7EA#22AC7C0F3A590767
(1523990005.616737) slcan0 7EC#2600000000000000
(1523990005.624760) slcan0 7EA#23861A3A00000000
(1523990005.637202) slcan0 7E5#0221010000000000
(1523990005.650974) slcan0 7ED#102C6101FFFFF800
(1523990005.687225) slcan0 7E3#0221010000000000
(1523990005.687603) slcan0 7E5#3010000000000000
(1523990005.694404) slcan0 7EB#101E6101000003FF
(1523990005.694969) slcan0 7E3#3010000000000000
(1523990005.701086) slcan0 7ED#2101029902930408
(1523990005.704241) slcan0 7EB#210C380049861A3A
(1523990005.711385) slcan0 7ED#22001574003401BD
(1523990005.714358) slcan0 7EB#220000000A004702
(1523990005.724391) slcan0 7ED#2305B04100000000
(1523990005.724411) slcan0 7EB#235904E339180049
(1523990005.737023) slcan0 7D5#0221010000000000
(1523990005.741143) slcan0 7EB#24009FFF00000000
(1523990005.741164) slcan0 7ED#2400260000600000
(1523990005.741168) slcan0 7ED#25000001F4867A03
(1523990005.751185) slcan0 7ED#2642000000000000
(1523990005.767909) slcan0 7DD#101A6101FB180000
(1523990005.787264) slcan0 7E4#0221010000000000
(1523990005.801196) slcan0 7EC#103D6101FFFFFFFF
(1523990005.801634) slcan0 7D5#3010000000000000
(1523990005.801987) slcan0 7E4#3010000000000000
(1523990005.816954) slcan0 7EC#213E264826480300
(1523990005.827370) slcan0 7EC#22070D6E0D0D0D0D
(1523990005.837254) slcan0 7E4#0221050000000000
(1523990005.840544) slcan0 7EC#230D0D0D000DB31B
(1523990005.840564) slcan0 7DD#21BC0DFFF4FCFD02
(1523990005.848523) slcan0 7EC#24B2270000920000
(1523990005.857600) slcan0 7EC#259D5600009DF800
(1523990005.857621) slcan0 7DD#22010202FFFFFFFF
(1523990005.867240) slcan0 7EC#260039E100003782
(1523990005.877789) slcan0 7EC#2700131FF10D0157
(1523990005.877811) slcan0 7DD#23000003C5000100
(1523990005.887059) slcan0 7E2#0221010000000000
(1523990005.890149) slcan0 7EC#280000000003E800
(1523990005.894924) slcan0 7EA#10166101FFE00000
(1523990005.901463) slcan0 7EC#102D6105FFFFFFFF
(1523990005.937246) slcan0 7E2#0221020000000000
(1523990005.937712) slcan0 7E2#3010000000000000
(1523990005.938006) slcan0 7E4#3010000000000000
(1523990005.944732) slcan0 7EA#2109215AA705E902
(1523990005.951230) slcan0 7EC#2100000000000D0D
(1523990005.954917) slcan0 7EA#22000000003C7834
(1523990005.961457) slcan0 7EC#220D0D0D0D0D2648
(1523990005.965025) slcan0 7EA#2304200000000000
(1523990005.971248) slcan0 7EC#2326480001500D0D
(1523990005.981249) slcan0 7EC#2403E85003E8273F
(1523990005.987228) slcan0 7E5#0221010000000000
(1523990005.991528) slcan0 7EC#2500290000000000
(1523990006.001692) slcan0 7ED#102C6101FFFFF800
(1523990006.001713) slcan0 7EC#2600000000000000
(1523990006.002255) slcan0 7E5#3010000000000000
(1523990006.011215) slcan0 7ED#2101029902920409
(1523990006.021734) slcan0 7ED#22001574003401BD
(1523990006.037017) slcan0 7E3#0221010000000000
(1523990006.043512) slcan0 7ED#2305AF4100000000
(1523990006.043523) slcan0 7ED#2400260000600000
(1523990006.043526) slcan0 7EB#101E6101000003FF
(1523990006.050957) slcan0 7ED#25000001F4868303
(1523990006.061121) slcan0 7ED#262C000000000000
(1523990006.061379) slcan0 7E3#3010000000000000
(1523990006.075085) slcan0 7EB#210C38004D861A3A
(1523990006.083511) slcan0 7EB#220000000A004702
(1523990006.087003) slcan0 7D5#0221010000000000
(1523990006.093741) slcan0 7EB#235404CA39000018
(1523990006.103774) slcan0 7EB#2400E8FF00000000
(1523990006.117828) slcan0 7DD#101A6101FB180000
(1523990006.118156) slcan0 7D5#3010000000000000
(1523990006.137047) slcan0 7E4#0221010000000000
(1523990006.151586) slcan0 7EC#103D6101FFFFFFFF
(1523990006.152163) slcan0 7E4#3010000000000000
(1523990006.157932) slcan0 7DD#21BC0DFFF4FCFD02
(1523990006.167346) slcan0 7EC#213E264826480300
(1523990006.177939) slcan0 7EC#22080D6E0D0D0D0D
(1523990006.177959) slcan0 7DD#22010202FFFFFFFF
(1523990006.187140) slcan0 7E4#0221050000000000
(1523990006.190367) slcan0 7EC#230D0D0D000DB302
(1523990006.198421) slcan0 7DD#23000003C5000100
(1523990006.198444) slcan0 7EC#24B2270000920000
(1523990006.207201) slcan0 7EC#259D5600009DF800
(1523990006.217056) slcan0 7EC#260039E100003782
(1523990006.227289) slcan0 7EC#2700131FF10D0157
(1523990006.237267) slcan0 7E2#0221010000000000
(1523990006.240327) slcan0 7EC#280000000003E800
(1523990006.245092) slcan0 7EA#10166101FFE00000
(1523990006.245601) slcan0 7E2#3010000000000000
(1523990006.251506) slcan0 7EC#102D6105FFFFFFFF
(1523990006.252004) slcan0 7E4#3010000000000000
(1523990006.255438) slcan0 7EA#2109215AAA05EB02
(1523990006.267312) slcan0 7EA#2200000000397834
(1523990006.267332) slcan0 7EC#2100000000000D0D
(1523990006.276974) slcan0 7EA#2304200000000000
(1523990006.276995) slcan0 7EC#220D0D0D0D0D2648
(1523990006.287309) slcan0 7E2#0221020000000000
(1523990006.290429) slcan0 7EC#2326480001500D0D
(1523990006.295130) slcan0 7EA#10176102FF800000
(1523990006.298136) slcan0 7EC#2403E85003E8273F
(1523990006.298669) slcan0 7E2#3010000000000000
(1523990006.307361) slcan0 7EA#2101010000009410
(1523990006.307381) slcan0 7EC#2500290000000000
(1523990006.316821) slcan0 7EA#22AC7CD2390A0661
(1523990006.316843) slcan0 7EC#2600000000000000
(1523990006.325047) slcan0 7EA#2386F03900000000
(1523990006.337165) slcan0 7E5#0221010000000000
(1523990006.351172) slcan0 7ED#102C6101FFFFF800
(1523990006.387274) slcan0 7E3#0221010000000000
(1523990006.387730) slcan0 7E5#3010000000000000
(1523990006.393843) slcan0 7EB#101E6101000003FF
(1523990006.394216) slcan0 7E3#3010000000000000
(1523990006.400846) slcan0 7ED#210102990294040A
(1523990006.403802) slcan0 7EB#210C38004E86DD39
(1523990006.411128) slcan0 7ED#22001574003401BD
(1523990006.413865) slcan0 7EB#220000000A004702
(1523990006.424115) slcan0 7ED#2305AE4100000000
(1523990006.424136) slcan0 7EB#235A04B239180030
(1523990006.437286) slcan0 7D5#0221010000000000
(1523990006.441084) slcan0 7EB#2400B7FF00000000
(1523990006.441104) slcan0 7ED#2400260000600000
(1523990006.441110) slcan0 7ED#25000001F4867D03
(1523990006.450945) slcan0 7ED#262E000000000000
(1523990006.468332) slcan0 7DD#101A6101FB180000
(1523990006.487056) slcan0 7E4#0221010000000000
(1523990006.498247) slcan0 7EC#103D6101FFFFFFFF
(1523990006.498806) slcan0 7D5#3010000000000000
(1523990006.499149) slcan0 7E4#3010000000000000
(1523990006.512018) slcan0 7EC#213E264826480300
(1523990006.522071) slcan0 7EC#22060D6E0D0D0D0D
(1523990006.537278) slcan0 7E4#0221050000000000
(1523990006.540599) slcan0 7DD#21BC0DFFF4FCFD02
(1523990006.540620) slcan0 7EC#230D0D0D000DB302
(1523990006.548505) slcan0 7EC#24B2270000920000
(1523990006.558172) slcan0 7EC#259D5600009DF800
(1523990006.558192) slcan0 7DD#22010202FFFFFFFF
(1523990006.567378) slcan0 7EC#260039E100003782
(1523990006.577917) slcan0 7EC#2700131FF10D0157
(1523990006.577937) slcan0 7DD#23000003C5000100
(1523990006.587090) slcan0 7E2#0221010000000000
(1523990006.590380) slcan0 7EC#280000000003E800
(1523990006.595122) slcan0 7EA#10166101FFE00000
(1523990006.602150) slcan0 7EC#102D6105FFFFFFFF
(1523990006.637237) slcan0 7E2#0221020000000000
(1523990006.637703) slcan0 7E2#3010000000000000
(1523990006.638051) slcan0 7E4#3010000000000000
(1523990006.645429) slcan0 7EA#2109215AAA05E902
(1523990006.652031) slcan0 7EC#2100000000000D0D
(1523990006.655057) slcan0 7EA#22000000003D7834
(1523990006.661925) slcan0 7EC#220D0D0D0D0D2648
(1523990006.665358) slcan0 7EA#2304200000000000
(1523990006.671902) slcan0 7EC#2326480001500D0D
(1523990006.682136) slcan0 7EC#2403E85003E8273F
(1523990006.687044) slcan0 7E5#0221010000000000
(1523990006.692213) slcan0 7EC#2500290000000000
(1523990006.702283) slcan0 7ED#102C6101FFFFF800
(1523990006.702304) slcan0 7EC#2600000000000000
(1523990006.702731) slcan0 7E5#3010000000000000
(1523990006.711169) slcan0 7ED#2101029A02930407
(1523990006.722075) slcan0 7ED#22001574003401BD
(1523990006.737132) slcan0 7E3#0221010000000000
(1523990006.741324) slcan0 7ED#2305B04100000000
(1523990006.741360) slcan0 7ED#2400260000600000
(1523990006.744370) slcan0 7EB#101E6101000003FF
(1523990006.751134) slcan0 7ED#25000001F4868403
(1523990006.751669) slcan0 7E3#3010000000000000
(1523990006.761095) slcan0 7ED#2633000000000000
(1523990006.764110) slcan0 7EB#210C38005086EB39
(1523990006.777665) slcan0 7EB#220000000A004602
(1523990006.784227) slcan0 7EB#235904C039180030
(1523990006.787127) slcan0 7D5#0221010000000000
(1523990006.794468) slcan0 7EB#2400B7FF00000000
(1523990006.818460) slcan0 7DD#101A6101FB180000
(1523990006.818922) slcan0 7D5#3010000000000000
(1523990006.837316) slcan0 7E4#0221010000000000
(1523990006.848533) slcan0 7EC#103D6101FFFFFFFF
(1523990006.849046) slcan0 7E4#3010000000000000
(1523990006.858306) slcan0 7DD#21BC0DFFF4FCFD02
(1523990006.862265) slcan0 7EC#213E264826480300
(1523990006.874526) slcan0 7EC#22060D6E0D0D0D0D
(1523990006.878282) slcan0 7DD#22010202FFFFFFFF
(1523990006.882264) slcan0 7EC#230D0D0D000DB30F
(1523990006.887376) slcan0 7E4#0221050000000000
(1523990006.892421) slcan0 7EC#24B2270000910000
(1523990006.898223) slcan0 7DD#23000003C5000100
(1523990006.902136) slcan0 7EC#259D5600009DF800
(1523990006.912117) slcan0 7EC#260039E100003782
(1523990006.922131) slcan0 7EC#2700131FF20D0157
(1523990006.937205) slcan0 7E2#0221010000000000
(1523990006.940461) slcan0 7EC#280000000003E800
(1523990006.945530) slcan0 7EA#10166101FFE00000
(1523990006.946087) slcan0 7E2#3010000000000000
(1523990006.952492) slcan0 7EC#102D6105FFFFFFFF
(1523990006.953036) slcan0 7E4#3010000000000000
(1523990006.956333) slcan0 7EA#2109215AAA05EB02
(1523990006.967436) slcan0 7EA#22000000003F7834
(1523990006.967458) slcan0 7EC#2100000000000D0D
(1523990006.977511) slcan0 7EA#2304200000000000
(1523990006.977532) slcan0 7EC#220D0D0D0D0D2648
(1523990006.987002) slcan0 7E2#0221020000000000
(1523990006.990231) slcan0 7EC#23264800014B0D0D
(1523990006.995346) slcan0 7EA#10176102FF800000
(1523990006.998250) slcan0 7EC#2403E85003E8273F
(1523990006.998745) slcan0 7E2#3010000000000000
(1523990007.007416) slcan0 7EA#2101010000009411
(1523990007.007436) slcan0 7EC#2500290000000000
(1523990007.017342) slcan0 7EA#22AC7C083A470755
(1523990007.017363) slcan0 7EC#2600000000000000
(1523990007.025313) slcan0 7EA#2386123A00000000
(1523990007.037243) slcan0 7E5#0221010000000000
(1523990007.051011) slcan0 7ED#102C6101FFFFF800
(1523990007.086929) slcan0 7E3#0221010000000000
(1523990007.087236) slcan0 7E5#3010000000000000
(1523990007.094431) slcan0 7EB#101E6101000003FF
(1523990007.094785) slcan0 7E3#3010000000000000
(1523990007.100867) slcan0 7ED#2101029702900406
(1523990007.105261) slcan0 7EB#210C38004A86283A
(1523990007.111024) slcan0 7ED#22001474003401BD
(1523990007.114637) slcan0 7EB#220000000A004502
(1523990007.121842) slcan0 7ED#2305B14100000000
(1523990007.125504) slcan0 7EB#235B04ED39300049
(1523990007.137210) slcan0 7D5#0221010000000000
(1523990007.141391) slcan0 7EB#240086FF00000000
(1523990007.141412) slcan0 7ED#2400260000600000
(1523990007.141416) slcan0 7ED#25000001F4868303
(1523990007.150910) slcan0 7ED#262E000000000000
(1523990007.168831) slcan0 7DD#101A6101FB180000
(1523990007.187065) slcan0 7E4#0221010000000000
(1523990007.198082) slcan0 7EC#103D6101FFFFFFFF
(1523990007.198414) slcan0 7D5#3010000000000000
(1523990007.198835) slcan0 7E4#3010000000000000
(1523990007.212652) slcan0 7EC#213E264826480300
(1523990007.222515) slcan0 7EC#22070D6E0D0D0D0D
(1523990007.237142) slcan0 7E4#0221050000000000
(1523990007.240271) slcan0 7EC#230D0D0D000DB318
(1523990007.240287) slcan0 7DD#21BC0DFFF4FCFD02
(1523990007.248284) slcan0 7EC#24B2270000920000
(1523990007.258547) slcan0 7EC#259D5600009DF800
(1523990007.258569) slcan0 7DD#22010201FFFFFFFF
(1523990007.267810) slcan0 7EC#260039E100003782
(1523990007.278751) slcan0 7EC#2700131FF20D0157
(1523990007.278772) slcan0 7DD#23000003C5000100
(1523990007.287180) slcan0 7E2#0221010000000000
(1523990007.290456) slcan0 7EC#280000000003E800
(1523990007.295574) slcan0 7EA#10166101FFE00000
(1523990007.303720) slcan0 7EC#102D6105FFFFFFFF
(1523990007.337031) slcan0 7E2#0221020000000000
(1523990007.337404) slcan0 7E2#3010000000000000
(1523990007.337750) slcan0 7E4#3010000000000000
(1523990007.345653) slcan0 7EA#2109215AAA05E902
(1523990007.348436) slcan0 7EC#2100000000000D0D
(1523990007.357862) slcan0 7EA#2200000000407834
(1523990007.357883) slcan0 7EC#220D0D0D0D0D2648
(1523990007.368006) slcan0 7EA#2304200000000000
(1523990007.368027) slcan0 7EC#2326480001500D0D
(1523990007.377735) slcan0 7EC#2403E85003E8273F
(1523990007.387173) slcan0 7E5#0221010000000000
(1523990007.390387) slcan0 7EC#2500290000000000
(1523990007.398365) slcan0 7EC#2600000000000000
(1523990007.401100) slcan0 7ED#102C6101FFFFF800
(1523990007.437053) slcan0 7E3#0221010000000000
(1523990007.437488) slcan0 7E5#3010000000000000
(1523990007.445036) slcan0 7EB#101E6101000003FF
(1523990007.445522) slcan0 7E3#3010000000000000
(1523990007.450969) slcan0 7ED#2101029602900406
(1523990007.455033) slcan0 7EB#210C38004E862F3A
(1523990007.461085) slcan0 7ED#22001474003401BD
(1523990007.465047) slcan0 7EB#220000000A004702
(1523990007.470874) slcan0 7ED#2305B14100000000
(1523990007.474936) slcan0 7EB#235804ED39000049
(1523990007.481138) slcan0 7ED#2400260000600000
(1523990007.485048) slcan0 7EB#2400B7FF00000000
(1523990007.486870) slcan0 7D5#0221010000000000
(1523990007.490934) slcan0 7ED#25000001F4867E03
(1523990007.501166) slcan0 7ED#2629000000000000
(1523990007.518693) slcan0 7DD#101A6101FB180000
(1523990007.519265) slcan0 7D5#3010000000000000
(1523990007.537188) slcan0 7E4#0221010000000000
(1523990007.548680) slcan0 7EC#103D6101FFFFFFFF
(1523990007.549238) slcan0 7E4#3010000000000000
(1523990007.558461) slcan0 7DD#21BC0DFFF4FCFD02
(1523990007.563626) slcan0 7EC#213E264826480300
(1523990007.574853) slcan0 7EC#22080D6E0D0D0D0D
(1523990007.578692) slcan0 7DD#22010201FFFFFFFF
(1523990007.583484) slcan0 7EC#230D0D0D000DB326
(1523990007.586984) slcan0 7E4#0221050000000000
(1523990007.593727) slcan0 7EC#24B2270000910000
(1523990007.598553) slcan0 7DD#23000003C5000100
(1523990007.603668) slcan0 7EC#259D5600009DF800
(1523990007.613729) slcan0 7EC#260039E100003782
(1523990007.623970) slcan0 7EC#2700131FF20D0157
(1523990007.637056) slcan0 7E2#0221010000000000
(1523990007.640091) slcan0 7EC#280000000003E800
(1523990007.645016) slcan0 7EA#10166101FFE00000
(1523990007.645512) slcan0 7E2#3010000000000000
(1523990007.654885) slcan0 7EC#102D6105FFFFFFFF
(1523990007.654903) slcan0 7EA#2109215AAA05E902
(1523990007.655337) slcan0 7E4#3010000000000000
(1523990007.665121) slcan0 7EA#2200000000457834
(1523990007.667963) slcan0 7EC#2100000000000D0D
(1523990007.675127) slcan0 7EA#2304200000000000
(1523990007.678064) slcan0 7EC#220D0D0D0D0D2648
(1523990007.686993) slcan0 7E2#0221020000000000
(1523990007.690056) slcan0 7EC#2326480001500D0D
(1523990007.695039) slcan0 7EA#10176102FF800000
(1523990007.695561) slcan0 7E2#3010000000000000
(1523990007.698764) slcan0 7EC#2403E85003E8273F
(1523990007.704997) slcan0 7EA#2101010000009412
(1523990007.708673) slcan0 7EC#2500290000000000
(1523990007.714828) slcan0 7EA#22AC7CE0397D065C
(1523990007.718221) slcan0 7EC#2600000000000000
(1523990007.725089) slcan0 7EA#2386FE3900000000
(1523990007.736953) slcan0 7E5#0221010000000000
(1523990007.751171) slcan0 7ED#102C6101FFFFF800
(1523990007.751689) slcan0 7E5#3010000000000000
(1523990007.761077) slcan0 7ED#2101029A0293040A
(1523990007.771162) slcan0 7ED#22001574003401BD
(1523990007.781090) slcan0 7ED#2305AF4100000000
(1523990007.787213) slcan0 7E3#0221010000000000
(1523990007.791380) slcan0 7ED#2400260000600000
(1523990007.795322) slcan0 7EB#101E6101000003FF
(1523990007.795899) slcan0 7E3#3010000000000000
(1523990007.800849) slcan0 7ED#25000001F4868403
(1523990007.805024) slcan0 7EB#210C38004786E439
(1523990007.810886) slcan0 7ED#2634000000000000
(1523990007.815259) slcan0 7EB#220000000A004602
(1523990007.825364) slcan0 7EB#235904A339000018
(1523990007.837214) slcan0 7D5#0221010000000000
(1523990007.840480) slcan0 7EB#2400E8FF00000000
(1523990007.869062) slcan0 7DD#101A6101FB180000
(1523990007.869626) slcan0 7D5#3010000000000000
(1523990007.887255) slcan0 7E4#0221010000000000
(1523990007.898294) slcan0 7EC#103D6101FFFFFFFF
(1523990007.898787) slcan0 7E4#3010000000000000
(1523990007.909139) slcan0 7DD#21BC0DFFF4FCFD02
(1523990007.913731) slcan0 7EC#213E264826480300
(1523990007.923764) slcan0 7EC#22060D6E0D0D0D0D
(1523990007.928913) slcan0 7DD#22010201FFFFFFFF
(1523990007.937145) slcan0 7E4#0221050000000000
(1523990007.940492) slcan0 7EC#230D0D0D000DB302
(1523990007.949344) slcan0 7DD#23000003C5000100
(1523990007.949383) slcan0 7EC#24B2270000920000
(1523990007.958459) slcan0 7EC#259D5600009DF800
(1523990007.968523) slcan0 7EC#260039E100003782
(1523990007.978439) slcan0 7EC#2700131FF30D0157
(1523990007.987021) slcan0 7E2#0221010000000000
(1523990007.990313) slcan0 7EC#280000000003E800
(1523990007.994938) slcan0 7EA#10166101FFE00000
(1523990007.995441) slcan0 7E2#3010000000000000
(1523990008.004884) slcan0 7EC#102D6105FFFFFFFF
(1523990008.004905) slcan0 7EA#2109215AAA05EB02
(1523990008.005396) slcan0 7E4#3010000000000000
(1523990008.014875) slcan0 7EA#22000000003C7834
(1523990008.018357) slcan0 7EC#2100000000000D0D
(1523990008.024885) slcan0 7EA#2304200000000000
(1523990008.028287) slcan0 7EC#220D0D0D0D0D2648
(1523990008.036869) slcan0 7E2#0221020000000000
(1523990008.039895) slcan0 7EC#2326480001500D0D
(1523990008.044891) slcan0 7EA#10176102FF800000
(1523990008.045247) slcan0 7E2#3010000000000000
(1523990008.048715) slcan0 7EC#2403E85003E8273F
(1523990008.054817) slcan0 7EA#2101010000009413
(1523990008.058288) slcan0 7EC#2500290000000000
(1523990008.064946) slcan0 7EA#22AC7CFA39120763
(1523990008.068431) slcan0 7EC#2600000000000000
(1523990008.075067) slcan0 7EA#23860C3A00000000
(1523990008.086891) slcan0 7E5#0221010000000000
(1523990008.101315) slcan0 7ED#102C6101FFFFF800
(1523990008.101620) slcan0 7E5#3010000000000000
(1523990008.111159) slcan0 7ED#2101029802920409
(1523990008.121923) slcan0 7ED#22001574003401BD
(1523990008.131161) slcan0 7ED#2305AE4100000000
(1523990008.137018) slcan0 7E3#0221010000000000
(1523990008.141140) slcan0 7ED#2400260000600000
(1523990008.145625) slcan0 7EB#101E6101000003FF
(1523990008.146165) slcan0 7E3#3010000000000000
(1523990008.151172) slcan0 7ED#25000001F4868003
(1523990008.155381) slcan0 7EB#210C38004D86D739
(1523990008.160937) slcan0 7ED#2639000000000000
(1523990008.165681) slcan0 7EB#220000000A004802
(1523990008.175604) slcan0 7EB#235704A839180030
(1523990008.185458) slcan0 7EB#2400B7FF00000000
(1523990008.186873) slcan0 7D5#0221010000000000
(1523990008.219008) slcan0 7DD#101A6101FB180000
(1523990008.219365) slcan0 7D5#3010000000000000
(1523990008.237245) slcan0 7E4#0221010000000000
(1523990008.248973) slcan0 7EC#103D6101FFFFFFFF
(1523990008.249485) slcan0 7E4#3010000000000000
(1523990008.259062) slcan0 7DD#21BC0DFFF4FCFD02
(1523990008.263870) slcan0 7EC#213E264826480300
(1523990008.274723) slcan0 7EC#22060D6E0D0D0D0D
(1523990008.278940) slcan0 7DD#22010201FFFFFFFF
(1523990008.283493) slcan0 7EC#230D0D0D000DB31A
(1523990008.287221) slcan0 7E4#0221050000000000
(1523990008.293811) slcan0 7EC#24B2270000920000
(1523990008.299112) slcan0 7DD#23000003C5000100
(1523990008.303780) slcan0 7EC#259D5600009DF800
(1523990008.313594) slcan0 7EC#260039E100003782
(1523990008.324067) slcan0 7EC#2700131FF30D0157
(1523990008.337239) slcan0 7E2#0221010000000000
(1523990008.340410) slcan0 7EC#280000000003E800
(1523990008.345121) slcan0 7EA#10166101FFE00000
(1523990008.345682) slcan0 7E2#3010000000000000
(1523990008.355041) slcan0 7EC#102D6105FFFFFFFF
(1523990008.355061) slcan0 7EA#2109215AA505E602
(1523990008.355601) slcan0 7E4#3010000000000000
(1523990008.364923) slcan0 7EA#2200000000357834
(1523990008.368949) slcan0 7EC#2100000000000D0D
(1523990008.375309) slcan0 7EA#2304200000000000
(1523990008.378637) slcan0 7EC#220D0D0D0D0D2648
(1523990008.387217) slcan0 7E2#0221020000000000
(1523990008.390269) slcan0 7EC#2326480001500D0D
(1523990008.395256) slcan0 7EA#10176102FF800000
(1523990008.395758) slcan0 7E2#3010000000000000
(1523990008.399453) slcan0 7EC#2403E85003E8273F
(1523990008.405050) slcan0 7EA#2101010000009410
(1523990008.408955) slcan0 7EC#2500290000000000
(1523990008.415176) slcan0 7EA#22AC7CF539B70660
(1523990008.418989) slcan0 7EC#2600000000000000
(1523990008.425169) slcan0 7EA#2386003A00000000
(1523990008.437225) slcan0 7E5#0221010000000000
(1523990008.451253) slcan0 7ED#102C6101FFFFF800
(1523990008.451754) slcan0 7E5#3010000000000000
(1523990008.461142) slcan0 7ED#2101029B0293040A
(1523990008.471128) slcan0 7ED#22001574003401BD
(1523990008.480904) slcan0 7ED#2305B04100000000
(1523990008.487162) slcan0 7E3#0221010000000000
(1523990008.491234) slcan0 7ED#2400260000600000
(1523990008.501163) slcan0 7EB#101E6101000003FF
(1523990008.501184) slcan0 7ED#25000001F4867F03
(1523990008.501683) slcan0 7E3#3010000000000000
(1523990008.511404) slcan0 7ED#2628000000000000
(1523990008.515678) slcan0 7EB#210C38004986283A
(1523990008.525964) slcan0 7EB#220000000A004702
(1523990008.537215) slcan0 7D5#0221010000000000
(1523990008.540497) slcan0 7EB#235904E839E8FF18
(1523990008.549092) slcan0 7EB#2400000000000000
(1523990008.569662) slcan0 7DD#101A6101FB180000
(1523990008.570082) slcan0 7D5#3010000000000000
(1523990008.587223) slcan0 7E4#0221010000000000
(1523990008.599129) slcan0 7EC#103D6101FFFFFFFF
(1523990008.599670) slcan0 7E4#3010000000000000
(1523990008.610142) slcan0 7DD#21BC0DFFF4FCFD02
(1523990008.614144) slcan0 7EC#213E264826480300
(1523990008.624146) slcan0 7EC#22070D6E0D0D0D0D
(1523990008.629855) slcan0 7DD#22010202FFFFFFFF
(1523990008.636991) slcan0 7E4#0221050000000000
(1523990008.640085) slcan0 7EC#230D0D0D000DB304
(1523990008.649667) slcan0 7EC#24B2270000920000
(1523990008.649688) slcan0 7DD#23000003C5000100
(1523990008.658949) slcan0 7EC#259D5600009DF800
(1523990008.669202) slcan0 7EC#260039E100003782
(1523990008.678950) slcan0 7EC#2700131FF30D0157
(1523990008.687001) slcan0 7E2#0221010000000000
(1523990008.690048) slcan0 7EC#280000000003E800
(1523990008.695148) slcan0 7EA#10166101FFE00000
(1523990008.695653) slcan0 7E2#3010000000000000
(1523990008.704918) slcan0 7EC#102D6105FFFFFFFF
(1523990008.704939) slcan0 7EA#2109215AAF05EB02
(1523990008.705432) slcan0 7E4#3010000000000000
(1523990008.715089) slcan0 7EA#2200000000407834
(1523990008.724963) slcan0 7EC#2100000000000D0D
(1523990008.724983) slcan0 7EA#2304200000000000
(1523990008.737006) slcan0 7E2#0221020000000000
(1523990008.740419) slcan0 7EC#220D0D0D0D0D2648
(1523990008.745253) slcan0 7EA#10176102FF800000
(1523990008.745803) slcan0 7E2#3010000000000000
(1523990008.749449) slcan0 7EC#2326480001500D0D
(1523990008.755165) slcan0 7EA#2101010000009411
(1523990008.759321) slcan0 7EC#2403E85003E8273F
(1523990008.765185) slcan0 7EA#22AC7CE739AF066B
(1523990008.769096) slcan0 7EC#2500290000000000
(1523990008.776046) slcan0 7EA#2386013A00000000
(1523990008.779085) slcan0 7EC#2600000000000000
(1523990008.787200) slcan0 7E5#0221010000000000
(1523990008.801262) slcan0 7ED#102C6101FFFFF800
(1523990008.801832) slcan0 7E5#3010000000000000
(1523990008.811365) slcan0 7ED#2101029A02910408
(1523990008.822226) slcan0 7ED#22001574003401BD
(1523990008.831235) slcan0 7ED#2305B04100000000
(1523990008.836975) slcan0 7E3#0221010000000000
(1523990008.841096) slcan0 7ED#2400260000600000
(1523990008.851065) slcan0 7EB#101E6101000003FF
(1523990008.851086) slcan0 7ED#25000001F4868203
(1523990008.851633) slcan0 7E3#3010000000000000
(1523990008.861079) slcan0 7ED#262F000000000000
(1523990008.868681) slcan0 7EB#210C38004986213A
(1523990008.878092) slcan0 7EB#220000000A004602
(1523990008.887263) slcan0 7D5#0221010000000000
(1523990008.890494) slcan0 7EB#235904E839B7FF18
(1523990008.898799) slcan0 7EB#2400300000000000
(1523990008.919691) slcan0 7DD#101A6101FB180000
(1523990008.920176) slcan0 7D5#3010000000000000
(1523990008.937152) slcan0 7E4#0221010000000000
(1523990008.949460) slcan0 7EC#103D6101FFFFFFFF
(1523990008.949981) slcan0 7E4#3010000000000000
(1523990008.959360) slcan0 7DD#21BC0DFFF4FCFD02
(1523990008.964482) slcan0 7EC#213E264826480300
(1523990008.975214) slcan0 7EC#22080D6E0D0D0D0D
(1523990008.979203) slcan0 7DD#22010201FFFFFFFF
(1523990008.984586) slcan0 7EC#230D0D0D000DB34D
(1523990008.987098) slcan0 7E4#0221050000000000
(1523990008.994649) slcan0 7EC#24B2270000920000
(1523990008.999228) slcan0 7DD#23000003C5000100
(1523990009.004521) slcan0 7EC#259D5600009DF800
(1523990009.014408) slcan0 7EC#260039E100003782
(1523990009.024731) slcan0 7EC#2700131FF40D0157
(1523990009.037207) slcan0 7E2#0221010000000000
(1523990009.040665) slcan0 7EC#280000000003E800
(1523990009.045250) slcan0 7EA#10166101FFE00000
(1523990009.045754) slcan0 7E2#3010000000000000
(1523990009.055145) slcan0 7EC#102D6105FFFFFFFF
(1523990009.055166) slcan0 7EA#21092159A705E402
(1523990009.055727) slcan0 7E4#3010000000000000
(1523990009.065018) slcan0 7EA#2200000000477834
(1523990009.069554) slcan0 7EC#2100000000000D0D
(1523990009.075162) slcan0 7EA#2304200000000000
(1523990009.079334) slcan0 7EC#220D0D0D0D0D2648
(1523990009.087017) slcan0 7E2#0221020000000000
(1523990009.090252) slcan0 7EC#2326480001500D0D
(1523990009.094994) slcan0 7EA#10176102FF800000
(1523990009.095565) slcan0 7E2#3010000000000000
(1523990009.099663) slcan0 7EC#2403E85003E8273F
(1523990009.105194) slcan0 7EA#2101010000009516
(1523990009.109729) slcan0 7EC#2500290000000000
(1523990009.115134) slcan0 7EA#22AC7C0D3A46086A
(1523990009.119433) slcan0 7EC#2600000000000000
(1523990009.125168) slcan0 7EA#2386193A00000000
(1523990009.136894) slcan0 7E5#0221010000000000
(1523990009.150959) slcan0 7ED#102C6101FFFFF800
(1523990009.151298) slcan0 7E5#3010000000000000
(1523990009.161128) slcan0 7ED#210102990294040A
(1523990009.170944) slcan0 7ED#22001574003401BD
(1523990009.180882) slcan0 7ED#2305AF4100000000
(1523990009.187258) slcan0 7E3#0221010000000000
(1523990009.191193) slcan0 7ED#2400260000600000
(1523990009.200860) slcan0 7EB#101E6101000003FF
(1523990009.200880) slcan0 7ED#25000001F4867D03
(1523990009.201377) slcan0 7E3#3010000000000000
(1523990009.211421) slcan0 7EB#210C38004C86E439
(1523990009.211441) slcan0 7ED#2634000000000000
(1523990009.218145) slcan0 7EB#220000000A004A02
(1523990009.228857) slcan0 7EB#235904BB39E8FF00
(1523990009.237070) slcan0 7D5#0221010000000000
(1523990009.240448) slcan0 7EB#2400180000000000
(1523990009.269778) slcan0 7DD#101A6101FB180000
(1523990009.270226) slcan0 7D5#3010000000000000
(1523990009.287279) slcan0 7E4#0221010000000000
(1523990009.299721) slcan0 7EC#103D6101FFFFFFFF
(1523990009.300273) slcan0 7E4#3010000000000000
(1523990009.309842) slcan0 7DD#21BC0DFFF4FCFD02
(1523990009.314814) slcan0 7EC#213E264826480300
(1523990009.324519) slcan0 7EC#22070D6E0D0D0D0D
(1523990009.329845) slcan0 7DD#22010201FFFFFFFF
(1523990009.337276) slcan0 7E4#0221050000000000
(1523990009.340451) slcan0 7EC#230D0D0D000DB311
(1523990009.350292) slcan0 7EC#24B2270000920000
(1523990009.350313) slcan0 7DD#23000003C5000100
(1523990009.359556) slcan0 7EC#259D5600009DF800
(1523990009.369904) slcan0 7EC#260039E100003782
(1523990009.379748) slcan0 7EC#2700131FF40D0157
(1523990009.387067) slcan0 7E2#0221010000000000
(1523990009.390379) slcan0 7EC#280000000003E800
(1523990009.395203) slcan0 7EA#10166101FFE00000
(1523990009.395769) slcan0 7E2#3010000000000000
(1523990009.405396) slcan0 7EC#102D6105FFFFFFFF
(1523990009.405417) slcan0 7EA#21092159AA05E602
(1523990009.405947) slcan0 7E4#3010000000000000
(1523990009.415227) slcan0 7EA#2200000000407834
(1523990009.419958) slcan0 7EC#2100000000000D0D
(1523990009.425201) slcan0 7EA#2304200000000000
(1523990009.429947) slcan0 7EC#220D0D0D0D0D2648
(1523990009.437255) slcan0 7E2#0221020000000000
(1523990009.440686) slcan0 7EC#2326480001500D0D
(1523990009.445166) slcan0 7EA#10176102FF800000
(1523990009.445689) slcan0 7E2#3010000000000000
(1523990009.450001) slcan0 7EC#2403E85003E8273F
(1523990009.455183) slcan0 7EA#2101010000009516
(1523990009.459915) slcan0 7EC#2500290000000000
(1523990009.465208) slcan0 7EA#22AC7C103AAB0858
(1523990009.470042) slcan0 7EC#2600000000000000
(1523990009.475415) slcan0 7EA#2386173A00000000
(1523990009.487097) slcan0 7E5#0221010000000000
(1523990009.501007) slcan0 7ED#102C6101FFFFF800
(1523990009.501370) slcan0 7E5#3010000000000000
(1523990009.511301) slcan0 7ED#21010295028E0405
(1523990009.522261) slcan0 7ED#22001574003401BD
(1523990009.531179) slcan0 7ED#2305AF4100000000
(1523990009.537198) slcan0 7E3#0221010000000000
(1523990009.541374) slcan0 7ED#2400260000600000
(1523990009.551095) slcan0 7EB#101E6101000003FF
(1523990009.551117) slcan0 7ED#25000001F4867F03
(1523990009.551566) slcan0 7E3#3010000000000000
(1523990009.558169) slcan0 7EB#210C38004986E439
(1523990009.561032) slcan0 7ED#2623000000000000
(1523990009.568809) slcan0 7EB#220000000A004802
(1523990009.578147) slcan0 7EB#235B04C0394900AA
(1523990009.587258) slcan0 7D5#0221010000000000
(1523990009.590498) slcan0 7EB#24000CFF00000000
(1523990009.619752) slcan0 7DD#101A6101FB180000
(1523990009.620176) slcan0 7D5#3010000000000000
(1523990009.637217) slcan0 7E4#0221010000000000
(1523990009.650177) slcan0 7EC#103D6101FFFFFFFF
(1523990009.650668) slcan0 7E4#3010000000000000
(1523990009.659621) slcan0 7DD#21BC0DFFF4FCFD02
(1523990009.664986) slcan0 7EC#213E264826480300
(1523990009.675189) slcan0 7EC#22070D6E0D0D0D0D
(1523990009.679634) slcan0 7DD#22010202FFFFFFFF
(1523990009.685111) slcan0 7EC#230D0D0D000DB306
(1523990009.686884) slcan0 7E4#0221050000000000
(1523990009.695230) slcan0 7EC#24B2270000910000
(1523990009.699812) slcan0 7DD#23000003C5000100
(1523990009.705259) slcan0 7EC#259D5600009DF800
(1523990009.715260) slcan0 7EC#260039E100003782
(1523990009.725247) slcan0 7EC#2700131FF40D0157
(1523990009.737175) slcan0 7E2#0221010000000000
(1523990009.740697) slcan0 7EC#280000000003E800
(1523990009.745074) slcan0 7EA#10166101FFE00000
(1523990009.745559) slcan0 7E2#3010000000000000
(1523990009.755569) slcan0 7EA#21092159AC05E902
(1523990009.755588) slcan0 7EC#102D6105FFFFFFFF
(1523990009.765280) slcan0 7EA#2200000000387834
(1523990009.765863) slcan0 7E4#3010000000000000
(1523990009.775981) slcan0 7EA#2304200000000000
(1523990009.780213) slcan0 7EC#2100000000000D0D
(1523990009.787263) slcan0 7E2#0221020000000000
(1523990009.790861) slcan0 7EC#220D0D0D0D0D2648
(1523990009.795036) slcan0 7EA#10176102FF800000
(1523990009.795452) slcan0 7E2#3010000000000000
(1523990009.800313) slcan0 7EC#2326480001500D0D
(1523990009.805129) slcan0 7EA#2101010000009412
(1523990009.810249) slcan0 7EC#2403E85003E8273F
(1523990009.815265) slcan0 7EA#22AC7CD53963075C
(1523990009.820411) slcan0 7EC#2500290000000000
(1523990009.825255) slcan0 7EA#2386E33900000000
(1523990009.830147) slcan0 7EC#2600000000000000
(1523990009.837273) slcan0 7E5#0221010000000000
(1523990009.851137) slcan0 7ED#102C6101FFFFF800
(1523990009.851647) slcan0 7E5#3010000000000000
(1523990009.860988) slcan0 7ED#2101029902920409
(1523990009.871177) slcan0 7ED#22001574003401BD
(1523990009.880946) slcan0 7ED#2305AE4100000000
(1523990009.887153) slcan0 7E3#0221010000000000
(1523990009.891401) slcan0 7ED#2400260000600000
(1523990009.901142) slcan0 7EB#101E6101000003FF
(1523990009.901164) slcan0 7ED#25000001F4867D03
(1523990009.901694) slcan0 7E3#3010000000000000
(1523990009.911396) slcan0 7EB#210C38004686143A
(1523990009.911416) slcan0 7ED#263B000000000000
(1523990009.918228) slcan0 7EB#220000000A004702
(1523990009.929022) slcan0 7EB#235804CF39D0FF18
(1523990009.937306) slcan0 7D5#0221010000000000
(1523990009.940643) slcan0 7EB#2400180000000000
(1523990009.969994) slcan0 7DD#101A6101FB180000
(1523990009.970469) slcan0 7D5#3010000000000000
(1523990009.986972) slcan0 7E4#0221010000000000
(1523990010.000270) slcan0 7EC#103D6101FFFFFFFF
(1523990010.000631) slcan0 7E4#3010000000000000
(1523990010.010740) slcan0 7DD#21BC0DFFF4FCFD02
(1523990010.010778) slcan0 7EC#213E264826480300
(1523990010.022064) slcan0 7EC#22090D6E0D0D0D0D
(1523990010.030321) slcan0 7DD#22010202FFFFFFFF
(1523990010.030343) slcan0 7EC#230D0D0D000DB309
(1523990010.037045) slcan0 7E4#0221050000000000
(1523990010.040461) slcan0 7EC#24B2270000920000
(1523990010.050313) slcan0 7DD#23000003C5000100
(1523990010.050334) slcan0 7EC#259D5600009DF800
(1523990010.060318) slcan0 7EC#260039E100003782
(1523990010.070328) slcan0 7EC#2700131FF50D0157
(1523990010.080331) slcan0 7EC#280000000003E800
(1523990010.087027) slcan0 7E2#0221010000000000
(1523990010.095568) slcan0 7EA#10166101FFE00000
(1523990010.095590) slcan0 7EC#102D6105FFFFFFFF
(1523990010.137280) slcan0 7E2#0221020000000000
(1523990010.137669) slcan0 7E2#3010000000000000
(1523990010.138014) slcan0 7E4#3010000000000000
(1523990010.144968) slcan0 7EA#21092159AA05E902
(1523990010.150470) slcan0 7EC#2100000000000D0D
(1523990010.155013) slcan0 7EA#22000000003D7834
(1523990010.160474) slcan0 7EC#220D0D0D0D0D2648
(1523990010.164995) slcan0 7EA#2304200000000000
(1523990010.170466) slcan0 7EC#2326480001500D0D
(1523990010.180479) slcan0 7EC#2403E85003E8273F
(1523990010.187265) slcan0 7E5#0221010000000000
(1523990010.190713) slcan0 7EC#2500290000000000
(1523990010.201287) slcan0 7EC#2600000000000000
(1523990010.201308) slcan0 7ED#102C6101FFFFF800
(1523990010.237240) slcan0 7E3#0221010000000000
(1523990010.237610) slcan0 7E5#3010000000000000
(1523990010.251228) slcan0 7EB#101E6101000003FF
(1523990010.251249) slcan0 7ED#2101029B0295040B
(1523990010.251809) slcan0 7E3#3010000000000000
(1523990010.260916) slcan0 7EB#210C38005086213A
(1523990010.260937) slcan0 7ED#22001574003401BD
(1523990010.271172) slcan0 7EB#220000000A004B02
(1523990010.271193) slcan0 7ED#2305AF4100000000
(1523990010.277553) slcan0 7EB#235904DE39E8FF30
(1523990010.280904) slcan0 7ED#2400260000600000
(1523990010.287286) slcan0 7D5#0221010000000000
(1523990010.291257) slcan0 7EB#2400E8FF00000000
(1523990010.291278) slcan0 7ED#25000001F4867F03
(1523990010.301179) slcan0 7ED#2629000000000000
(1523990010.320401) slcan0 7DD#101A6101FB180000
(1523990010.337285) slcan0 7E4#0221010000000000
(1523990010.351000) slcan0 7EC#103D6101FFFFFFFF
(1523990010.351560) slcan0 7D5#3010000000000000
(1523990010.351981) slcan0 7E4#3010000000000000
(1523990010.365902) slcan0 7EC#213E264826480300
(1523990010.375739) slcan0 7EC#22090D6E0D0D0D0D
(1523990010.385796) slcan0 7EC#230D0D0D000DB326
(1523990010.386886) slcan0 7E4#0221050000000000
(1523990010.390402) slcan0 7DD#21BC0DFFF4FCFD02
(1523990010.395942) slcan0 7EC#24B2270000920000
(1523990010.405960) slcan0 7EC#259D5600009DF800
(1523990010.410531) slcan0 7DD#22010202FFFFFFFF
(1523990010.415954) slcan0 7EC#260039E100003782
(1523990010.425961) slcan0 7EC#2700131FF50D0157
(1523990010.430254) slcan0 7DD#23000003C5000100
(1523990010.437245) slcan0 7E2#0221010000000000
(1523990010.440987) slcan0 7EC#280000000003E800
(1523990010.445306) slcan0 7EA#10166101FFE00000
(1523990010.445805) slcan0 7E2#3010000000000000
(1523990010.450975) slcan0 7EC#102D6105FFFFFFFF
(1523990010.451518) slcan0 7E4#3010000000000000
(1523990010.455035) slcan0 7EA#21092159AC05E602
(1523990010.466006) slcan0 7EA#22000000003F7834
(1523990010.466027) slcan0 7EC#2100000000000D0D
(1523990010.476024) slcan0 7EA#2304200000000000
(1523990010.476045) slcan0 7EC#220D0D0D0D0D2648
(1523990010.486030) slcan0 7EC#2326480001500D0D
(1523990010.487029) slcan0 7E2#0221020000000000
(1523990010.495285) slcan0 7EA#10176102FF800000
(1523990010.498888) slcan0 7EC#2403E85003E8273F
(1523990010.499396) slcan0 7E2#3010000000000000
(1523990010.506075) slcan0 7EA#2101010000009516
(1523990010.506096) slcan0 7EC#2500290000000000
(1523990010.516022) slcan0 7EA#22AC7C0F3A8B085B
(1523990010.516043) slcan0 7EC#2600000000000000
(1523990010.525221) slcan0 7EA#2386183A00000000
(1523990010.537165) slcan0 7E5#0221010000000000
(1523990010.551295) slcan0 7ED#102C6101FFFFF800
(1523990010.587318) slcan0 7E3#0221010000000000
(1523990010.587762) slcan0 7E5#3010000000000000
(1523990010.601127) slcan0 7EB#101E6101000003FF
(1523990010.601147) slcan0 7ED#21010295028E0406
(1523990010.601681) slcan0 7E3#3010000000000000
(1523990010.611468) slcan0 7EB#210C38004D86E439
(1523990010.611488) slcan0 7ED#22001574003401BD
(1523990010.617750) slcan0 7EB#220000000A004A02
(1523990010.622643) slcan0 7ED#2305B04100000000
(1523990010.630959) slcan0 7EB#2358048039490061
(1523990010.630985) slcan0 7ED#2400260000600000
(1523990010.637101) slcan0 7D5#0221010000000000
(1523990010.641129) slcan0 7EB#240056FF00000000
(1523990010.641152) slcan0 7ED#25000001F4868203
(1523990010.651164) slcan0 7ED#2624000000000000
(1523990010.670315) slcan0 7DD#101A6101FB180000
(1523990010.687065) slcan0 7E4#0221010000000000
(1523990010.701173) slcan0 7EC#103D6101FFFFFFFF
(1523990010.701687) slcan0 7D5#3010000000000000
(1523990010.702067) slcan0 7E4#3010000000000000
(1523990010.716168) slcan0 7EC#213E264826480300
(1523990010.726272) slcan0 7EC#22070D6E0D0D0D0D
(1523990010.737261) slcan0 7E4#0221050000000000
(1523990010.741424) slcan0 7DD#21BC0DFFF4FCFD02
(1523990010.741444) slcan0 7EC#230D0D0D000DB326
(1523990010.751229) slcan0 7EC#24B2270000920000
(1523990010.761456) slcan0 7DD#22010202FFFFFFFF
(1523990010.761477) slcan0 7EC#259D5600009DF800
(1523990010.771221) slcan0 7EC#260039E100003782
(1523990010.781296) slcan0 7DD#23000003C5000100
(1523990010.781316) slcan0 7EC#2700131FF60D0157
(1523990010.787246) slcan0 7E2#0221010000000000
(1523990010.791159) slcan0 7EC#280000000003E800
(1523990010.795384) slcan0 7EA#10166101FFE00000
(1523990010.806396) slcan0 7EC#102D6105FFFFFFFF
(1523990010.837290) slcan0 7E2#0221020000000000
(1523990010.837764) slcan0 7E2#3010000000000000
(1523990010.838046) slcan0 7E4#3010000000000000
(1523990010.844980) slcan0 7EA#21092159AA05E602
(1523990010.851108) slcan0 7EC#2100000000000D0D
(1523990010.854996) slcan0 7EA#22000000003B7834
(1523990010.861213) slcan0 7EC#220D0D0D0D0D2648
(1523990010.864992) slcan0 7EA#2304200000000000
(1523990010.871122) slcan0 7EC#2326480001500D0D
(1523990010.881342) slcan0 7EC#2403E85003E8273F
(1523990010.887260) slcan0 7E5#0221010000000000
(1523990010.891497) slcan0 7EC#2500290000000000
(1523990010.901551) slcan0 7ED#102C6101FFFFF800
(1523990010.901570) slcan0 7EC#2600000000000000
(1523990010.902030) slcan0 7E5#3010000000000000
(1523990010.911234) slcan0 7ED#2101029C0294040A
(1523990010.922572) slcan0 7ED#22001574003401BD
(1523990010.931042) slcan0 7ED#2305B04100000000
(1523990010.937082) slcan0 7E3#0221010000000000
(1523990010.941198) slcan0 7ED#2400260000600000
(1523990010.948108) slcan0 7EB#101E6101000003FF
(1523990010.948676) slcan0 7E3#3010000000000000
(1523990010.951921) slcan0 7ED#25000001F4867E03
(1523990010.958102) slcan0 7EB#210C38005086F939
(1523990010.961130) slcan0 7ED#2638000000000000
(1523990010.968943) slcan0 7EB#220000000A004A02
(1523990010.978019) slcan0 7EB#235804CA39000030
(1523990010.987344) slcan0 7D5#0221010000000000
(1523990010.990551) slcan0 7EB#2400D0FF00000000
(1523990011.021158) slcan0 7DD#101A6101FB180000
(1523990011.021644) slcan0 7D5#3010000000000000
(1523990011.037047) slcan0 7E4#0221010000000000
(1523990011.051276) slcan0 7EC#103D6101FFFFFFFF
(1523990011.051638) slcan0 7E4#3010000000000000
(1523990011.061588) slcan0 7DD#21BC4DFFF4FEFD02
(1523990011.061599) slcan0 7EC#213E264826480300
(1523990011.071453) slcan0 7EC#22070D6E0D0D0D0D
(1523990011.081378) slcan0 7DD#22010201FFFFFFFF
(1523990011.081389) slcan0 7EC#230D0D0D000DB302
(1523990011.087038) slcan0 7E4#0221050000000000
(1523990011.091455) slcan0 7EC#24B2270000910000
(1523990011.101396) slcan0 7DD#23000003C5000100
(1523990011.101413) slcan0 7EC#259D5600009DF800
(1523990011.111759) slcan0 7EC#260039E100003782
(1523990011.122608) slcan0 7EC#2700131FF60D0157
(1523990011.131489) slcan0 7EC#280000000003E800
(1523990011.137244) slcan0 7E2#0221010000000000
(1523990011.148034) slcan0 7EA#10166101FFE00000
(1523990011.148061) slcan0 7EC#102D6105FFFFFFFF
(1523990011.187098) slcan0 7E2#0221020000000000
(1523990011.187552) slcan0 7E2#3010000000000000
(1523990011.187985) slcan0 7E4#3010000000000000
(1523990011.195211) slcan0 7EA#21092159AC05E602
(1523990011.201717) slcan0 7EC#2100000000000D0D
(1523990011.205343) slcan0 7EA#22000000003D7834
(1523990011.211832) slcan0 7EC#220D0D0D0D0D2648
(1523990011.215341) slcan0 7EA#2304200000000000
(1523990011.222377) slcan0 7EC#2326480001500D0D
(1523990011.231803) slcan0 7EC#2403E85003E8273F
(1523990011.237264) slcan0 7E5#0221010000000000
(1523990011.241988) slcan0 7EC#2500290000000000
(1523990011.251815) slcan0 7ED#102C6101FFFFF800
(1523990011.251836) slcan0 7EC#2600000000000000
(1523990011.252309) slcan0 7E5#3010000000000000
(1523990011.260928) slcan0 7ED#2101029702910407
(1523990011.270996) slcan0 7ED#22001574003401BD
(1523990011.280933) slcan0 7ED#2305AE4100000000
(1523990011.287231) slcan0 7E3#0221010000000000
(1523990011.291491) slcan0 7ED#2400260000600000
(1523990011.301163) slcan0 7EB#101E6101000003FF
(1523990011.301184) slcan0 7ED#25000001F4867903
(1523990011.301626) slcan0 7E3#3010000000000000
(1523990011.311298) slcan0 7EB#210C38004A86283A
(1523990011.311330) slcan0 7ED#262B000000000000
(1523990011.318418) slcan0 7EB#220000000A004D02
(1523990011.328348) slcan0 7EB#235804F239E8FF18
(1523990011.337174) slcan0 7D5#0221010000000000
(1523990011.341743) slcan0 7EB#2400000000000000
(1523990011.371749) slcan0 7DD#101A6101FB180000
(1523990011.372232) slcan0 7D5#3010000000000000
(1523990011.387302) slcan0 7E4#0221010000000000
(1523990011.401724) slcan0 7EC#103D6101FFFFFFFF
(1523990011.402281) slcan0 7E4#3010000000000000
(1523990011.411613) slcan0 7DD#21BB0DFFF4FEFC02
(1523990011.417466) slcan0 7EC#213E264826480300
(1523990011.428056) slcan0 7EC#220B0D6E0D0D0D0D
(1523990011.431005) slcan0 7DD#2210020DFFFFFFFF
(1523990011.437270) slcan0 7E4#0221050000000000
(1523990011.442014) slcan0 7EC#230D0D0D000DB344
(1523990011.451733) slcan0 7DD#23000003C5000100
(1523990011.451754) slcan0 7EC#24B2270000910000
(1523990011.462008) slcan0 7EC#259D5600009DF800
(1523990011.472017) slcan0 7EC#260039E100003782
(1523990011.482039) slcan0 7EC#2700131FF60D0157
(1523990011.487232) slcan0 7E2#0221010000000000
(1523990011.492072) slcan0 7EC#280000000003E800
(1523990011.495305) slcan0 7EA#10166101FFE00000
(1523990011.495800) slcan0 7E2#3010000000000000
(1523990011.505375) slcan0 7EA#21092159AA05E602
(1523990011.508154) slcan0 7EC#102D6105FFFFFFFF
(1523990011.508635) slcan0 7E4#3010000000000000
(1523990011.515127) slcan0 7EA#2200000000407834
(1523990011.525405) slcan0 7EC#2100000000000D0D
(1523990011.525434) slcan0 7EA#2304200000000000
(1523990011.532074) slcan0 7EC#220D0D0D0D0D2648
(1523990011.537245) slcan0 7E2#0221020000000000
(1523990011.542232) slcan0 7EC#2326480001550D0D
(1523990011.545368) slcan0 7EA#10176102FF800000
(1523990011.545866) slcan0 7E2#3010000000000000
(1523990011.552095) slcan0 7EC#2403E85003E8273F
(1523990011.555368) slcan0 7EA#2101010000009518
(1523990011.562157) slcan0 7EC#2500290000000000
(1523990011.565299) slcan0 7EA#22AC7CFD39E5085F
(1523990011.571982) slcan0 7EC#2600000000000000
(1523990011.575668) slcan0 7EA#23860C3A00000000
(1523990011.587162) slcan0 7E5#0221010000000000
(1523990011.601311) slcan0 7ED#102C6101FFFFF800
(1523990011.601770) slcan0 7E5#3010000000000000
(1523990011.611392) slcan0 7ED#2101029702900407
(1523990011.622606) slcan0 7ED#22001574003401BD
(1523990011.631255) slcan0 7ED#2305AF4100000000
(1523990011.637234) slcan0 7E3#0221010000000000
(1523990011.642153) slcan0 7ED#2400260000600000
(1523990011.651188) slcan0 7EB#101E6101000003FF
(1523990011.651208) slcan0 7ED#25000001F4868003
(1523990011.651737) slcan0 7E3#3010000000000000
(1523990011.660898) slcan0 7EB#210C380046860D3A
(1523990011.660913) slcan0 7ED#2630000000000000
(1523990011.668720) slcan0 7EB#220000000A004B02
(1523990011.678491) slcan0 7EB#235804C539E8FF18
(1523990011.686920) slcan0 7D5#0221010000000000
(1523990011.689925) slcan0 7EB#2400000000000000
(1523990011.722041) slcan0 7DD#101A6101FB180000
(1523990011.722622) slcan0 7D5#3010000000000000
(1523990011.737270) slcan0 7E4#0221010000000000
(1523990011.748113) slcan0 7EC#103D6101FFFFFFFF
(1523990011.748701) slcan0 7E4#3010000000000000
(1523990011.762326) slcan0 7DD#21BC0DFFF4FEFC02
(1523990011.762347) slcan0 7EC#213E264826480300
(1523990011.772311) slcan0 7EC#220A0D6E0D0D0D0D
(1523990011.782476) slcan0 7DD#22100210FFFFFFFF
(1523990011.782496) slcan0 7EC#230D0D0D000DB318
(1523990011.787251) slcan0 7E4#0221020000000000
(1523990011.792368) slcan0 7EC#24B2270000910000
(1523990011.802304) slcan0 7DD#23000003C5000100
(1523990011.802324) slcan0 7EC#259D5600009DF800
(1523990011.812358) slcan0 7EC#260039E100003782
(1523990011.822656) slcan0 7EC#2700131FF70D0157
(1523990011.832390) slcan0 7EC#280000000003E800
(1523990011.837057) slcan0 7E4#0221030000000000
(1523990011.848003) slcan0 7EC#10266103FFFFFFFF
(1523990011.887331) slcan0 7E4#0221040000000000
(1523990011.887742) slcan0 7E4#3010000000000000
(1523990011.902082) slcan0 7EC#21B3B3B3B3B3B3B2
(1523990011.912378) slcan0 7EC#22B3B3B3B3B3B3B3
(1523990011.922353) slcan0 7EC#23B3B3B3B3B3B3B3
(1523990011.932355) slcan0 7EC#24B3B3B3B3B3B3B3
(1523990011.937208) slcan0 7E4#0221050000000000
(1523990011.942611) slcan0 7EC#25B3B3B3B3000000
(1523990011.957719) slcan0 7EC#102D6105FFFFFFFF
(1523990011.958290) slcan0 7E4#3010000000000000
(1523990011.972488) slcan0 7EC#2100000000000D0D
(1523990011.982313) slcan0 7EC#220D0D0D0D0D2648
(1523990011.987333) slcan0 7E2#0221010000000000
(1523990011.992479) slcan0 7EC#2326480001500D0D
(1523990011.995312) slcan0 7EA#10166101FFE00000
(1523990011.995860) slcan0 7E2#3010000000000000
(1523990012.002270) slcan0 7EC#2403E85003E8273F
(1523990012.005083) slcan0 7EA#21092159A705E902
(1523990012.012338) slcan0 7EC#2500290000000000
(1523990012.015111) slcan0 7EA#2200000000417834
(1523990012.025186) slcan0 7EC#2600000000000000
(1523990012.025205) slcan0 7EA#2304200000000000
(1523990012.037296) slcan0 7E2#0221020000000000
(1523990012.045137) slcan0 7EA#10176102FF800000
(1523990012.045612) slcan0 7E2#3010000000000000
(1523990012.055168) slcan0 7EA#2101010000009516
(1523990012.065312) slcan0 7EA#22AC7CF8390F085E
(1523990012.075460) slcan0 7EA#2386103A00000000
(1523990012.087288) slcan0 7E5#0221010000000000
(1523990012.101406) slcan0 7ED#102C6101FFFFF800
(1523990012.101959) slcan0 7E5#3010000000000000
(1523990012.111546) slcan0 7ED#2101029A0293040A
(1523990012.122594) slcan0 7ED#22001574003401BD
(1523990012.131209) slcan0 7ED#2305AF4100000000
(1523990012.137233) slcan0 7E3#0221010000000000
(1523990012.142840) slcan0 7ED#2400260000600000
(1523990012.151159) slcan0 7EB#101E6101000003FF
(1523990012.151180) slcan0 7ED#25000001F4867C03
(1523990012.151710) slcan0 7E3#3010000000000000
(1523990012.161009) slcan0 7EB#210C38004F86143A
(1523990012.161028) slcan0 7ED#2631000000000000
(1523990012.169169) slcan0 7EB#220000000A004A02
(1523990012.178915) slcan0 7EB#235A04D939000018
(1523990012.187048) slcan0 7D5#0221010000000000
(1523990012.190301) slcan0 7EB#2400E8FF00000000
(1523990012.211430) slcan0 7DD#101A6101FB180000
(1523990012.211983) slcan0 7D5#3010000000000000
(1523990012.237321) slcan0 7E4#0221010000000000
(1523990012.252849) slcan0 7DD#21BC0DFFF0FCFE02
(1523990012.252869) slcan0 7EC#103D6101FFFFFFFF
(1523990012.271285) slcan0 7DD#22010201FFFFFFFF
(1523990012.271787) slcan0 7E4#3010000000000000
(1523990012.282720) slcan0 7EC#213E264826480300
(1523990012.287283) slcan0 7E4#0221050000000000
(1523990012.292817) slcan0 7DD#23000003C6000100
(1523990012.292838) slcan0 7EC#220A0D6E0D0D0D0D
(1523990012.302882) slcan0 7EC#230D0D0D000DB326
(1523990012.312912) slcan0 7EC#24B2270000920000
(1523990012.322634) slcan0 7EC#259D5600009DF800
(1523990012.332862) slcan0 7EC#260039E100003782
(1523990012.337004) slcan0 7E2#0221010000000000
(1523990012.345453) slcan0 7EC#2700131FF70D0157
(1523990012.345474) slcan0 7EA#10166101FFE00000
(1523990012.352602) slcan0 7EC#280000000003E800
(1523990012.353138) slcan0 7E2#3010000000000000
(1523990012.365403) slcan0 7EA#21092159AA05E602
(1523990012.368115) slcan0 7EC#102D6105FFFFFFFF
(1523990012.368636) slcan0 7E4#3010000000000000
(1523990012.375720) slcan0 7EA#22000000003D7834
(1523990012.385450) slcan0 7EC#2100000000000D0D
(1523990012.385471) slcan0 7EA#2304200000000000
(1523990012.386903) slcan0 7E2#0221020000000000
(1523990012.395214) slcan0 7EC#220D0D0D0D0D2648
(1523990012.395229) slcan0 7EA#10176102FF800000
(1523990012.402989) slcan0 7EC#2326480001500D0D
(1523990012.403555) slcan0 7E2#3010000000000000
(1523990012.415326) slcan0 7EC#2403E85003E8273F
(1523990012.415346) slcan0 7EA#2101010000009415
(1523990012.425419) slcan0 7EC#2500290000000000
(1523990012.425440) slcan0 7EA#22AC7C0E3AC40863
(1523990012.435289) slcan0 7EC#2600000000000000
(1523990012.435310) slcan0 7EA#2386103A00000000
(1523990012.436846) slcan0 7E5#0221010000000000
(1523990012.451074) slcan0 7ED#102C6101FFFFF800
(1523990012.486991) slcan0 7E3#0221010000000000
(1523990012.499167) slcan0 7EB#101E6101000003FF
(1523990012.499612) slcan0 7E5#3010000000000000
(1523990012.500003) slcan0 7E3#3010000000000000
(1523990012.511310) slcan0 7EB#210C38004B86E439
(1523990012.511333) slcan0 7ED#2101029A0294040A
(1523990012.519395) slcan0 7EB#220000000A004802
(1523990012.522406) slcan0 7ED#22001574003401BD
(1523990012.531132) slcan0 7EB#235704B739000049
(1523990012.531153) slcan0 7ED#2305B04100000000
(1523990012.537261) slcan0 7D5#0221010000000000
(1523990012.544015) slcan0 7EB#2400B7FF00000000
(1523990012.544041) slcan0 7ED#2400260000600000
(1523990012.551227) slcan0 7ED#25000001F4868403
(1523990012.561568) slcan0 7ED#2636000000000000
(1523990012.561600) slcan0 7DD#101A6101FB180000
(1523990012.587037) slcan0 7E4#0221010000000000
(1523990012.598291) slcan0 7EC#103D6101FFFFFFFF
(1523990012.637238) slcan0 7E4#0221050000000000
(1523990012.637701) slcan0 7D5#3010000000000000
(1523990012.638070) slcan0 7E4#3010000000000000
(1523990012.653846) slcan0 7EC#213E264826480300
(1523990012.664046) slcan0 7EC#22080D6E0D0D0D0D
(1523990012.675454) slcan0 7EC#230D0D0D000DB325
(1523990012.683846) slcan0 7DD#21BC0DFFF0FCFE02
(1523990012.683867) slcan0 7EC#24B2270000920000
(1523990012.687208) slcan0 7E2#0221010000000000
(1523990012.695322) slcan0 7EC#259D5600009DF800
(1523990012.695338) slcan0 7EA#10166101FFE00000
(1523990012.704095) slcan0 7DD#22010202FFFFFFFF
(1523990012.704116) slcan0 7EC#260039E100003782
(1523990012.704650) slcan0 7E2#3010000000000000
(1523990012.714973) slcan0 7EC#2700131FF70D0157
(1523990012.725319) slcan0 7DD#23000003C6000100
(1523990012.725339) slcan0 7EC#280000000003E800
(1523990012.725343) slcan0 7EA#21092159A705E402
(1523990012.735454) slcan0 7EA#22000000003C7834
(1523990012.736846) slcan0 7E2#0221020000000000
(1523990012.745491) slcan0 7EA#10176102FF800000
(1523990012.787202) slcan0 7E5#0221010000000000
(1523990012.801280) slcan0 7ED#102C6101FFFFF800
(1523990012.801748) slcan0 7E2#3010000000000000
(1523990012.802070) slcan0 7E5#3010000000000000
(1523990012.811000) slcan0 7ED#2101029D0294040A
(1523990012.815168) slcan0 7EA#2101010000009413
(1523990012.825319) slcan0 7ED#22001574003401BD
(1523990012.825340) slcan0 7EA#22AC7CEE39D50758
(1523990012.831146) slcan0 7ED#2305B04100000000
(1523990012.835359) slcan0 7EA#2386EE3900000000
(1523990012.837271) slcan0 7E3#0221010000000000
(1523990012.844085) slcan0 7ED#2400260000600000
(1523990012.851272) slcan0 7EB#101E6101000003FF
(1523990012.851295) slcan0 7ED#25000001F4867F03
(1523990012.851892) slcan0 7E3#3010000000000000
(1523990012.861212) slcan0 7EB#210C38004C86EB39
(1523990012.861232) slcan0 7ED#2633000000000000
(1523990012.869673) slcan0 7EB#220000000A004802
(1523990012.879617) slcan0 7EB#235904B739E8FF18
(1523990012.887285) slcan0 7D5#0221010000000000
(1523990012.890450) slcan0 7EB#2400000000000000
(1523990012.911671) slcan0 7DD#101A6101FB180000
(1523990012.912244) slcan0 7D5#3010000000000000
(1523990012.936975) slcan0 7E4#0221010000000000
(1523990012.954137) slcan0 7DD#21BC0DFFF0FCFE02
(1523990012.954157) slcan0 7EC#103D6101FFFFFFFF
(1523990012.971616) slcan0 7DD#22010202FFFFFFFF
(1523990012.972176) slcan0 7E4#3010000000000000
(1523990012.984096) slcan0 7EC#213E264826480300
(1523990012.987127) slcan0 7E4#0221050000000000
(1523990012.994104) slcan0 7DD#23000003C6000100
(1523990012.994138) slcan0 7EC#22070D6E0D0D0D0D
(1523990013.003976) slcan0 7EC#230D0D0D000DB326
(1523990013.013855) slcan0 7EC#24B2270000920000
(1523990013.024110) slcan0 7EC#259D5600009DF800
(1523990013.034019) slcan0 7EC#260039E100003782
(1523990013.036979) slcan0 7E2#0221010000000000
(1523990013.045498) slcan0 7EC#2700131FF80D0157
(1523990013.045520) slcan0 7EA#10166101FFE00000
(1523990013.054107) slcan0 7EC#280000000003E800
(1523990013.054629) slcan0 7E2#3010000000000000
(1523990013.065220) slcan0 7EA#21092159A505E602
(1523990013.068842) slcan0 7EC#102D6105FFFFFFFF
(1523990013.069369) slcan0 7E4#3010000000000000
(1523990013.075704) slcan0 7EA#2200000000447834
(1523990013.085494) slcan0 7EC#2100000000000D0D
(1523990013.085514) slcan0 7EA#2304200000000000
(1523990013.086867) slcan0 7E2#0221020000000000
(1523990013.095258) slcan0 7EC#220D0D0D0D0D2648
(1523990013.095278) slcan0 7EA#10176102FF800000
(1523990013.104111) slcan0 7EC#2326480001500D0D
(1523990013.104613) slcan0 7E2#3010000000000000
(1523990013.115400) slcan0 7EC#2403E85003E8273F
(1523990013.115421) slcan0 7EA#2101010000009515
(1523990013.125344) slcan0 7EC#2500290000000000
(1523990013.125364) slcan0 7EA#22AC7CF039BE0755
(1523990013.135489) slcan0 7EC#2600000000000000
(1523990013.135510) slcan0 7EA#2386093A00000000
(1523990013.136878) slcan0 7E5#0221010000000000
(1523990013.151090) slcan0 7ED#102C6101FFFFF800
(1523990013.187280) slcan0 7E3#0221010000000000
(1523990013.199895) slcan0 7EB#101E6101000003FF
(1523990013.200261) slcan0 7E5#3010000000000000
(1523990013.200661) slcan0 7E3#3010000000000000
(1523990013.211437) slcan0 7EB#210C380050861A3A
(1523990013.211458) slcan0 7ED#2101029B0293040B
(1523990013.220168) slcan0 7EB#220000000A004A02
(1523990013.224143) slcan0 7ED#22001574003401BD
(1523990013.231599) slcan0 7EB#235904DE39000030
(1523990013.231619) slcan0 7ED#2305B04100000000
(1523990013.237261) slcan0 7D5#0221010000000000
(1523990013.244771) slcan0 7EB#2400D0FF00000000
(1523990013.244791) slcan0 7ED#2400260000600000
(1523990013.251384) slcan0 7ED#25000001F4868303
(1523990013.261552) slcan0 7ED#263D000000000000
(1523990013.261569) slcan0 7DD#101A6101FB180000
(1523990013.286996) slcan0 7E4#0221010000000000
(1523990013.298638) slcan0 7EC#103D6101FFFFFFFF
(1523990013.336988) slcan0 7E4#0221050000000000
(1523990013.337297) slcan0 7D5#3010000000000000
(1523990013.337556) slcan0 7E4#3010000000000000
(1523990013.353846) slcan0 7EC#213E264826480300
(1523990013.364087) slcan0 7EC#22090D6E0D0D0D0D
(1523990013.372090) slcan0 7DD#21BC0DFFF0FCFE02
(1523990013.375588) slcan0 7EC#230D0D0D000DB30D
(1523990013.384108) slcan0 7EC#24B2270000920000
(1523990013.387147) slcan0 7E2#0221010000000000
(1523990013.395405) slcan0 7DD#22010202FFFFFFFF
(1523990013.395426) slcan0 7EC#259D5600009DF800
(1523990013.395430) slcan0 7EA#10166101FFE00000
(1523990013.403991) slcan0 7EC#260039E100003782
(1523990013.414137) slcan0 7DD#23000003C6000100
(1523990013.414157) slcan0 7EC#2700131FF80D0157
(1523990013.414669) slcan0 7E2#3010000000000000
(1523990013.425190) slcan0 7EC#280000000003E800
(1523990013.425206) slcan0 7EA#21092159AA05E102
(1523990013.435503) slcan0 7EA#2200000000417834
(1523990013.436843) slcan0 7E2#0221020000000000
(1523990013.445533) slcan0 7EA#10176102FF800000
(1523990013.487295) slcan0 7E5#0221010000000000
(1523990013.501411) slcan0 7ED#102C6101FFFFF800
(1523990013.501980) slcan0 7E2#3010000000000000
(1523990013.502431) slcan0 7E5#3010000000000000
(1523990013.511412) slcan0 7ED#2101029602900407
(1523990013.515373) slcan0 7EA#2101010000009516
(1523990013.525461) slcan0 7ED#22001574003401BD
(1523990013.525481) slcan0 7EA#22AC7C083A7A0857
(1523990013.531449) slcan0 7ED#2305AF4100000000
(1523990013.535536) slcan0 7EA#2386133A00000000
(1523990013.536897) slcan0 7E3#0221010000000000
(1523990013.544438) slcan0 7ED#2400260000600000
(1523990013.551569) slcan0 7EB#101E6101000003FF
(1523990013.551576) slcan0 7ED#25000001F4867D03
(1523990013.551972) slcan0 7E3#3010000000000000
(1523990013.561557) slcan0 7EB#210C38004F861A3A
(1523990013.561568) slcan0 7ED#2632000000000000
(1523990013.570217) slcan0 7EB#220000000A004B02
(1523990013.580190) slcan0 7EB#235904D439180030
(1523990013.587264) slcan0 7D5#0221010000000000
(1523990013.591015) slcan0 7EB#2400B7FF00000000
(1523990013.611816) slcan0 7DD#101A6101FB180000
(1523990013.612278) slcan0 7D5#3010000000000000
(1523990013.636939) slcan0 7E4#0221010000000000
(1523990013.648952) slcan0 7EC#103D6101FFFFFFFF
(1523990013.649422) slcan0 7E4#3010000000000000
(1523990013.652498) slcan0 7DD#21BC0DFFF0FCFE02
(1523990013.663946) slcan0 7EC#213E264826480300
(1523990013.671990) slcan0 7DD#22010202FFFFFFFF
(1523990013.675279) slcan0 7EC#220A0D6E0D0D0D0D
(1523990013.683953) slcan0 7EC#230D0D0D000DB302
(1523990013.686887) slcan0 7E4#0221050000000000
(1523990013.694527) slcan0 7DD#23000003C6000100
(1523990013.694548) slcan0 7EC#24B2270000920000
(1523990013.704467) slcan0 7EC#259D5600009DF800
(1523990013.714831) slcan0 7EC#260039E100003782
(1523990013.724622) slcan0 7EC#2700131FF80D0157
(1523990013.734539) slcan0 7EC#280000000003E800
(1523990013.737115) slcan0 7E2#0221010000000000
(1523990013.745557) slcan0 7EA#10166101FFE00000
(1523990013.746010) slcan0 7E2#3010000000000000
(1523990013.749505) slcan0 7EC#102D6105FFFFFFFF
(1523990013.749852) slcan0 7E4#3010000000000000
(1523990013.755242) slcan0 7EA#21092159AA05E902
(1523990013.765496) slcan0 7EC#2100000000000D0D
(1523990013.765518) slcan0 7EA#22000000003C7834
(1523990013.776908) slcan0 7EA#2304200000000000
(1523990013.776930) slcan0 7EC#220D0D0D0D0D2648
(1523990013.784436) slcan0 7EC#23264800014B0D0D
(1523990013.786866) slcan0 7E2#0221020000000000
(1523990013.795618) slcan0 7EC#2403E85003E8273F
(1523990013.795639) slcan0 7EA#10176102FF800000
(1523990013.804366) slcan0 7EC#2500290000000000
(1523990013.814501) slcan0 7EC#2600000000000000
(1523990013.814975) slcan0 7E2#3010000000000000
(1523990013.825206) slcan0 7EA#2101010000009414
(1523990013.835487) slcan0 7EA#22AC7CF739ED075F
(1523990013.836844) slcan0 7E5#0221010000000000
(1523990013.845399) slcan0 7EA#2386FA3900000000
(1523990013.851592) slcan0 7ED#102C6101FFFFF800
(1523990013.851971) slcan0 7E5#3010000000000000
(1523990013.861632) slcan0 7ED#2101029902930408
(1523990013.871647) slcan0 7ED#22001574003401BD
(1523990013.881670) slcan0 7ED#2305B04100000000
(1523990013.887107) slcan0 7E3#0221010000000000
(1523990013.892039) slcan0 7ED#2400260000600000
(1523990013.902186) slcan0 7EB#101E6101000003FF
(1523990013.902207) slcan0 7ED#25000001F4868103
(1523990013.902721) slcan0 7E3#3010000000000000
(1523990013.912547) slcan0 7EB#210C38004286DD39
(1523990013.912579) slcan0 7ED#262B000000000000
(1523990013.924736) slcan0 7EB#220000000A004D02
(1523990013.930674) slcan0 7EB#235904A839D0FF30
(1523990013.937088) slcan0 7D5#0221010000000000
(1523990013.944544) slcan0 7EB#2400000000000000
(1523990013.961926) slcan0 7DD#101A6101FB180000
(1523990013.962380) slcan0 7D5#3010000000000000
(1523990013.987327) slcan0 7E4#0221010000000000
(1523990014.002087) slcan0 7EC#103D6101FFFFFFFF
(1523990014.002109) slcan0 7DD#21BC0DFFF0FCFE02
(1523990014.002633) slcan0 7E4#3010000000000000
(1523990014.014284) slcan0 7EC#213E264826480300
(1523990014.024989) slcan0 7DD#22010201FFFFFFFF
(1523990014.025011) slcan0 7EC#220B0D6E0D0D0D0D
(1523990014.034427) slcan0 7EC#230D0D0D000DB302
(1523990014.036995) slcan0 7E4#0221050000000000
(1523990014.042056) slcan0 7DD#23000003C6000100
(1523990014.044883) slcan0 7EC#24B2270000910000
(1523990014.054493) slcan0 7EC#259D5600009DF800
(1523990014.064360) slcan0 7EC#260039E100003782
(1523990014.075605) slcan0 7EC#2700131FF90D0157
(1523990014.084752) slcan0 7EC#280000000003E800
(1523990014.086929) slcan0 7E2#0221010000000000
(1523990014.095594) slcan0 7EA#10166101FFE00000
(1523990014.096050) slcan0 7E2#3010000000000000
(1523990014.099547) slcan0 7EC#102D6105FFFFFFFF
(1523990014.099959) slcan0 7E4#3010000000000000
(1523990014.105511) slcan0 7EA#21092859AA05E402
(1523990014.115288) slcan0 7EC#2100000000000D0D
(1523990014.115303) slcan0 7EA#2200000000367834
(1523990014.125581) slcan0 7EC#220D0D0D0D0D2648
(1523990014.125603) slcan0 7EA#2304080000000000
(1523990014.134465) slcan0 7EC#2326480001550D0D
(1523990014.137137) slcan0 7E2#0221020000000000
(1523990014.145570) slcan0 7EC#2403E85003E8273F
(1523990014.145591) slcan0 7EA#10176102FF800000
(1523990014.154663) slcan0 7EC#2500290000000000
(1523990014.164590) slcan0 7EC#2600000000000000
(1523990014.165136) slcan0 7E2#3010000000000000
(1523990014.175554) slcan0 7EA#2101010000009413
(1523990014.185493) slcan0 7EA#22AC7CE6398B075F
(1523990014.186899) slcan0 7E5#0221010000000000
(1523990014.195253) slcan0 7EA#2386F83900000000
(1523990014.201945) slcan0 7ED#102C6101FFFFF800
(1523990014.202457) slcan0 7E5#3010000000000000
(1523990014.211821) slcan0 7ED#210102990294040B
(1523990014.224686) slcan0 7ED#22001574003401BD
(1523990014.231950) slcan0 7ED#2305AF4100000000
(1523990014.237260) slcan0 7E3#0221010000000000
(1523990014.244806) slcan0 7ED#2400260000600000
(1523990014.252359) slcan0 7EB#101E6101000003FF
(1523990014.252380) slcan0 7ED#25000001F4867E03
(1523990014.252825) slcan0 7E3#3010000000000000
(1523990014.261987) slcan0 7EB#210C38004986EB39
(1523990014.262010) slcan0 7ED#2637000000000000
(1523990014.271818) slcan0 7EB#220000000A004A02
(1523990014.280793) slcan0 7EB#235904C539000018
(1523990014.287175) slcan0 7D5#0221010000000000
(1523990014.291732) slcan0 7EB#2400E8FF00000000
(1523990014.312522) slcan0 7DD#101A6101FB180000
(1523990014.313062) slcan0 7D5#3010000000000000
(1523990014.337281) slcan0 7E4#0221010000000000
(1523990014.354794) slcan0 7DD#21BC0DFFF0FCFE02
(1523990014.354820) slcan0 7EC#103D6101FFFFFFFF
(1523990014.372540) slcan0 7DD#22010201FFFFFFFF
(1523990014.373043) slcan0 7E4#3010000000000000
(1523990014.384996) slcan0 7EC#213E264826480300
(1523990014.386953) slcan0 7E4#0221050000000000
(1523990014.394925) slcan0 7DD#23000003C6000100
(1523990014.394945) slcan0 7EC#22070D6E0D0D0D0D
(1523990014.404958) slcan0 7EC#230D0D0D000DB326
(1523990014.414976) slcan0 7EC#24B2270000920000
(1523990014.424743) slcan0 7EC#259D5600009DF800
(1523990014.435008) slcan0 7EC#260039E100003782
(1523990014.436952) slcan0 7E2#0221010000000000
(1523990014.445604) slcan0 7EC#2700131FF90D0157
(1523990014.445633) slcan0 7EA#10166101FFE00000
(1523990014.454782) slcan0 7EC#280000000003E800
(1523990014.455236) slcan0 7E2#3010000000000000
(1523990014.465544) slcan0 7EA#21092859A705E602
(1523990014.470046) slcan0 7EC#102D6105FFFFFFFF
(1523990014.470522) slcan0 7E4#3010000000000000
(1523990014.475947) slcan0 7EA#22000000003E7834
(1523990014.485582) slcan0 7EC#2100000000000D0D
(1523990014.485602) slcan0 7EA#2304080000000000
(1523990014.486873) slcan0 7E2#0221020000000000
(1523990014.495539) slcan0 7EC#220D0D0D0D0D2648
(1523990014.495559) slcan0 7EA#10176102FF800000
(1523990014.505037) slcan0 7EC#2326480001500D0D
(1523990014.505536) slcan0 7E2#3010000000000000
(1523990014.515135) slcan0 7EC#2403E85003E8273F
(1523990014.525578) slcan0 7EC#2500290000000000
(1523990014.525599) slcan0 7EA#2101010000009516
(1523990014.535464) slcan0 7EC#2600000000000000
(1523990014.535485) slcan0 7EA#22AC7C0B3A570863
(1523990014.537059) slcan0 7E5#0221010000000000
(1523990014.545570) slcan0 7EA#2386193A00000000
(1523990014.551125) slcan0 7ED#102C6101FFFFF800
(1523990014.587010) slcan0 7E3#0221010000000000
(1523990014.587368) slcan0 7E5#3010000000000000
(1523990014.602419) slcan0 7ED#2101029C0294040B
(1523990014.602440) slcan0 7EB#101E6101000003FF
(1523990014.611315) slcan0 7ED#22001574003401BD
(1523990014.611888) slcan0 7E3#3010000000000000
(1523990014.625191) slcan0 7EB#210C380051861A3A
(1523990014.625211) slcan0 7ED#2305AF4100000000
(1523990014.631588) slcan0 7ED#2400260000600000
(1523990014.631609) slcan0 7EB#220000000A004B02
(1523990014.637226) slcan0 7D5#0221010000000000
(1523990014.645278) slcan0 7EB#235804E339180049
(1523990014.645299) slcan0 7ED#25000001F4867E03
(1523990014.651629) slcan0 7ED#262A000000000000
(1523990014.651649) slcan0 7EB#24009FFF00000000
(1523990014.662260) slcan0 7DD#101A6101FB180000
(1523990014.687056) slcan0 7E4#0221010000000000
(1523990014.700258) slcan0 7EC#103D6101FFFFFFFF
(1523990014.737003) slcan0 7E4#0221050000000000
(1523990014.737340) slcan0 7D5#3010000000000000
(1523990014.737658) slcan0 7E4#3010000000000000
(1523990014.755015) slcan0 7EC#213E264826480300
(1523990014.765049) slcan0 7EC#22090D6E0D0D0D0D
(1523990014.772776) slcan0 7DD#21BC0DFFF0FCFE02
(1523990014.776632) slcan0 7EC#230D0D0D000DB321
(1523990014.785277) slcan0 7EC#24B2270000920000
(1523990014.786859) slcan0 7E2#0221010000000000
(1523990014.795727) slcan0 7DD#22010202FFFFFFFF
(1523990014.795748) slcan0 7EC#259D5600009DF800
(1523990014.795752) slcan0 7EA#10166101FFE00000
(1523990014.805340) slcan0 7EC#260039E100003782
(1523990014.815414) slcan0 7DD#23000003C6000100
(1523990014.815435) slcan0 7EC#2700131FFA0D0157
(1523990014.815931) slcan0 7E2#3010000000000000
(1523990014.825858) slcan0 7EC#280000000003E800
(1523990014.825893) slcan0 7EA#21092859AA05E602
(1523990014.835599) slcan0 7EA#22000000003B7834
(1523990014.836922) slcan0 7E2#0221020000000000
(1523990014.845602) slcan0 7EA#10176102FF800000
(1523990014.887306) slcan0 7E5#0221010000000000
(1523990014.901171) slcan0 7ED#102C6101FFFFF800
(1523990014.901696) slcan0 7E2#3010000000000000
(1523990014.902094) slcan0 7E5#3010000000000000
(1523990014.911411) slcan0 7ED#2101029A02920408
(1523990014.915615) slcan0 7EA#2101010000009517
(1523990014.925522) slcan0 7ED#22001574003401BD
(1523990014.925542) slcan0 7EA#22AC7C103AE50863
(1523990014.931122) slcan0 7ED#2305AF4100000000
(1523990014.935297) slcan0 7EA#23861A3A00000000
(1523990014.936853) slcan0 7E3#0221010000000000
(1523990014.945511) slcan0 7ED#2400260000600000
(1523990014.951702) slcan0 7ED#25000001F4867F03
(1523990014.951723) slcan0 7EB#101E6101000003FF
(1523990014.961078) slcan0 7ED#2628000000000000
(1523990014.961657) slcan0 7E3#3010000000000000
(1523990014.971508) slcan0 7EB#210C38005186143A
(1523990014.981436) slcan0 7EB#220000000A004B02
(1523990014.987309) slcan0 7D5#0221010000000000
(1523990014.991697) slcan0 7EB#235904D439E8FF00
(1523990015.001526) slcan0 7EB#2400180000000000
(1523990015.012760) slcan0 7DD#101A6101FB180000
(1523990015.013280) slcan0 7D5#3010000000000000
(1523990015.037038) slcan0 7E4#0221010000000000
(1523990015.052498) slcan0 7DD#21BC0DFFF0FCFE02
(1523990015.055317) slcan0 7EC#103D6101FFFFFFFF
(1523990015.055756) slcan0 7E4#3010000000000000
(1523990015.065411) slcan0 7EC#213E264826480300
(1523990015.072961) slcan0 7DD#22010201FFFFFFFF
(1523990015.075822) slcan0 7EC#22090D6E0D0D0D0D
(1523990015.085486) slcan0 7EC#230D0D0D000DB301
(1523990015.086851) slcan0 7E4#0221050000000000
(1523990015.092586) slcan0 7DD#23000003C6000100
(1523990015.095381) slcan0 7EC#24B2270000920000
(1523990015.105378) slcan0 7EC#259D5600009DF800
(1523990015.115396) slcan0 7EC#260039E100003782
(1523990015.125365) slcan0 7EC#2700131FFA0D0157
(1523990015.135457) slcan0 7EC#280000000003E800
(1523990015.150593) slcan0 7EC#102D6105FFFFFFFF
(1523990015.151459) slcan0 7E4#3010000000000000
(1523990015.165578) slcan0 7EC#2100000000000D0D
(1523990015.175820) slcan0 7EC#220D0D0D0D0D2648
(1523990015.185581) slcan0 7EC#2326480001500D0D
(1523990015.195580) slcan0 7EC#2403E85003E8273F
(1523990015.205585) slcan0 7EC#2500290000000000
(1523990015.215605) slcan0 7EC#2600000000000000
(1523990015.264001) slcan0 7E2#0221010000000000
(1523990015.264028) slcan0 7E2#0221020000000000
(1523990015.268891) slcan0 7E5#0221010000000000
(1523990015.275967) slcan0 7EA#10176102FF800000
(1523990015.276898) slcan0 7E2#3010000000000000
(1523990015.281229) slcan0 7ED#102C6101FFFFF800
(1523990015.281932) slcan0 7E5#3010000000000000
(1523990015.285561) slcan0 7EA#2101010000009414
(1523990015.286959) slcan0 7E3#0221010000000000
(1523990015.292176) slcan0 7ED#2101029C02940409
(1523990015.292180) slcan0 7EB#101E6101000003FF
(1523990015.295524) slcan0 7EA#22AC7C053A490863
(1523990015.296444) slcan0 7E3#3010000000000000
(1523990015.301762) slcan0 7ED#22001574003401BD
(1523990015.301766) slcan0 7EB#210C38004E86E439
(1523990015.305372) slcan0 7EA#2386023A00000000
(1523990015.313026) slcan0 7ED#2305AF4100000000
(1523990015.313030) slcan0 7EB#220000000A004A02
(1523990015.325115) slcan0 7EB#2357047B39180061
(1523990015.325120) slcan0 7ED#2400260000600000
(1523990015.331932) slcan0 7ED#25000001F4867D03
(1523990015.331936) slcan0 7EB#240086FF00000000
(1523990015.336827) slcan0 7D5#0221010000000000
(1523990015.345735) slcan0 7ED#263C000000000000
(1523990015.362889) slcan0 7DD#101A6101FB180000
(1523990015.388069) slcan0 7E4#0221010000000000
(1523990015.400975) slcan0 7EC#103D6101FFFFFFFF
(1523990015.437430) slcan0 7E4#0221050000000000
(1523990015.437529) slcan0 7D5#3010000000000000
(1523990015.438010) slcan0 7E4#3010000000000000
(1523990015.455885) slcan0 7EC#213E264826480300
(1523990015.465917) slcan0 7EC#22080D6E0D0D0D0D
(1523990015.473156) slcan0 7DD#21BC0DFFF0FCFE02
(1523990015.476020) slcan0 7EC#230D0D0D000DB302
(1523990015.485943) slcan0 7EC#24B2270000920000
(1523990015.487540) slcan0 7E2#0221010000000000
(1523990015.496822) slcan0 7DD#22010202FFFFFFFF
(1523990015.496826) slcan0 7EA#10166101FFE00000
(1523990015.496827) slcan0 7EC#259D5600009DF800
(1523990015.505970) slcan0 7EC#260039E100003782
(1523990015.507479) slcan0 7E2#3010000000000000
(1523990015.513149) slcan0 7DD#23000003C6000100
(1523990015.516201) slcan0 7EC#2700131FFA0D0157
(1523990015.526010) slcan0 7EA#21092459A705E602
(1523990015.526014) slcan0 7EC#280000000003E800
(1523990015.535568) slcan0 7EA#2200000000457814
(1523990015.537264) slcan0 7E2#0221020000000000
(1523990015.546915) slcan0 7EA#2304080000000000
(1523990015.555571) slcan0 7EA#10176102FF800000
(1523990015.587382) slcan0 7E5#0221010000000000
(1523990015.587485) slcan0 7E2#3010000000000000
(1523990015.595518) slcan0 7EA#2101010000009414
(1523990015.601257) slcan0 7ED#102C6101FFFFF800
(1523990015.602472) slcan0 7E5#3010000000000000
(1523990015.606000) slcan0 7EA#22AC7CE939750765
(1523990015.615571) slcan0 7EA#2386FB3900000000
(1523990015.624705) slcan0 7ED#21010295028F0405
(1523990015.631131) slcan0 7ED#22001574003401BD
(1523990015.637457) slcan0 7E3#0221010000000000
(1523990015.652245) slcan0 7ED#2305AF4100000000
(1523990015.652249) slcan0 7ED#2400260000600000
(1523990015.652250) slcan0 7EB#101E6101000003FF
(1523990015.661038) slcan0 7ED#25000001F4867F03
(1523990015.671803) slcan0 7ED#262E000000000000
(1523990015.672535) slcan0 7E3#3010000000000000
(1523990015.682157) slcan0 7EB#210C38004C86FF39
(1523990015.686994) slcan0 7D5#0221010000000000
(1523990015.692095) slcan0 7EB#220000000A004802
(1523990015.702264) slcan0 7EB#235A04C539B7FF30
(1523990015.713160) slcan0 7EB#2400180000000000
(1523990015.713165) slcan0 7DD#101A6101FB180000
(1523990015.737361) slcan0 7E4#0221010000000000
(1523990015.738071) slcan0 7D5#3010000000000000
(1523990015.756233) slcan0 7EC#103D6101FFFFFFFF
(1523990015.756498) slcan0 7E4#3010000000000000
(1523990015.766313) slcan0 7EC#213E264826480300
(1523990015.773288) slcan0 7DD#21BC0DFFF0FCFE02
(1523990015.778194) slcan0 7EC#22080D6E0D0D0D0D
(1523990015.786159) slcan0 7EC#230D0D0D000DB311
(1523990015.787046) slcan0 7E4#0221050000000000
(1523990015.793105) slcan0 7DD#22010202FFFFFFFF
(1523990015.796791) slcan0 7EC#24B2270000910000
(1523990015.806474) slcan0 7EC#259D5600009DF800
(1523990015.813156) slcan0 7DD#23000003C6000100
(1523990015.816536) slcan0 7EC#260039E100003782
(1523990015.826343) slcan0 7EC#2700131FFB0D0157
(1523990015.836314) slcan0 7EC#280000000003E800
(1523990015.836634) slcan0 7E2#0221010000000000
(1523990015.851319) slcan0 7EC#102D6105FFFFFFFF
(1523990015.852414) slcan0 7E4#3010000000000000
(1523990015.856056) slcan0 7EA#10166101FFE00000
(1523990015.857416) slcan0 7E2#3010000000000000
(1523990015.866707) slcan0 7EA#21092259A705E102
(1523990015.866711) slcan0 7EC#2100000000000D0D
(1523990015.876212) slcan0 7EA#22000000003E7834
(1523990015.876215) slcan0 7EC#220D0D0D0D0D2648
(1523990015.886406) slcan0 7EA#2304080000000000
(1523990015.886410) slcan0 7EC#2326480001500D0D
(1523990015.887685) slcan0 7E2#0221020000000000
(1523990015.896740) slcan0 7EA#10176102FF800000
(1523990015.896744) slcan0 7EC#2403E85003E8273F
(1523990015.906444) slcan0 7EC#2500290000000000
(1523990015.916394) slcan0 7EC#2600000000000000
(1523990015.916776) slcan0 7E2#3010000000000000
(1523990015.925574) slcan0 7EA#210101000000951A
(1523990015.935515) slcan0 7EA#22AC7C103A4A0A65
(1523990015.936782) slcan0 7E5#0221010000000000
(1523990015.951277) slcan0 7EA#23860F3A00000000
(1523990015.951280) slcan0 7ED#102C6101FFFFF800
(1523990015.987053) slcan0 7E3#0221010000000000
(1523990015.992490) slcan0 7EB#101E6101000003FF
(1523990015.992837) slcan0 7E5#3010000000000000
(1523990015.993288) slcan0 7E3#3010000000000000
(1523990016.002526) slcan0 7ED#2101029802920408
(1523990016.002529) slcan0 7EB#210C380050861A3A
(1523990016.012286) slcan0 7ED#22001574003401BD
(1523990016.012295) slcan0 7EB#220000000A004B02
(1523990016.024833) slcan0 7EB#235904D939E8FF30
(1523990016.024848) slcan0 7ED#2305AE4100000000
(1523990016.032623) slcan0 7ED#2400260000600000
(1523990016.032637) slcan0 7EB#2400E8FF00000000
(1523990016.037084) slcan0 7D5#0221010000000000
(1523990016.051047) slcan0 7ED#25000001F4867E03
(1523990016.051062) slcan0 7ED#2636000000000000
(1523990016.063266) slcan0 7DD#101A6101FB180000
(1523990016.087068) slcan0 7E4#0221010000000000
(1523990016.101421) slcan0 7EC#103D6101FFFFFFFF
(1523990016.137296) slcan0 7E4#0221050000000000
(1523990016.187210) slcan0 7E2#0221010000000000
(1523990016.187756) slcan0 7D5#3010000000000000
(1523990016.188047) slcan0 7E4#3010000000000000
(1523990016.195507) slcan0 7EA#10166101FFE00000
(1523990016.195950) slcan0 7E2#3010000000000000
(1523990016.205614) slcan0 7EA#21092259A705E402
(1523990016.215455) slcan0 7EA#2200000000347834
(1523990016.225482) slcan0 7DD#21BC0DFFF0FCFE02
(1523990016.225504) slcan0 7EA#2304080000000000
(1523990016.237027) slcan0 7E2#0221020000000000
(1523990016.243237) slcan0 7DD#22010202FFFFFFFF
(1523990016.255510) slcan0 7EA#10176102FF800000
(1523990016.255947) slcan0 7E2#3010000000000000
(1523990016.265598) slcan0 7DD#23000003C6000100
(1523990016.265618) slcan0 7EA#2101010000009418
(1523990016.275979) slcan0 7EA#22AC7C083ADB095F
(1523990016.285690) slcan0 7EA#2386033A00000000
(1523990016.286881) slcan0 7E5#0221010000000000
(1523990016.301088) slcan0 7ED#102C6101FFFFF800
(1523990016.301464) slcan0 7E5#3010000000000000
(1523990016.311537) slcan0 7ED#2101029702910407
(1523990016.322336) slcan0 7ED#22001574003401BD
(1523990016.331130) slcan0 7ED#2305AF4100000000
(1523990016.337250) slcan0 7E3#0221010000000000
(1523990016.352704) slcan0 7ED#2400260000600000
(1523990016.352719) slcan0 7ED#25000001F4867B03
(1523990016.352723) slcan0 7EB#101E6101000003FF
(1523990016.360984) slcan0 7ED#262B000000000000
(1523990016.387007) slcan0 7D5#0221010000000000
(1523990016.387484) slcan0 7E3#3010000000000000
(1523990016.392995) slcan0 7EB#210C38004D86FF39
(1523990016.402777) slcan0 7EB#220000000A004802
(1523990016.413667) slcan0 7EB#235904C039180049
(1523990016.413687) slcan0 7DD#101A6101FB180000
(1523990016.422745) slcan0 7EB#24009FFF00000000
(1523990016.423235) slcan0 7D5#3010000000000000
(1523990016.437006) slcan0 7E4#0221010000000000
(1523990016.456888) slcan0 7EC#103D6101FFFFFFFF
(1523990016.457387) slcan0 7E4#3010000000000000
(1523990016.463617) slcan0 7DD#21BC0DFFF0FCFE02
(1523990016.471767) slcan0 7EC#213E264826480300
(1523990016.483606) slcan0 7EC#220B0D6E0D0D0D0D
(1523990016.483627) slcan0 7DD#22010202FFFFFFFF
(1523990016.487212) slcan0 7E4#0221050000000000
(1523990016.491885) slcan0 7EC#230D0D0D000DB315
(1523990016.503506) slcan0 7EC#24B2270000910000
(1523990016.503530) slcan0 7DD#23000003C6000100
(1523990016.512313) slcan0 7EC#259D5600009DF800
(1523990016.522626) slcan0 7EC#260039E100003782
(1523990016.532013) slcan0 7EC#2700131FFB0D0157
(1523990016.537317) slcan0 7E2#0221010000000000
(1523990016.549190) slcan0 7EC#280000000003E800
(1523990016.555849) slcan0 7EA#10166101FFE00000
(1523990016.556154) slcan0 7E2#3010000000000000
(1523990016.562140) slcan0 7EC#102D6105FFFFFFFF
(1523990016.562336) slcan0 7E4#3010000000000000
(1523990016.565800) slcan0 7EA#21092259AA05E402
(1523990016.576930) slcan0 7EA#2200000000357834
(1523990016.576943) slcan0 7EC#2100000000000D0D
(1523990016.585719) slcan0 7EA#2304080000000000
(1523990016.586952) slcan0 7E2#0221020000000000
(1523990016.590173) slcan0 7EC#220D0D0D0D0D2648
(1523990016.597138) slcan0 7EA#10176102FF800000
(1523990016.597159) slcan0 7EC#2326480001500D0D
(1523990016.597694) slcan0 7E2#3010000000000000
(1523990016.607152) slcan0 7EA#2101010000009417
(1523990016.607173) slcan0 7EC#2403E85003E8273F
(1523990016.617212) slcan0 7EA#22AC7CE639A0085A
(1523990016.617232) slcan0 7EC#2500310000000000
(1523990016.627228) slcan0 7EA#2386EE3900000000
(1523990016.627248) slcan0 7EC#2600000000000000
(1523990016.637119) slcan0 7E5#0221010000000000
(1523990016.651090) slcan0 7ED#102C6101FFFFF800
(1523990016.687014) slcan0 7E3#0221010000000000
(1523990016.693074) slcan0 7EB#101E6101000003FF
(1523990016.693495) slcan0 7E5#3010000000000000
(1523990016.693864) slcan0 7E3#3010000000000000
(1523990016.703118) slcan0 7ED#2101029702910408
(1523990016.703138) slcan0 7EB#210C38004C86D739
(1523990016.711467) slcan0 7ED#22001574003401BD
(1523990016.715172) slcan0 7EB#220000000A004802
(1523990016.723004) slcan0 7ED#2305AE4100000000
(1523990016.723025) slcan0 7EB#235804B739300030
(1523990016.732989) slcan0 7ED#2400260000600000
(1523990016.733008) slcan0 7EB#24009FFF00000000
(1523990016.737182) slcan0 7D5#0221010000000000
(1523990016.751276) slcan0 7ED#25000001F4867903
(1523990016.751297) slcan0 7ED#2629000000000000
(1523990016.763765) slcan0 7DD#101A6101FB180000
(1523990016.787228) slcan0 7E4#0221010000000000
(1523990016.798470) slcan0 7EC#103D6101FFFFFFFF
(1523990016.837267) slcan0 7E4#0221050000000000
(1523990016.837743) slcan0 7D5#3010000000000000
(1523990016.838226) slcan0 7E4#3010000000000000
(1523990016.858156) slcan0 7EC#213E264826480300
(1523990016.869018) slcan0 7EC#22090D6E0D0D0D0D
(1523990016.874008) slcan0 7DD#21BC0DFFF0FCFE02
(1523990016.878327) slcan0 7EC#230D0D0D000DB30D
(1523990016.887118) slcan0 7E2#0221010000000000
(1523990016.890382) slcan0 7EC#24B2270000910000
(1523990016.895540) slcan0 7DD#22010202FFFFFFFF
(1523990016.895560) slcan0 7EA#10166101FFE00000
(1523990016.898546) slcan0 7EC#259D5600009DF800
(1523990016.898982) slcan0 7E2#3010000000000000
(1523990016.905661) slcan0 7EA#21092259AC05E602
(1523990016.908864) slcan0 7EC#260039E100003782
(1523990016.918461) slcan0 7DD#23000003C6000100
(1523990016.918482) slcan0 7EA#22000000003A7834
(1523990016.918487) slcan0 7EC#2700131FFC0D0157
(1523990016.925607) slcan0 7EA#2304080000000000
(1523990016.928767) slcan0 7EC#280000000003E800
(1523990016.936898) slcan0 7E2#0221020000000000
(1523990016.955546) slcan0 7EA#10176102FF800000
(1523990016.987040) slcan0 7E5#0221010000000000
(1523990016.987430) slcan0 7E2#3010000000000000
(1523990016.995711) slcan0 7EA#2101010000009519
(1523990017.001361) slcan0 7ED#102C6101FFFFF800
(1523990017.001954) slcan0 7E5#3010000000000000
(1523990017.005424) slcan0 7EA#22AC7CF739770961
(1523990017.011098) slcan0 7ED#2101029702910407
(1523990017.015442) slcan0 7EA#2386023A00000000
(1523990017.022308) slcan0 7ED#22001574003401BD
(1523990017.031067) slcan0 7ED#2305AE4100000000
(1523990017.036972) slcan0 7E3#0221010000000000
(1523990017.050971) slcan0 7ED#2400260000600000
(1523990017.050999) slcan0 7ED#25000001F4867A03
(1523990017.055025) slcan0 7EB#101E6101000003FF
(1523990017.060948) slcan0 7ED#2620000000000000
(1523990017.061420) slcan0 7E3#3010000000000000
(1523990017.076517) slcan0 7EB#210C38005086F239
(1523990017.085051) slcan0 7EB#220000000A004802
(1523990017.087004) slcan0 7D5#0221010000000000
(1523990017.095059) slcan0 7EB#235804C039000018
(1523990017.105085) slcan0 7EB#2400E8FF00000000
(1523990017.113667) slcan0 7DD#101A6101FB180000
(1523990017.114075) slcan0 7D5#3010000000000000
(1523990017.137301) slcan0 7E4#0221010000000000
(1523990017.153824) slcan0 7DD#21BC0DFFF0FCFE02
(1523990017.158480) slcan0 7EC#103D6101FFFFFFFF
(1523990017.158981) slcan0 7E4#3010000000000000
(1523990017.174218) slcan0 7EC#213E264826480300
(1523990017.174237) slcan0 7DD#22010202FFFFFFFF
(1523990017.182639) slcan0 7EC#22090D6E0D0D0D0D
(1523990017.187024) slcan0 7E4#0221050000000000
(1523990017.193970) slcan0 7EC#230D0D0D000DB326
