Time Stamp,ID,Extended,Dir,Bus,LEN,D1,D2,D3,D4,D5,D6,D7,D8
90563168,000003F6,false,Rx,0,8,18,00,00,00,00,00,00,00,
90564433,00000491,false,Rx,0,8,5B,00,00,00,00,00,00,0A,
90583089,00000493,false,Rx,0,8,00,0C,00,55,00,00,54,06,
90583623,00000497,false,Rx,0,8,22,B4,00,00,00,00,00,00,
90583894,00000498,false,Rx,0,8,00,00,00,00,00,00,00,00,
90584163,000004DD,false,Rx,0,8,00,00,00,00,00,00,01,00,
90584422,000004DE,false,Rx,0,8,00,7F,7F,0A,7F,C4,1E,00,
90584672,000004E2,false,Rx,0,8,3E,03,CA,03,00,00,C1,9E,
90584931,00000542,false,Rx,0,8,41,18,00,A0,00,00,FF,FF,
90585175,00000594,false,Rx,0,8,50,14,24,13,A0,45,23,20,
90585426,00000595,false,Rx,0,8,1E,00,B4,B5,00,00,74,0C,
90585685,00000596,false,Rx,0,8,15,80,00,00,5B,00,17,18,
90585943,00000597,false,Rx,0,8,01,E6,00,00,00,00,00,00,
90586203,00000598,false,Rx,0,8,00,00,00,00,30,13,7F,7F,
90586463,00000599,false,Rx,0,8,08,00,00,00,00,00,00,00,
90586745,0000059C,false,Rx,0,8,00,00,00,00,00,00,00,00,
90587003,0000059E,false,Rx,0,8,00,00,00,00,74,0C,00,00,
90587242,000005A3,false,Rx,0,8,0F,00,00,00,9D,39,9D,39,
90587646,000005D5,false,Rx,0,8,00,00,00,A4,C8,C8,00,0A,
90594062,000005D6,false,Rx,0,8,B4,B5,00,00,17,18,A9,CC,
90594316,000005D7,false,Rx,0,8,02,00,00,00,00,00,00,00,
90594576,000005D8,false,Rx,0,8,80,41,0A,00,E6,00,74,0C,
90663696,00000491,false,Rx,0,8,5B,00,00,00,00,00,00,0A,
90663952,00000493,false,Rx,0,8,00,0C,00,55,00,00,54,06,
90664221,000004DD,false,Rx,0,8,00,00,00,00,00,00,01,00,
90666024,000004DE,false,Rx,0,8,00,7F,7F,0A,7F,C4,1E,00,
90666273,000004E2,false,Rx,0,8,3E,03,CA,03,00,00,C1,9E,
90666533,00000542,false,Rx,0,8,41,18,00,A0,00,00,FF,FF,
90666781,00000594,false,Rx,0,8,50,14,24,13,A0,45,23,20,
90667031,00000595,false,Rx,0,8,1E,00,B4,B5,00,00,74,0C,
90667290,00000596,false,Rx,0,8,21,80,00,00,5B,00,17,18,
90667550,00000597,false,Rx,0,8,81,E6,00,00,00,00,00,00,
90667808,00000598,false,Rx,0,8,00,00,00,00,30,13,7F,7F,
90668077,00000599,false,Rx,0,8,08,00,00,00,00,00,00,00,
90668347,0000059C,false,Rx,0,8,00,00,00,00,00,00,00,00,
90668607,0000059E,false,Rx,0,8,00,00,00,00,74,0C,00,00,
90668856,000005A3,false,Rx,0,8,0F,00,00,00,9D,39,9D,39,
90669104,000005D5,false,Rx,0,8,00,00,00,A4,C8,C8,00,0A,
90669354,000005D6,false,Rx,0,8,B4,B5,00,00,17,18,A9,CC,
90669615,000005D7,false,Rx,0,8,02,00,00,00,00,00,00,00,
90669864,000005D8,false,Rx,0,8,80,41,0A,00,E6,00,74,0C,
90753136,00000594,false,Rx,0,8,50,14,24,13,A0,45,23,20,
90753391,00000491,false,Rx,0,8,5B,00,00,00,00,00,00,0A,
90753652,00000493,false,Rx,0,8,00,0C,00,55,00,00,54,06,
90753911,000004DD,false,Rx,0,8,00,00,00,00,00,00,01,00,
90754170,000004DE,false,Rx,0,8,00,7F,7F,0A,7F,C4,1E,00,
90754431,000004E2,false,Rx,0,8,3E,03,CA,03,00,00,C1,9E,
90754690,00000542,false,Rx,0,8,41,18,00,A0,00,00,FF,FF,
90754938,00000595,false,Rx,0,8,1E,00,B4,B5,00,00,74,0C,
90755197,00000596,false,Rx,0,8,22,80,00,00,5B,00,17,18,
90755457,00000597,false,Rx,0,8,01,E6,00,00,00,00,00,00,
90755715,00000598,false,Rx,0,8,00,00,00,00,30,13,7F,7F,
90755975,00000599,false,Rx,0,8,08,00,00,00,00,00,00,00,
90756244,0000059C,false,Rx,0,8,00,00,00,00,00,00,00,00,
90756514,0000059E,false,Rx,0,8,00,00,00,00,74,0C,00,00,
90756754,000005A3,false,Rx,0,8,0F,00,00,00,9D,39,9D,39,
90757013,000005D5,false,Rx,0,8,00,00,00,A4,C8,C8,00,0A,
90757262,000005D6,false,Rx,0,8,B4,B5,00,00,17,18,21,31,
90757524,000005D7,false,Rx,0,8,02,00,00,00,00,00,00,00,
90757772,000005D8,false,Rx,0,8,80,41,0A,00,E6,00,74,0C,
90853144,00000594,false,Rx,0,8,50,14,24,13,A0,45,23,20,
90853400,00000491,false,Rx,0,8,5B,00,00,00,00,00,00,0A,
90853660,00000493,false,Rx,0,8,00,0C,00,55,00,00,54,06,
90853919,000004DD,false,Rx,0,8,00,00,00,00,00,00,01,00,
90854178,000004DE,false,Rx,0,8,00,7F,7F,0A,7F,C4,1E,00,
90854439,000004E2,false,Rx,0,8,3E,03,CA,03,00,00,C1,9E,
90854697,00000542,false,Rx,0,8,41,18,00,A0,00,00,FF,FF,
90854946,00000595,false,Rx,0,8,1E,00,B4,B5,00,00,74,0C,
90855204,00000596,false,Rx,0,8,25,80,00,00,5B,00,17,18,
90855454,00000597,false,Rx,0,8,81,E6,00,00,00,00,00,00,
90855723,00000598,false,Rx,0,8,00,00,00,00,30,13,7F,7F,
90855983,00000599,false,Rx,0,8,08,00,00,00,00,00,00,00,
90856252,0000059C,false,Rx,0,8,00,00,00,00,00,00,00,00,
90856513,0000059E,false,Rx,0,8,00,00,00,00,74,0C,00,00,
90856761,000005A3,false,Rx,0,8,0F,00,00,00,9D,39,9D,39,
90857020,000005D5,false,Rx,0,8,00,00,00,A4,C8,C8,00,0A,
90857259,000005D6,false,Rx,0,8,B4,B5,00,00,17,18,21,31,
90857520,000005D7,false,Rx,0,8,02,00,00,00,00,00,00,00,
90857779,000005D8,false,Rx,0,8,80,41,0A,00,E6,00,74,0C,
90953141,00000594,false,Rx,0,8,50,14,24,13,A0,45,23,20,
90953397,00000491,false,Rx,0,8,5B,00,00,00,00,00,00,0A,
90953657,00000493,false,Rx,0,8,00,0C,00,55,00,00,54,06,
90953926,000004DD,false,Rx,0,8,00,00,00,00,00,00,01,00,
90954175,000004DE,false,Rx,0,8,00,7F,7F,0A,7F,C4,1E,00,
90954435,000004E2,false,Rx,0,8,3E,03,CA,03,00,00,C1,9E,
90954694,00000542,false,Rx,0,8,41,18,00,A0,00,00,FF,FF,
90954943,00000595,false,Rx,0,8,1E,00,B4,B5,00,00,74,0C,
90955200,00000596,false,Rx,0,8,2D,80,00,00,5B,00,17,18,
90955460,00000597,false,Rx,0,8,01,E6,00,00,00,00,00,00,
90955720,00000598,false,Rx,0,8,00,00,00,00,30,13,7F,7F,
90955989,00000599,false,Rx,0,8,08,00,00,00,00,00,00,00,
90956258,0000059C,false,Rx,0,8,00,00,00,00,00,00,00,00,
90956519,0000059E,false,Rx,0,8,00,00,00,00,74,0C,00,00,
90956768,000005A3,false,Rx,0,8,0F,00,00,00,9D,39,9D,39,
90957016,000005D5,false,Rx,0,8,00,00,00,A4,C8,C8,00,0A,
90957267,000005D6,false,Rx,0,8,B4,B5,00,00,17,18,25,CC,
90957527,000005D7,false,Rx,0,8,02,00,00,00,00,00,00,00,
90957785,000005D8,false,Rx,0,8,80,41,0A,00,E6,00,74,0C,
91053148,00000594,false,Rx,0,8,50,14,24,13,A0,45,23,20,
91053403,00000491,false,Rx,0,8,5B,00,00,00,00,00,00,0A,
91053662,00000493,false,Rx,0,8,00,0C,00,55,00,00,54,06,
91053922,000004DD,false,Rx,0,8,00,00,00,00,00,00,01,00,
91054181,000004DE,false,Rx,0,8,00,7F,7F,0A,7F,C4,1E,00,
91054441,000004E2,false,Rx,0,8,3E,03,CA,03,00,00,C1,9E,
91054701,00000542,false,Rx,0,8,41,18,00,A0,00,00,FF,FF,
91054949,00000595,false,Rx,0,8,1E,00,B4,B5,00,00,74,0C,
91055219,00000596,false,Rx,0,8,38,80,00,00,5B,00,17,18,
91055460,00000597,false,Rx,0,8,81,E6,00,00,00,00,00,00,
91055719,00000598,false,Rx,0,8,00,00,00,00,30,13,7F,7F,
91055988,00000599,false,Rx,0,8,08,00,00,00,00,00,00,00,
91056258,0000059C,false,Rx,0,8,00,00,00,00,00,00,00,00,
91056518,0000059E,false,Rx,0,8,00,00,00,00,74,0C,00,00,
91056766,000005A3,false,Rx,0,8,0F,00,00,00,9D,39,9D,39,
91057016,000005D5,false,Rx,0,8,00,00,00,A4,C8,C8,00,0A,
91057265,000005D6,false,Rx,0,8,B4,B5,00,00,17,18,25,CC,
91057525,000005D7,false,Rx,0,8,02,00,00,00,00,00,00,00,
91057785,000005D8,false,Rx,0,8,80,41,0A,00,E6,00,74,0C,
91153147,00000594,false,Rx,0,8,50,14,24,13,A0,45,23,20,
91153403,00000491,false,Rx,0,8,5B,00,00,00,00,00,00,0A,
91153662,00000493,false,Rx,0,8,00,0C,00,55,00,00,54,06,
91153922,000004DD,false,Rx,0,8,00,00,00,00,00,00,01,00,
91154181,000004DE,false,Rx,0,8,00,7F,7F,0A,7F,C4,1E,00,
91154440,000004E2,false,Rx,0,8,3E,03,CA,03,00,00,C1,9E,
91154690,00000542,false,Rx,0,8,41,18,00,A0,00,00,FF,FF,
91154949,00000595,false,Rx,0,8,1E,00,B4,B5,00,00,74,0C,
91155216,00000596,false,Rx,0,8,3A,80,00,00,5B,00,17,18,
91155457,00000597,false,Rx,0,8,01,E6,00,00,00,00,00,00,
91155716,00000598,false,Rx,0,8,00,00,00,00,30,13,7F,7F,
91155985,00000599,false,Rx,0,8,08,00,00,00,00,00,00,00,
91156255,0000059C,false,Rx,0,8,00,00,00,00,00,00,00,00,
91156515,0000059E,false,Rx,0,8,00,00,00,00,74,0C,00,00,
91156763,000005A3,false,Rx,0,8,0F,00,00,00,9D,39,9D,39,
91157013,000005D5,false,Rx,0,8,00,00,00,A4,C8,C8,00,0A,
91157262,000005D6,false,Rx,0,8,B4,B5,00,00,17,18,38,31,
91157532,000005D7,false,Rx,0,8,02,00,00,00,00,00,00,00,
91157782,000005D8,false,Rx,0,8,80,41,0A,00,E6,00,74,0C,
91253141,00000594,false,Rx,0,8,50,14,24,13,A0,45,23,20,
91253407,00000491,false,Rx,0,8,5B,00,00,00,00,00,00,0A,
91253657,00000493,false,Rx,0,8,00,0C,00,55,00,00,54,06,
91253926,000004DD,false,Rx,0,8,00,00,00,00,00,00,01,00,
91254185,000004DE,false,Rx,0,8,00,7F,7F,0A,7F,C4,1E,00,
91254436,000004E2,false,Rx,0,8,3E,03,CA,03,00,00,C1,9E,
91254694,00000542,false,Rx,0,8,41,18,00,A0,00,00,FF,FF,
91254943,00000595,false,Rx,0,8,1E,00,B4,B5,00,00,74,0C,
91255201,00000596,false,Rx,0,8,3B,80,00,00,5B,00,17,18,
91255461,00000597,false,Rx,0,8,81,E6,00,00,00,00,00,00,
91255720,00000598,false,Rx,0,8,00,00,00,00,30,13,7F,7F,
91255990,00000599,false,Rx,0,8,08,00,00,00,00,00,00,00,
91256249,0000059C,false,Rx,0,8,00,00,00,00,00,00,00,00,
91256519,0000059E,false,Rx,0,8,00,00,00,00,74,0C,00,00,
91256768,000005A3,false,Rx,0,8,0F,00,00,00,9D,39,9D,39,
91257017,000005D5,false,Rx,0,8,00,00,00,A4,C8,C8,00,0A,
91257266,000005D6,false,Rx,0,8,B4,B5,00,00,17,18,38,31,
91257527,000005D7,false,Rx,0,8,02,00,00,00,00,00,00,00,
91257785,000005D8,false,Rx,0,8,80,41,0A,00,E6,00,74,0C,
91353150,00000594,false,Rx,0,8,50,14,24,13,A0,45,23,20,
91353406,00000491,false,Rx,0,8,5B,00,00,00,00,00,00,0A,
91353665,00000493,false,Rx,0,8,00,0C,00,55,00,00,54,06,
91353924,000004DD,false,Rx,0,8,00,00,00,00,00,00,01,00,
91354184,000004DE,false,Rx,0,8,00,7F,7F,0A,7F,C4,1E,00,
91354444,000004E2,false,Rx,0,8,3E,03,CA,03,00,00,C1,9E,
91354703,00000542,false,Rx,0,8,41,18,00,A0,00,00,FF,FF,
91354952,00000595,false,Rx,0,8,1E,00,B4,B5,00,00,74,0C,
91355211,00000596,false,Rx,0,8,76,80,00,00,5B,00,17,18,
91355460,00000597,false,Rx,0,8,01,E6,00,00,00,00,00,00,
91355720,00000598,false,Rx,0,8,00,00,00,00,30,13,7F,7F,
91355989,00000599,false,Rx,0,8,08,00,00,00,00,00,00,00,
91356258,0000059C,false,Rx,0,8,00,00,00,00,00,00,00,00,
91356519,0000059E,false,Rx,0,8,00,00,00,00,74,0C,00,00,
91356768,000005A3,false,Rx,0,8,0F,00,00,00,9D,39,9D,39,
91357016,000005D5,false,Rx,0,8,00,00,00,A4,C8,C8,00,0A,
91357266,000005D6,false,Rx,0,8,B4,B5,00,00,17,18,3B,CC,
91357526,000005D7,false,Rx,0,8,02,00,00,00,00,00,00,00,
91357785,000005D8,false,Rx,0,8,80,41,0A,00,E6,00,74,0C,
91453157,00000594,false,Rx,0,8,50,14,24,13,A0,45,23,20,
91453414,000003F6,false,Rx,0,8,18,00,00,00,00,00,00,00,
91453673,00000491,false,Rx,0,8,5B,00,00,00,00,00,00,0A,
91453932,00000493,false,Rx,0,8,00,0C,00,55,00,00,54,06,
91454192,00000497,false,Rx,0,8,11,B4,00,00,00,00,00,00,
91454462,00000498,false,Rx,0,8,00,00,00,00,00,00,00,00,
91454720,000004DD,false,Rx,0,8,00,00,00,00,00,00,01,00,
91454980,000004DE,false,Rx,0,8,00,7F,7F,0A,7F,C4,1E,00,
91455238,000004E2,false,Rx,0,8,3E,03,CA,03,00,00,C1,9E,
91455498,00000542,false,Rx,0,8,41,18,00,A0,00,00,FF,FF,
91455747,00000595,false,Rx,0,8,1E,00,B4,B5,00,00,74,0C,
91455996,00000596,false,Rx,0,8,77,80,00,00,5B,00,17,18,
91456254,00000597,false,Rx,0,8,81,E6,00,00,00,00,00,00,
91456516,00000598,false,Rx,0,8,00,00,00,00,30,13,7F,7F,
91456785,00000599,false,Rx,0,8,08,00,00,00,00,00,00,00,
91457054,0000059C,false,Rx,0,8,00,00,00,00,00,00,00,00,
91457314,0000059E,false,Rx,0,8,00,00,00,00,74,0C,00,00,
91457564,000005A3,false,Rx,0,8,0F,00,00,00,9D,39,9D,39,
91457812,000005D5,false,Rx,0,8,00,00,00,A4,C8,C8,00,0A,
91458062,000005D6,false,Rx,0,8,B4,B5,00,00,17,18,3B,CC,
91458321,000005D7,false,Rx,0,8,02,00,00,00,00,00,00,00,
91458581,000005D8,false,Rx,0,8,80,41,0A,00,E6,00,74,0C,
91553158,00000594,false,Rx,0,8,50,14,24,13,A0,45,23,20,
91553413,00000491,false,Rx,0,8,5B,00,00,00,00,00,00,0A,
91553672,00000493,false,Rx,0,8,00,0C,00,55,00,00,54,06,
91553932,000004DD,false,Rx,0,8,00,00,00,00,00,00,01,00,
91554190,000004DE,false,Rx,0,8,00,7F,7F,0A,7F,C4,1E,00,
91554450,000004E2,false,Rx,0,8,3E,03,CA,03,00,00,C1,9E,
91554710,00000542,false,Rx,0,8,41,18,00,A0,00,00,FF,FF,
91554959,00000595,false,Rx,0,8,1E,00,B4,B5,00,00,74,0C,
91555226,00000596,false,Rx,0,8,79,80,00,00,5B,00,17,18,
91555467,00000597,false,Rx,0,8,01,E6,00,00,00,00,00,00,
91555726,00000598,false,Rx,0,8,00,00,00,00,30,13,7F,7F,
91555995,00000599,false,Rx,0,8,08,00,00,00,00,00,00,00,
91556265,0000059C,false,Rx,0,8,00,00,00,00,00,00,00,00,
91556525,0000059E,false,Rx,0,8,00,00,00,00,74,0C,00,00,
91556773,000005A3,false,Rx,0,8,0F,00,00,00,9D,39,9D,39,
91557023,000005D5,false,Rx,0,8,00,00,00,A4,C8,C8,00,0A,
91557272,000005D6,false,Rx,0,8,B4,B5,00,00,17,18,77,31,
91557532,000005D7,false,Rx,0,8,02,00,00,00,00,00,00,00,
91557792,000005D8,false,Rx,0,8,80,41,0A,00,E6,00,74,0C,
91653155,00000594,false,Rx,0,8,50,14,24,13,A0,45,23,20,
91653421,00000491,false,Rx,0,8,5B,00,00,00,00,00,00,0A,
91653670,00000493,false,Rx,0,8,00,0C,00,55,00,00,54,06,
91653940,000004DD,false,Rx,0,8,00,00,00,00,00,00,01,00,
91654199,000004DE,false,Rx,0,8,00,7F,7F,0A,7F,C4,1E,00,
91654449,000004E2,false,Rx,0,8,3E,03,CA,03,00,00,C1,9E,
91654708,00000542,false,Rx,0,8,41,18,00,A0,00,00,FF,FF,
91654957,00000595,false,Rx,0,8,1E,00,B4,B5,00,00,74,0C,
91655225,00000596,false,Rx,0,8,7A,80,00,00,5B,00,17,18,
91655475,00000597,false,Rx,0,8,81,E6,00,00,00,00,00,00,
91655734,00000598,false,Rx,0,8,00,00,00,00,30,13,7F,7F,
91655994,00000599,false,Rx,0,8,08,00,00,00,00,00,00,00,
91656263,0000059C,false,Rx,0,8,00,00,00,00,00,00,00,00,
91656523,0000059E,false,Rx,0,8,00,00,00,00,74,0C,00,00,
91656772,000005A3,false,Rx,0,8,0F,00,00,00,9D,39,9D,39,
91657031,000005D5,false,Rx,0,8,00,00,00,A4,C8,C8,00,0A,
91657280,000005D6,false,Rx,0,8,B4,B5,00,00,17,18,77,31,
91657541,000005D7,false,Rx,0,8,02,00,00,00,00,00,00,00,
91657790,000005D8,false,Rx,0,8,80,41,0A,00,E6,00,74,0C,
91753152,00000594,false,Rx,0,8,50,14,24,13,A0,45,23,20,
91753418,00000491,false,Rx,0,8,5B,00,00,00,00,00,00,0A,
91753667,00000493,false,Rx,0,8,00,0C,00,55,00,00,54,06,
91753936,000004DD,false,Rx,0,8,00,00,00,00,00,00,01,00,
91754195,000004DE,false,Rx,0,8,00,7F,7F,0A,7F,C4,1E,00,
91754446,000004E2,false,Rx,0,8,3E,03,CA,03,00,00,C1,9E,
91754705,00000542,false,Rx,0,8,41,18,00,A0,00,00,FF,FF,
91754953,00000595,false,Rx,0,8,1E,00,B4,B5,00,00,74,0C,
91755212,00000596,false,Rx,0,8,7C,80,00,00,5B,00,17,18,
91755472,00000597,false,Rx,0,8,01,E6,00,00,00,00,00,00,
91755730,00000598,false,Rx,0,8,00,00,00,00,30,13,7F,7F,
91756000,00000599,false,Rx,0,8,08,00,00,00,00,00,00,00,
91756270,0000059C,false,Rx,0,8,00,00,00,00,00,00,00,00,
91756529,0000059E,false,Rx,0,8,00,00,00,00,74,0C,00,00,
91756779,000005A3,false,Rx,0,8,0F,00,00,00,9D,39,9D,39,
91757028,000005D5,false,Rx,0,8,00,00,00,A4,C8,C8,00,0A,
91757277,000005D6,false,Rx,0,8,B4,B5,00,00,17,18,7A,CC,
91757538,000005D7,false,Rx,0,8,02,00,00,00,00,00,00,00,
91757786,000005D8,false,Rx,0,8,80,41,0A,00,E6,00,74,0C,
91853160,00000594,false,Rx,0,8,50,14,24,13,A0,45,23,20,
91853417,00000491,false,Rx,0,8,5B,00,00,00,00,00,00,0A,
91853676,00000493,false,Rx,0,8,00,0C,00,55,00,00,54,06,
91853935,000004DD,false,Rx,0,8,00,00,00,00,00,00,01,00,
91854194,000004DE,false,Rx,0,8,00,7F,7F,0A,7F,C4,1E,00,
91854454,000004E2,false,Rx,0,8,3E,03,CA,03,00,00,C1,9E,
91854713,00000542,false,Rx,0,8,41,18,00,A0,00,00,FF,FF,
91854963,00000595,false,Rx,0,8,1E,00,B4,B5,00,00,74,0C,
91855220,00000596,false,Rx,0,8,83,80,00,00,5B,00,17,18,
91855470,00000597,false,Rx,0,8,81,E6,00,00,00,00,00,00,
91855730,00000598,false,Rx,0,8,00,00,00,00,30,13,7F,7F,
91855999,00000599,false,Rx,0,8,08,00,00,00,00,00,00,00,
91856268,0000059C,false,Rx,0,8,00,00,00,00,00,00,00,00,
91856529,0000059E,false,Rx,0,8,00,00,00,00,74,0C,00,00,
91856777,000005A3,false,Rx,0,8,0F,00,00,00,9D,39,9D,39,
91857036,000005D5,false,Rx,0,8,00,00,00,A4,C8,C8,00,0A,
91857276,000005D6,false,Rx,0,8,B4,B5,00,00,17,18,7A,CC,
91857536,000005D7,false,Rx,0,8,02,00,00,00,00,00,00,00,
91857795,000005D8,false,Rx,0,8,80,41,0A,00,E6,00,74,0C,
91953157,00000594,false,Rx,0,8,50,14,24,13,A0,45,23,20,
91953424,00000491,false,Rx,0,8,5B,00,00,00,00,00,00,0A,
91953672,00000493,false,Rx,0,8,00,0C,00,55,00,00,54,06,
91953941,000004DD,false,Rx,0,8,00,00,00,00,00,00,01,00,
91954201,000004DE,false,Rx,0,8,00,7F,7F,0A,7F,C4,1E,00,
91954451,000004E2,false,Rx,0,8,3E,03,CA,03,00,00,C1,9E,
91954709,00000542,false,Rx,0,8,41,18,00,A0,00,00,FF,FF,
91954959,00000595,false,Rx,0,8,1E,00,B4,B5,00,00,74,0C,
91955216,00000596,false,Rx,0,8,90,80,00,00,5B,00,17,18,
91955476,00000597,false,Rx,0,8,01,E6,00,00,00,00,00,00,
91955736,00000598,false,Rx,0,8,00,00,00,00,30,13,7F,7F,
91955995,00000599,false,Rx,0,8,08,00,00,00,00,00,00,00,
91956264,0000059C,false,Rx,0,8,00,00,00,00,00,00,00,00,
91956525,0000059E,false,Rx,0,8,00,00,00,00,74,0C,00,00,
91956773,000005A3,false,Rx,0,8,0F,00,00,00,9D,39,9D,39,
91957032,000005D5,false,Rx,0,8,00,00,00,A4,C8,C8,00,0A,
91957282,000005D6,false,Rx,0,8,B4,B5,00,00,17,18,83,31,
91957543,000005D7,false,Rx,0,8,02,00,00,00,00,00,00,00,
91957791,000005D8,false,Rx,0,8,80,41,0A,00,E6,00,74,0C,
92053163,00000594,false,Rx,0,8,50,14,24,13,A0,45,23,20,
92053430,00000491,false,Rx,0,8,5B,00,00,00,00,00,00,0A,
92053678,00000493,false,Rx,0,8,00,0C,00,55,00,00,54,06,
92053948,000004DD,false,Rx,0,8,00,00,00,00,00,00,01,00,
92054207,000004DE,false,Rx,0,8,00,7F,7F,0A,7F,C4,1E,00,
92054457,000004E2,false,Rx,0,8,3E,03,CA,03,00,00,C1,9E,
92054717,00000542,false,Rx,0,8,41,18,00,A0,00,00,FF,FF,
92054965,00000595,false,Rx,0,8,1E,00,B4,B5,00,00,74,0C,
92055222,00000596,false,Rx,0,8,95,80,00,00,5B,00,17,18,
92055483,00000597,false,Rx,0,8,81,E6,00,00,00,00,00,00,
92055742,00000598,false,Rx,0,8,00,00,00,00,30,13,7F,7F,
92056001,00000599,false,Rx,0,8,08,00,00,00,00,00,00,00,
92056271,0000059C,false,Rx,0,8,00,00,00,00,00,00,00,00,
92056531,0000059E,false,Rx,0,8,00,00,00,00,74,0C,00,00,
92056779,000005A3,false,Rx,0,8,0F,00,00,00,9D,39,9D,39,
92057039,000005D5,false,Rx,0,8,00,00,00,A4,C8,C8,00,0A,
92057288,000005D6,false,Rx,0,8,B4,B5,00,00,17,18,83,31,
92057548,000005D7,false,Rx,0,8,02,00,00,00,00,00,00,00,
92057798,000005D8,false,Rx,0,8,80,41,0A,00,E6,00,74,0C,
92153162,00000594,false,Rx,0,8,50,14,24,13,A0,45,23,20,
92153429,00000491,false,Rx,0,8,5B,00,00,00,00,00,00,0A,
92153688,00000493,false,Rx,0,8,00,0C,00,55,00,00,54,06,
92153947,000004DD,false,Rx,0,8,00,00,00,00,00,00,01,00,
92154206,000004DE,false,Rx,0,8,00,7F,7F,0A,7F,C4,1E,00,
92154457,000004E2,false,Rx,0,8,3E,03,CA,03,00,00,C1,9E,
92154715,00000542,false,Rx,0,8,41,18,00,A0,00,00,FF,FF,
92154974,00000595,false,Rx,0,8,1E,00,B4,B5,00,00,74,0C,
92155233,00000596,false,Rx,0,8,97,80,00,00,5B,00,17,18,
92155482,00000597,false,Rx,0,8,01,E6,00,00,00,00,00,00,
92155741,00000598,false,Rx,0,8,00,00,00,00,30,13,7F,7F,
92156011,00000599,false,Rx,0,8,08,00,00,00,00,00,00,00,
92156270,0000059C,false,Rx,0,8,00,00,00,00,00,00,00,00,
92156540,0000059E,false,Rx,0,8,00,00,00,00,74,0C,00,00,
92156789,000005A3,false,Rx,0,8,0F,00,00,00,9D,39,9D,39,
92157038,000005D5,false,Rx,0,8,00,00,00,A4,C8,C8,00,0A,
92157287,000005D6,false,Rx,0,8,B4,B5,00,00,17,18,95,CC,
92157548,000005D7,false,Rx,0,8,02,00,00,00,00,00,00,00,
92157797,000005D8,false,Rx,0,8,80,41,0A,00,E6,00,74,0C,
92253167,00000594,false,Rx,0,8,50,14,24,13,A0,45,23,20,
92253433,00000491,false,Rx,0,8,5B,00,00,00,00,00,00,0A,
92253683,00000493,false,Rx,0,8,00,0C,00,55,00,00,54,06,
92253952,000004DD,false,Rx,0,8,00,00,00,00,00,00,01,00,
92254211,000004DE,false,Rx,0,8,00,7F,7F,0A,7F,C4,1E,00,
92254462,000004E2,false,Rx,0,8,3E,03,CA,03,00,00,C1,9E,
92254720,00000542,false,Rx,0,8,41,18,00,A0,00,00,FF,FF,
92254969,00000595,false,Rx,0,8,1E,00,B4,B5,00,00,74,0C,
92255227,00000596,false,Rx,0,8,A9,80,00,00,5B,00,17,18,
92255487,00000597,false,Rx,0,8,81,E6,00,00,00,00,00,00,
92255746,00000598,false,Rx,0,8,00,00,00,00,30,13,7F,7F,
92256006,00000599,false,Rx,0,8,08,00,00,00,00,00,00,00,
92256275,0000059C,false,Rx,0,8,00,00,00,00,00,00,00,00,
92256545,0000059E,false,Rx,0,8,00,00,00,00,74,0C,00,00,
92256785,000005A3,false,Rx,0,8,0F,00,00,00,9D,39,9D,39,
92257043,000005D5,false,Rx,0,8,00,00,00,A4,C8,C8,00,0A,
92257292,000005D6,false,Rx,0,8,B4,B5,00,00,17,18,95,CC,
92257553,000005D7,false,Rx,0,8,02,00,00,00,00,00,00,00,
92257802,000005D8,false,Rx,0,8,80,41,0A,00,E6,00,74,0C,
92353165,00000594,false,Rx,0,8,50,14,24,13,A0,45,23,20,
92353422,00000491,false,Rx,0,8,5B,00,00,00,00,00,00,0A,
92353681,00000493,false,Rx,0,8,00,0C,00,55,00,00,54,06,
92353950,000004DD,false,Rx,0,8,00,00,00,00,00,00,01,00,
92354210,000004DE,false,Rx,0,8,00,7F,7F,0A,7F,C4,1E,00,
92354459,000004E2,false,Rx,0,8,3E,03,CA,03,00,00,C1,9E,
92354718,00000542,false,Rx,0,8,41,18,00,A0,00,00,FF,FF,
92354968,00000595,false,Rx,0,8,1E,00,B4,B5,00,00,74,0C,
92355225,00000596,false,Rx,0,8,15,80,00,00,5B,00,17,18,
92355485,00000597,false,Rx,0,8,01,E6,00,00,00,00,00,00,
92355745,00000598,false,Rx,0,8,00,00,00,00,30,13,7F,7F,
92356014,00000599,false,Rx,0,8,08,00,00,00,00,00,00,00,
92356283,0000059C,false,Rx,0,8,00,00,00,00,00,00,00,00,
92356544,0000059E,false,Rx,0,8,00,00,00,00,74,0C,00,00,
92356792,000005A3,false,Rx,0,8,0F,00,00,00,9D,39,9D,39,
92357041,000005D5,false,Rx,0,8,00,00,00,A4,C8,C8,00,0A,
92357291,000005D6,false,Rx,0,8,B4,B5,00,00,17,18,A9,31,
92357551,000005D7,false,Rx,0,8,02,00,00,00,00,00,00,00,
92357799,000005D8,false,Rx,0,8,80,41,0A,00,E6,00,74,0C,
92453172,00000594,false,Rx,0,8,50,14,24,13,A0,45,23,20,
92453429,000003F6,false,Rx,0,8,18,00,00,00,00,00,00,00,
92453687,00000491,false,Rx,0,8,5B,00,00,00,00,00,00,0A,
92453947,00000493,false,Rx,0,8,00,0C,00,55,00,00,54,06,
92454206,00000497,false,Rx,0,8,14,B4,00,00,00,00,00,00,
92454476,00000498,false,Rx,0,8,00,00,00,00,00,00,00,00,
92454736,000004DD,false,Rx,0,8,00,00,00,00,00,00,01,00,
92454995,000004DE,false,Rx,0,8,00,7F,7F,0A,7F,C4,1E,00,
92455252,000004E2,false,Rx,0,8,3E,03,CA,03,00,00,C1,9E,
92455513,00000542,false,Rx,0,8,41,18,00,A0,00,00,FF,FF,
92455762,00000595,false,Rx,0,8,1E,00,B4,B5,00,00,74,0C,
92456020,00000596,false,Rx,0,8,21,80,00,00,5B,00,17,18,
92456280,00000597,false,Rx,0,8,81,E6,00,00,00,00,00,00,
92456540,00000598,false,Rx,0,8,00,00,00,00,30,13,7F,7F,
92456809,00000599,false,Rx,0,8,08,00,00,00,00,00,00,00,
92457069,0000059C,false,Rx,0,8,00,00,00,00,00,00,00,00,
92457339,0000059E,false,Rx,0,8,00,00,00,00,74,0C,00,00,
92457579,000005A3,false,Rx,0,8,0F,00,00,00,9D,39,9D,39,
92457839,000005D5,false,Rx,0,8,00,00,00,A4,C8,C8,00,0A,
92458077,000005D6,false,Rx,0,8,B4,B5,00,00,17,18,A9,31,
92458346,000005D7,false,Rx,0,8,02,00,00,00,00,00,00,00,
92458597,000005D8,false,Rx,0,8,80,41,0A,00,E6,00,74,0C,
92553172,00000594,false,Rx,0,8,50,14,24,13,A0,45,23,20,
92553428,00000491,false,Rx,0,8,5B,00,00,00,00,00,00,0A,
92553687,00000493,false,Rx,0,8,00,0C,00,55,00,00,54,06,
92553947,000004DD,false,Rx,0,8,00,00,00,00,00,00,01,00,
92554206,000004DE,false,Rx,0,8,00,7F,7F,0A,7F,C4,1E,00,
92554466,000004E2,false,Rx,0,8,3E,03,CA,03,00,00,C1,9E,
92554726,00000542,false,Rx,0,8,41,18,00,A0,00,00,FF,FF,
92554974,00000595,false,Rx,0,8,1E,00,B4,B5,00,00,74,0C,
92555232,00000596,false,Rx,0,8,22,80,00,00,5B,00,17,18,
92555493,00000597,false,Rx,0,8,01,E6,00,00,00,00,00,00,
92555751,00000598,false,Rx,0,8,00,00,00,00,30,13,7F,7F,
92556010,00000599,false,Rx,0,8,08,00,00,00,00,00,00,00,
92556280,0000059C,false,Rx,0,8,00,00,00,00,00,00,00,00,
92556540,0000059E,false,Rx,0,8,00,00,00,00,74,0C,00,00,
92556789,000005A3,false,Rx,0,8,0F,00,00,00,9D,39,9D,39,
92557049,000005D5,false,Rx,0,8,00,00,00,A4,C8,C8,00,0A,
92557298,000005D6,false,Rx,0,8,B4,B5,00,00,17,18,21,CC,
92557559,000005D7,false,Rx,0,8,02,00,00,00,00,00,00,00,
92557808,000005D8,false,Rx,0,8,80,41,0A,00,E6,00,74,0C,
92653183,00000594,false,Rx,0,8,50,14,24,13,A0,45,23,20,
92653440,00000491,false,Rx,0,8,5B,00,00,00,00,00,00,0A,
92653700,00000493,false,Rx,0,8,00,0C,00,55,00,00,54,06,
92653958,000004DD,false,Rx,0,8,00,00,00,00,00,00,01,00,
92654217,000004DE,false,Rx,0,8,00,7F,7F,0A,7F,C4,1E,00,
92654468,000004E2,false,Rx,0,8,3E,03,CA,03,00,00,C1,9E,
92654727,00000542,false,Rx,0,8,41,18,00,A0,00,00,FF,FF,
92654985,00000595,false,Rx,0,8,1E,00,B4,B5,00,00,74,0C,
92655244,00000596,false,Rx,0,8,25,80,00,00,5B,00,17,18,
92655493,00000597,false,Rx,0,8,81,E6,00,00,00,00,00,00,
92655752,00000598,false,Rx,0,8,00,00,00,00,30,13,7F,7F,
92656022,00000599,false,Rx,0,8,08,00,00,00,00,00,00,00,
92656291,0000059C,false,Rx,0,8,00,00,00,00,00,00,00,00,
92656551,0000059E,false,Rx,0,8,00,00,00,00,74,0C,00,00,
92656801,000005A3,false,Rx,0,8,0F,00,00,00,9D,39,9D,39,
92657049,000005D5,false,Rx,0,8,00,00,00,A4,C8,C8,00,0A,
92657298,000005D6,false,Rx,0,8,B4,B5,00,00,17,18,21,CC,
92657559,000005D7,false,Rx,0,8,02,00,00,00,00,00,00,00,
92657808,000005D8,false,Rx,0,8,80,41,0A,00,E6,00,74,0C,
92753177,00000594,false,Rx,0,8,50,14,24,13,A0,45,23,20,
92753433,00000491,false,Rx,0,8,5B,00,00,00,00,00,00,0A,
92753693,00000493,false,Rx,0,8,00,0C,00,55,00,00,54,06,
92753952,000004DD,false,Rx,0,8,00,00,00,00,00,00,01,00,
92754211,000004DE,false,Rx,0,8,00,7F,7F,0A,7F,C4,1E,00,
92754472,000004E2,false,Rx,0,8,3E,03,CA,03,00,00,C1,9E,
92754730,00000542,false,Rx,0,8,41,18,00,A0,00,00,FF,FF,
92754979,00000595,false,Rx,0,8,1E,00,B4,B5,00,00,74,0C,
92755237,00000596,false,Rx,0,8,2D,80,00,00,5B,00,17,18,
92755497,00000597,false,Rx,0,8,01,E6,00,00,00,00,00,00,
92755756,00000598,false,Rx,0,8,00,00,00,00,30,13,7F,7F,
92756026,00000599,false,Rx,0,8,08,00,00,00,00,00,00,00,
92756295,0000059C,false,Rx,0,8,00,00,00,00,00,00,00,00,
92756556,0000059E,false,Rx,0,8,00,00,00,00,74,0C,00,00,
92756805,000005A3,false,Rx,0,8,0F,00,00,00,9D,39,9D,39,
92757053,000005D5,false,Rx,0,8,00,00,00,A4,C8,C8,00,0A,
92757302,000005D6,false,Rx,0,8,B4,B5,00,00,17,18,25,31,
92757563,000005D7,false,Rx,0,8,02,00,00,00,00,00,00,00,
